# MHz S MA R 50

0.1	0.21177653	63.394196	0.21276744	64.204202	0.91992102	-12.058756	0.21061956	-116.05391	
	0.21276744	64.204202	0.21078305	63.712167	0.21078385	-116.18233	0.92094203	-12.121925	
	0.91992102	-12.058756	0.21078385	-116.18233	0.21400138	63.752882	0.21289003	64.103962	
	0.21061956	-116.05391	0.92094203	-12.121925	0.21289003	64.103962	0.21251864	63.511595	
	
0.102310062021247	0.21606865	62.95997	0.21659787	63.661959	0.91668453	-12.280623	0.21448827	-116.68704	
	0.21659787	63.661959	0.21523797	62.981287	0.21392902	-116.67562	0.91756099	-12.334872	
	0.91668453	-12.280623	0.21392902	-116.67562	0.21694184	63.230758	0.21652023	63.6186	
	0.21448827	-116.68704	0.91756099	-12.334872	0.21652023	63.6186	0.21758251	63.059683	
	
0.104673487907914	0.22090786	62.470845	0.22086291	63.040583	0.91372643	-12.525831	0.21887048	-117.21825	
	0.22086291	63.040583	0.21986992	62.267942	0.21820019	-117.17692	0.9150351	-12.565268	
	0.91372643	-12.525831	0.21820019	-117.17692	0.22063858	62.642468	0.22088714	63.106729	
	0.21887048	-117.21825	0.9150351	-12.565268	0.22088714	63.106729	0.22069724	62.859195	
	
0.107091510398389	0.22426456	61.927158	0.22481642	62.703124	0.91087754	-12.73807	0.22221653	-117.73719	
	0.22481642	62.703124	0.22335452	61.895047	0.22236903	-117.64576	0.91189548	-12.771841	
	0.91087754	-12.73807	0.22236903	-117.64576	0.22505729	62.215986	0.22478432	62.553563	
	0.22221653	-117.73719	0.91189548	-12.771841	0.22478432	62.553563	0.22494674	62.103969	
	
0.109565390708082	0.22909464	61.707172	0.22889912	62.043758	0.90789099	-12.932135	0.22637111	-118.35427	
	0.22889912	62.043758	0.22769838	61.370162	0.22622342	-118.23743	0.90870938	-12.982065	
	0.90789099	-12.932135	0.22622342	-118.23743	0.22915561	61.760845	0.2287224	61.95289	
	0.22637111	-118.35427	0.90870938	-12.982065	0.2287224	61.95289	0.22948581	61.641257	
	
0.112096419187261	0.23302993	61.152059	0.2330777	61.547825	0.90481968	-13.167279	0.23109634	-118.85678	
	0.2330777	61.547825	0.23193003	61.101191	0.23080465	-118.67829	0.90579662	-13.246275	
	0.90481968	-13.167279	0.23080465	-118.67829	0.2326693	61.45228	0.23346741	61.483693	
	0.23109634	-118.85678	0.90579662	-13.246275	0.23346741	61.483693	0.23296658	61.341483	
	
0.114685915994083	0.23636343	60.389459	0.23716803	61.100781	0.90190342	-13.36324	0.23492571	-119.35947	
	0.23716803	61.100781	0.23577075	60.389518	0.2351017	-119.28837	0.90240278	-13.437316	
	0.90190342	-13.36324	0.2351017	-119.28837	0.23704315	60.89226	0.23760921	60.93164	
	0.23492571	-119.35947	0.90240278	-13.437316	0.23760921	60.93164	0.23731403	60.625109	
	
0.117335231783182	0.2403756	59.853229	0.24090331	60.565756	0.89858635	-13.595151	0.23859706	-119.78478	
	0.24090331	60.565756	0.24059111	59.776867	0.23847638	-119.87733	0.89962082	-13.653884	
	0.89858635	-13.595151	0.23847638	-119.87733	0.24128664	60.253643	0.2413161	60.448514	
	0.23859706	-119.78478	0.89962082	-13.653884	0.2413161	60.448514	0.24075642	60.231356	
	
0.120045748410147	0.24535246	59.226809	0.24542102	59.974981	0.89536722	-13.776053	0.24278022	-120.53011	
	0.24542102	59.974981	0.24379776	59.430193	0.24264119	-120.45116	0.89548464	-13.828	
	0.89536722	-13.776053	0.24264119	-120.45116	0.2450776	59.513875	0.24564058	59.987997	
	0.24278022	-120.53011	0.89548464	-13.828	0.24564058	59.987997	0.24489038	59.508673	
	
0.122818879652292	0.2494344	58.941536	0.24984923	59.426926	0.89204391	-13.982527	0.2470784	-120.95697	
	0.24984923	59.426926	0.24805744	58.859733	0.24721342	-120.88788	0.89252568	-14.074555	
	0.89204391	-13.982527	0.24721342	-120.88788	0.24996057	59.199108	0.24982623	59.314782	
	0.2470784	-120.95697	0.89252568	-14.074555	0.24982623	59.314782	0.24962598	59.015218	
	
0.125656071946061	0.25412259	58.339501	0.25413329	58.924418	0.8883402	-14.237761	0.25121405	-121.59295	
	0.25413329	58.924418	0.25269607	58.26464	0.25102072	-121.46017	0.88902405	-14.296036	
	0.8883402	-14.237761	0.25102072	-121.46017	0.25416808	58.391835	0.25399947	58.861754	
	0.25121405	-121.59295	0.88902405	-14.296036	0.25399947	58.861754	0.25424654	58.521191	
	
0.128558805141477	0.25708501	57.772055	0.25802458	58.273015	0.88440609	-14.461633	0.255271	-122.16815	
	0.25802458	58.273015	0.25728288	57.587918	0.2551606	-121.98233	0.88551417	-14.540236	
	0.88440609	-14.461633	0.2551606	-121.98233	0.25777017	58.092464	0.25843679	58.307219	
	0.255271	-122.16815	0.88551417	-14.540236	0.25843679	58.307219	0.25682075	57.983414	
	
0.131528593274019	0.26174781	57.114775	0.26235431	57.805629	0.88077773	-14.644637	0.26024892	-122.57661	
	0.26235431	57.805629	0.26062808	57.214246	0.25970489	-122.67611	0.88154032	-14.735186	
	0.88077773	-14.644637	0.25970489	-122.67611	0.26230536	57.350305	0.26302457	57.632887	
	0.26024892	-122.57661	0.88154032	-14.735186	0.26302457	57.632887	0.26155854	57.515807	
	
0.134566985354323	0.2665238	56.456755	0.26664712	57.170419	0.87682095	-14.863618	0.26403567	-123.34616	
	0.26664712	57.170419	0.26544629	56.626151	0.26342762	-123.20675	0.87735515	-14.957918	
	0.87682095	-14.863618	0.26342762	-123.20675	0.26700939	56.631567	0.26648565	56.992363	
	0.26403567	-123.34616	0.87735515	-14.957918	0.26648565	56.992363	0.26709842	56.797153	
	
0.13767556617613	0.27021461	55.970851	0.27074473	56.677232	0.87335259	-15.1044	0.26794942	-123.9818	
	0.27074473	56.677232	0.27000222	55.944212	0.26840951	-123.82457	0.87370013	-15.140945	
	0.87335259	-15.1044	0.26840951	-123.82457	0.27047619	56.106889	0.27153591	56.41071	
	0.26794942	-123.9818	0.87370013	-15.140945	0.27153591	56.41071	0.27131099	56.312758	
	
0.140855957142902	0.27398543	55.352813	0.27485783	56.103175	0.86918343	-15.342496	0.27203267	-124.58505	
	0.27485783	56.103175	0.27478128	55.195552	0.27201585	-124.38063	0.86923287	-15.36219	
	0.86918343	-15.342496	0.27201585	-124.38063	0.27465179	55.349839	0.2755088	55.856667	
	0.27203267	-124.58505	0.86923287	-15.36219	0.2755088	55.856667	0.27598801	55.609186	
	
0.144109817113524	0.27877083	54.697611	0.27919513	55.471503	0.86436555	-15.503855	0.27637778	-125.18147	
	0.27919513	55.471503	0.27822171	54.669253	0.27613955	-125.11343	0.86539308	-15.586492	
	0.86436555	-15.503855	0.27613955	-125.11343	0.27898623	54.921559	0.27982666	55.22059	
	0.27637778	-125.18147	0.86539308	-15.586492	0.27982666	55.22059	0.28015213	54.949251	
	
0.147438843267552	0.28310531	54.205815	0.28375298	54.822157	0.86012598	-15.731184	0.28063735	-125.73095	
	0.28375298	54.822157	0.28244646	54.199346	0.28045372	-125.72057	0.86118046	-15.823913	
	0.86012598	-15.731184	0.28045372	-125.72057	0.28334885	54.554351	0.28383286	54.725252	
	0.28063735	-125.73095	0.86118046	-15.823913	0.28383286	54.725252	0.28434167	54.310038	
	
0.150844771990442	0.28768726	53.387488	0.287505	54.222267	0.85608447	-15.910428	0.2850889	-126.30425	
	0.287505	54.222267	0.28768634	53.450736	0.28466545	-126.27694	0.85687544	-15.995871	
	0.85608447	-15.910428	0.28466545	-126.27694	0.28761656	53.649611	0.28791093	54.099034	
	0.2850889	-126.30425	0.85687544	-15.995871	0.28791093	54.099034	0.28791926	53.739912	
	
0.154329379779229	0.29187037	52.921688	0.29230127	53.633341	0.85132642	-16.100035	0.28870398	-127.01909	
	0.29230127	53.633341	0.2920113	52.91932	0.28911661	-126.93901	0.85251897	-16.175617	
	0.85132642	-16.100035	0.28911661	-126.93901	0.29252195	53.196475	0.29281741	53.47868	
	0.28870398	-127.01909	0.85251897	-16.175617	0.29281741	53.47868	0.29257626	53.113511	
	
0.157894484169135	0.29614145	52.30682	0.29655012	53.007382	0.84763473	-16.333715	0.29384926	-127.59335	
	0.29655012	53.007382	0.29609487	52.275903	0.29377163	-127.58743	0.8482295	-16.420086	
	0.84763473	-16.333715	0.29377163	-127.58743	0.29634444	52.635457	0.29712585	52.822198	
	0.29384926	-127.59335	0.8482295	-16.420086	0.29712585	52.822198	0.2969011	52.61334	
	
0.16154194468157	0.30104141	51.762091	0.30151408	52.408889	0.84215246	-16.550825	0.29781678	-128.17296	
	0.30151408	52.408889	0.30018522	51.841818	0.29755292	-128.04288	0.84420398	-16.673233	
	0.84215246	-16.550825	0.29755292	-128.04288	0.2998019	51.954291	0.30144498	52.412833	
	0.29781678	-128.17296	0.84420398	-16.673233	0.30144498	52.412833	0.30126753	51.802286	
	
0.165273663794043	0.3045826	51.178047	0.30562465	51.725459	0.83831307	-16.755665	0.3022726	-128.84743	
	0.30562465	51.725459	0.30482982	50.972606	0.30188319	-128.79263	0.83918443	-16.854696	
	0.83831307	-16.755665	0.30188319	-128.79263	0.30471536	51.320654	0.30553696	51.60044	
	0.3022726	-128.84743	0.83918443	-16.854696	0.30553696	51.60044	0.30520853	51.265943	
	
0.169091587932473	0.30899899	50.514591	0.30984735	51.119854	0.83384086	-16.923334	0.30612741	-129.48638	
	0.30984735	51.119854	0.30938064	50.575671	0.30648155	-129.50269	0.83401275	-17.017563	
	0.83384086	-16.923334	0.30648155	-129.50269	0.30981358	50.575671	0.30965754	50.982157	
	0.30612741	-129.48638	0.83401275	-17.017563	0.30965754	50.982157	0.30991214	50.55736	
	
0.172997708486424	0.31303957	49.860526	0.31405862	50.497121	0.8293559	-17.099681	0.31018652	-130.12933	
	0.31405862	50.497121	0.31228671	49.874518	0.31018795	-130.03502	0.82931259	-17.229102	
	0.8293559	-17.099681	0.31018795	-130.03502	0.31388214	49.944272	0.31369772	50.320996	
	0.31018652	-130.12933	0.82931259	-17.229102	0.31369772	50.320996	0.31345256	50.090677	
	
0.176994062847797	0.3177629	49.313043	0.31862977	49.820977	0.82409324	-17.291599	0.31529891	-130.76861	
	0.31862977	49.820977	0.31806095	49.149675	0.31487495	-130.67136	0.8244072	-17.374858	
	0.82409324	-17.291599	0.31487495	-130.67136	0.31838411	49.339718	0.31844002	49.658327	
	0.31529891	-130.76861	0.8244072	-17.374858	0.31844002	49.658327	0.3174347	49.477214	
	
0.181082735473506	0.32195827	48.532351	0.32203069	49.179643	0.81927482	-17.468908	0.31902541	-131.41404	
	0.32203069	49.179643	0.32170749	48.464036	0.31868934	-131.28674	0.81974774	-17.56902	
	0.81927482	-17.468908	0.31868934	-131.28674	0.32117741	48.828233	0.32260632	49.108618	
	0.31902541	-131.41404	0.81974774	-17.56902	0.32260632	49.108618	0.32249809	48.743903	
	
0.185265858972714	0.32558411	48.114779	0.32669445	48.604166	0.81439368	-17.662707	0.32310773	-132.02374	
	0.32669445	48.604166	0.32615861	47.893002	0.32335987	-131.97182	0.81495919	-17.764379	
	0.81439368	-17.662707	0.32335987	-131.97182	0.32617332	48.132314	0.32699889	48.549719	
	0.32310773	-132.02374	0.81495919	-17.764379	0.32699889	48.549719	0.32648198	48.125023	
	
0.18954561521918	0.33034922	47.319765	0.33106363	48.009479	0.80950632	-17.821528	0.3276038	-132.73565	
	0.33106363	48.009479	0.3297641	47.387083	0.32705005	-132.58055	0.80996824	-17.938129	
	0.80950632	-17.821528	0.32705005	-132.58055	0.33058496	47.715462	0.33158769	47.903576	
	0.3276038	-132.73565	0.80996824	-17.938129	0.33158769	47.903576	0.32988475	47.481382	
	
0.193924236489297	0.33440077	46.673365	0.33445972	47.31736	0.80380051	-18.006254	0.33112911	-133.31208	
	0.33445972	47.31736	0.33422626	46.590799	0.33163816	-133.26829	0.80487105	-18.054684	
	0.80380051	-18.006254	0.33163816	-133.26829	0.33453381	46.90961	0.3348804	47.211346	
	0.33112911	-133.31208	0.80487105	-18.054684	0.3348804	47.211346	0.3346428	46.829462	
	
0.19840400662643	0.33847795	46.103116	0.33907524	46.625214	0.79913838	-18.171972	0.33592644	-133.9892	
	0.33907524	46.625214	0.33857006	46.073727	0.33542526	-134.00168	0.79951863	-18.29631	
	0.79913838	-18.171972	0.33542526	-134.00168	0.33867235	46.17974	0.34020818	46.539955	
	0.33592644	-133.9892	0.79951863	-18.29631	0.34020818	46.539955	0.33870632	46.081898	
	
0.202987262232139	0.34270338	45.459434	0.34299437	45.989103	0.79398583	-18.284293	0.33954921	-134.65399	
	0.34299437	45.989103	0.34300274	45.436632	0.33929778	-134.65138	0.79444632	-18.399302	
	0.79398583	-18.284293	0.33929778	-134.65138	0.34246863	45.606271	0.3432835	45.953599	
	0.33954921	-134.65399	0.79444632	-18.399302	0.3432835	45.953599	0.343836	45.576062	
	
0.207676393884933	0.34628041	44.817736	0.34758556	45.372796	0.78861659	-18.443944	0.34327888	-135.35457	
	0.34758556	45.372796	0.34734133	44.755497	0.34379494	-135.22755	0.78880041	-18.520106	
	0.78861659	-18.443944	0.34379494	-135.22755	0.34648272	45.036945	0.34739304	45.268809	
	0.34327888	-135.35457	0.78880041	-18.520106	0.34739304	45.268809	0.34738842	45.00283	
	
0.212473847387164	0.35076207	44.052828	0.35118554	44.783191	0.78325092	-18.561405	0.34724418	-135.97278	
	0.35118554	44.783191	0.35029259	44.057116	0.34703231	-135.91388	0.78400417	-18.663912	
	0.78325092	-18.561405	0.34703231	-135.91388	0.35056286	44.222763	0.35128043	44.67437	
	0.34724418	-135.97278	0.78400417	-18.663912	0.35128043	44.67437	0.35156489	44.285325	
	
0.217382125040737	0.35436824	43.536428	0.35492582	44.068411	0.77876501	-18.706965	0.35134473	-136.71062	
	0.35492582	44.068411	0.35499797	43.486413	0.35096232	-136.58374	0.77887427	-18.807067	
	0.77876501	-18.706965	0.35096232	-136.58374	0.35373231	43.759063	0.35574898	43.99817	
	0.35134473	-136.71062	0.77887427	-18.807067	0.35574898	43.99817	0.35537245	43.678623	
	
0.222403786952283	0.3585202	42.795711	0.35904606	43.452121	0.77296677	-18.87728	0.35526103	-137.33084	
	0.35904606	43.452121	0.35911206	42.837803	0.35507439	-137.24221	0.77318396	-18.91447	
	0.77296677	-18.87728	0.35507439	-137.24221	0.35827743	43.013563	0.35932492	43.254006	
	0.35526103	-137.33084	0.77318396	-18.91447	0.35932492	43.254006	0.3589767	42.932179	
	
0.227541452368483	0.36291372	42.184767	0.36288727	42.822253	0.76767627	-18.955248	0.35893372	-137.93911	
	0.36288727	42.822253	0.36310857	42.258424	0.35843661	-137.81001	0.76790774	-19.090908	
	0.76767627	-18.955248	0.35843661	-137.81001	0.36167749	42.292559	0.36300346	42.745824	
	0.35893372	-137.93911	0.76790774	-19.090908	0.36300346	42.745824	0.36280757	42.388424	
	
0.232797801042241	0.36587565	41.567589	0.36681769	42.162561	0.76234744	-19.043319	0.36239761	-138.66916	
	0.36681769	42.162561	0.36608209	41.632247	0.36293231	-138.51746	0.76256821	-19.147457	
	0.76234744	-19.043319	0.36293231	-138.51746	0.36659042	41.688732	0.36661094	42.037665	
	0.36239761	-138.66916	0.76256821	-19.147457	0.36661094	42.037665	0.36693491	41.633194	
	
0.238175574630416	0.3698484	40.952485	0.3706093	41.597673	0.75701861	-19.153707	0.3665582	-139.24364	
	0.3706093	41.597673	0.37033158	40.898476	0.36619379	-139.18859	0.75698987	-19.285486	
	0.75701861	-19.153707	0.36619379	-139.18859	0.37028867	40.996504	0.37059563	41.425209	
	0.3665582	-139.24364	0.75698987	-19.285486	0.37059563	41.425209	0.37030595	41.032291	
	
0.24367757812384	0.37377122	40.260437	0.374254	40.834894	0.75101235	-19.274604	0.37055696	-139.88247	
	0.374254	40.834894	0.37322276	40.255766	0.36993818	-139.82986	0.75169226	-19.390541	
	0.75101235	-19.274604	0.36993818	-139.82986	0.37335841	40.352101	0.37396211	40.773156	
	0.37055696	-139.88247	0.75169226	-19.390541	0.37396211	40.773156	0.37372084	40.414838	
	
0.249306681310373	0.37747759	39.643193	0.37771764	40.28157	0.74532011	-19.386241	0.37316088	-140.60955	
	0.37771764	40.28157	0.37766093	39.609108	0.37291192	-140.49722	0.74636839	-19.464296	
	0.74532011	-19.386241	0.37291192	-140.49722	0.37747858	39.825203	0.37758477	40.118599	
	0.37316088	-140.60955	0.74636839	-19.464296	0.37758477	40.118599	0.3778079	39.707546	
	
0.255065820271756	0.38072464	39.030339	0.38156812	39.616679	0.74066319	-19.423809	0.37735778	-141.23812	
	0.38156812	39.616679	0.38136384	38.940641	0.37721794	-141.15974	0.74067229	-19.511054	
	0.74066319	-19.423809	0.37721794	-141.15974	0.38036522	39.178531	0.38190254	39.500397	
	0.37735778	-141.23812	0.74067229	-19.511054	0.38190254	39.500397	0.3811192	39.074053	
	
0.260957998915036	0.38452429	38.346658	0.38448833	39.069824	0.73460001	-19.502215	0.38037489	-141.89832	
	0.38448833	39.069824	0.38492473	38.385554	0.38042857	-141.7764	0.73552098	-19.591122	
	0.73460001	-19.502215	0.38042857	-141.7764	0.38419223	38.474324	0.38484931	38.910722	
	0.38037489	-141.89832	0.73552098	-19.591122	0.38484931	38.910722	0.38461677	38.417686	
	
0.266986290539378	0.38753574	37.696534	0.38839322	38.342803	0.73002758	-19.549099	0.38380028	-142.56511	
	0.38839322	38.342803	0.38803431	37.763116	0.3841119	-142.43477	0.73013183	-19.675976	
	0.73002758	-19.549099	0.3841119	-142.43477	0.38818515	37.829656	0.38808311	38.264029	
	0.38380028	-142.56511	0.73013183	-19.675976	0.38808311	38.264029	0.38835202	37.84828	
	
0.273153839439064	0.39121665	37.147466	0.3914889	37.748971	0.72462792	-19.611116	0.38733546	-143.17643	
	0.3914889	37.748971	0.39122241	37.116614	0.38781613	-143.02996	0.72433054	-19.705568	
	0.72462792	-19.611116	0.38781613	-143.02996	0.39122258	37.226188	0.39132627	37.68527	
	0.38733546	-143.17643	0.72433054	-19.705568	0.39132627	37.68527	0.39184384	37.210406	
	
0.279463862543524	0.39419536	36.430074	0.3948738	37.206943	0.71931815	-19.664355	0.39051256	-143.78546	
	0.3948738	37.206943	0.3956531	36.585018	0.39021463	-143.71765	0.71919269	-19.782632	
	0.71931815	-19.664355	0.39021463	-143.71765	0.39460506	36.529008	0.39463844	37.040882	
	0.39051256	-143.78546	0.71919269	-19.782632	0.39463844	37.040882	0.39436345	36.537561	
	
0.285919651095252	0.39782386	35.883324	0.39824267	36.47309	0.71376263	-19.680499	0.39370577	-144.4749	
	0.39824267	36.47309	0.39806562	35.919779	0.39364391	-144.41141	0.71360857	-19.791809	
	0.71376263	-19.680499	0.39364391	-144.41141	0.39744012	35.968252	0.39801149	36.375983	
	0.39370577	-144.4749	0.71360857	-19.791809	0.39801149	36.375983	0.39842645	35.936246	
	
0.292524572366485	0.40085761	35.201859	0.40102952	35.881187	0.70861024	-19.707756	0.39666752	-145.11723	
	0.40102952	35.881187	0.40155207	35.336952	0.39672466	-145.08665	0.70819101	-19.77218	
	0.70861024	-19.707756	0.39672466	-145.08665	0.4015685	35.416828	0.40130615	35.693127	
	0.39666752	-145.11723	0.70819101	-19.77218	0.40130615	35.693127	0.40202538	35.482142	
	
0.299282071415539	0.40403804	34.634812	0.40390428	35.234431	0.7032813	-19.698942	0.39962686	-145.824	
	0.40390428	35.234431	0.40377068	34.648346	0.39930554	-145.64999	0.70319458	-19.837646	
	0.7032813	-19.698942	0.39930554	-145.64999	0.40429556	34.867767	0.40399805	35.019323	
	0.39962686	-145.824	0.70319458	-19.837646	0.40399805	35.019323	0.40471237	34.730233	
	
0.30619567288371	0.40731511	34.061339	0.406865	34.727448	0.69799094	-19.713543	0.40228838	-146.42113	
	0.406865	34.727448	0.40640382	34.064172	0.40230464	-146.21039	0.69866489	-19.82886	
	0.69799094	-19.713543	0.40230464	-146.21039	0.40689756	34.25855	0.40748188	34.540168	
	0.40228838	-146.42113	0.69866489	-19.82886	0.40748188	34.540168	0.40778965	34.14076	
	
0.313268982833699	0.41060782	33.456103	0.41055324	34.121324	0.69264409	-19.751225	0.40573246	-146.94125	
	0.41055324	34.121324	0.4098405	33.422364	0.4061704	-146.89107	0.69289827	-19.791369	
	0.69264409	-19.751225	0.4061704	-146.89107	0.41024953	33.544612	0.41062794	33.931692	
	0.40573246	-146.94125	0.69289827	-19.791369	0.41062794	33.931692	0.41051246	33.593902	
	
0.320505690630487	0.41199018	32.82909	0.41363394	33.581411	0.6877055	-19.680431	0.40933273	-147.48848	
	0.41363394	33.581411	0.41302023	32.757362	0.40878522	-147.42498	0.68808923	-19.870698	
	0.6877055	-19.680431	0.40878522	-147.42498	0.41337228	32.943241	0.41409142	33.411662	
	0.40933273	-147.48848	0.68808923	-19.870698	0.41409142	33.411662	0.4132391	32.94196	
	
0.327909570865677	0.41523019	32.201869	0.41662207	32.989543	0.68266582	-19.706032	0.41223014	-148.11516	
	0.41662207	32.989543	0.41585109	32.178932	0.41202102	-147.95178	0.68233982	-19.878309	
	0.68266582	-19.706032	0.41202102	-147.95178	0.41558728	32.345629	0.41755984	32.740674	
	0.41223014	-148.11516	0.68233982	-19.878309	0.41755984	32.740674	0.41575373	32.342591	
	
0.335484485326279	0.41761995	31.554304	0.41963451	32.40815	0.67714317	-19.694325	0.41464978	-148.72303	
	0.41963451	32.40815	0.41819197	31.606421	0.41498645	-148.5573	0.67764188	-19.779855	
