# MHz S MA R 50

0.1	0.51149455	6.6064849	0.47403316	8.0936196	0.49115853	-8.0003712	0.47252541	-173.21337	
	0.47403316	8.0936196	0.50893376	6.5986931	0.47295679	-173.13246	0.49299859	-8.0280111	
	0.49115853	-8.0003712	0.47295679	-173.13246	0.51065289	6.7390816	0.47439328	7.926179	
	0.47252541	-173.21337	0.49299859	-8.0280111	0.47439328	7.926179	0.50847086	6.5855384	
	
0.102310062021247	0.51218359	6.4139454	0.4747389	7.8837678	0.4902733	-7.8700412	0.47345163	-173.45266	
	0.4747389	7.8837678	0.50949626	6.4685131	0.47303366	-173.31329	0.49274846	-7.9047777	
	0.4902733	-7.8700412	0.47303366	-173.31329	0.51067192	6.514079	0.47450997	7.7944173	
	0.47345163	-173.45266	0.49274846	-7.9047777	0.47450997	7.7944173	0.5091866	6.501187	
	
0.104673487907914	0.51269395	6.2209488	0.47486365	7.7138296	0.48947308	-7.7128064	0.47327709	-173.64863	
	0.47486365	7.7138296	0.50931735	6.2835268	0.47288705	-173.45907	0.49251264	-7.7586466	
	0.48947308	-7.7128064	0.47288705	-173.45907	0.51109268	6.4067179	0.47463087	7.6338378	
	0.47327709	-173.64863	0.49251264	-7.7586466	0.47463087	7.6338378	0.50831731	6.3456483	
	
0.107091510398389	0.51223227	6.0494581	0.47491345	7.524176	0.48921283	-7.6264922	0.47351469	-173.79337	
	0.47491345	7.524176	0.5100374	6.1240742	0.4737222	-173.68744	0.49208175	-7.6974934	
	0.48921283	-7.6264922	0.4737222	-173.68744	0.51160664	6.1802998	0.47491935	7.4249307	
	0.47351469	-173.79337	0.49208175	-7.6974934	0.47491935	7.4249307	0.50949318	6.1820976	
	
0.109565390708082	0.51217502	5.9647825	0.47527279	7.4120462	0.48829698	-7.4972656	0.47421848	-173.99064	
	0.47527279	7.4120462	0.50992785	5.9695334	0.47338107	-173.86811	0.4914731	-7.5170908	
	0.48829698	-7.4972656	0.47338107	-173.86811	0.5120635	6.044511	0.47522322	7.2965394	
	0.47421848	-173.99064	0.4914731	-7.5170908	0.47522322	7.2965394	0.50948223	6.1050332	
	
0.112096419187261	0.51322464	5.8637319	0.47562438	7.2109516	0.48749769	-7.3747115	0.47478407	-174.12786	
	0.47562438	7.2109516	0.51030534	5.8273015	0.4745871	-173.99047	0.4907683	-7.3837025	
	0.48749769	-7.3747115	0.4745871	-173.99047	0.51130806	5.9312943	0.475732	7.145659	
	0.47478407	-174.12786	0.4907683	-7.3837025	0.475732	7.145659	0.50944356	5.7989156	
	
0.114685915994083	0.51268192	5.6141665	0.47559121	7.125491	0.48768909	-7.2373175	0.47434386	-174.28769	
	0.47559121	7.125491	0.51032126	5.6491277	0.47431799	-174.15407	0.49069518	-7.2896435	
	0.48768909	-7.2373175	0.47431799	-174.15407	0.51139801	5.7970205	0.47573306	7.0475703	
	0.47434386	-174.28769	0.49069518	-7.2896435	0.47573306	7.0475703	0.50965712	5.7598578	
	
0.117335231783182	0.51302361	5.4499943	0.47552119	6.96937	0.48726299	-7.1847365	0.47432842	-174.47054	
	0.47552119	6.96937	0.51052029	5.5210775	0.47423723	-174.40988	0.48988327	-7.2631041	
	0.48726299	-7.1847365	0.47423723	-174.40988	0.51205844	5.6477784	0.47585474	6.9157523	
	0.47432842	-174.47054	0.48988327	-7.2631041	0.47585474	6.9157523	0.5094817	5.5625579	
	
0.120045748410147	0.51347261	5.3086106	0.47534369	6.8760672	0.48715402	-7.0436062	0.47491232	-174.63367	
	0.47534369	6.8760672	0.50958316	5.3585305	0.47413898	-174.53804	0.48940323	-7.0551375	
	0.48715402	-7.0436062	0.47413898	-174.53804	0.51220588	5.5459594	0.47555193	6.793097	
	0.47491232	-174.63367	0.48940323	-7.0551375	0.47555193	6.793097	0.51032795	5.3252763	
	
0.122818879652292	0.51347996	5.1996547	0.47566824	6.7316712	0.48652028	-6.8909194	0.47476115	-174.81646	
	0.47566824	6.7316712	0.51030721	5.2587309	0.47456802	-174.62344	0.48921354	-6.9962764	
	0.48652028	-6.8909194	0.47456802	-174.62344	0.51244202	5.3636401	0.47632694	6.6312924	
	0.47476115	-174.81646	0.48921354	-6.9962764	0.47632694	6.6312924	0.51056208	5.1909647	
	
0.125656071946061	0.51368579	5.0488929	0.47644393	6.611408	0.48611479	-6.840127	0.47482632	-175.0321	
	0.47644393	6.611408	0.51064494	5.1278154	0.4746398	-174.84761	0.48837466	-6.8608374	
	0.48611479	-6.840127	0.4746398	-174.84761	0.51281122	5.1391667	0.47620404	6.5361585	
	0.47482632	-175.0321	0.48837466	-6.8608374	0.47620404	6.5361585	0.51009435	5.1006593	
	
0.128558805141477	0.51328423	4.9314979	0.47607563	6.4468065	0.48522415	-6.7157244	0.47503667	-175.10365	
	0.47607563	6.4468065	0.51094532	4.9238333	0.47511721	-175.04326	0.48835452	-6.8103353	
	0.48522415	-6.7157244	0.47511721	-175.04326	0.51360159	4.9809316	0.47684355	6.409148	
	0.47503667	-175.10365	0.48835452	-6.8103353	0.47684355	6.409148	0.50997012	4.9584392	
	
0.131528593274019	0.51406402	4.7876761	0.47640261	6.3774661	0.48563187	-6.6072724	0.47518206	-175.23095	
	0.47640261	6.3774661	0.51053773	4.8992828	0.47488939	-175.16473	0.48795702	-6.6921407	
	0.48563187	-6.6072724	0.47488939	-175.16473	0.51296366	4.9324689	0.47655231	6.2341741	
	0.47518206	-175.23095	0.48795702	-6.6921407	0.47655231	6.2341741	0.51067208	4.9206764	
	
0.134566985354323	0.51370253	4.666587	0.47599752	6.2223643	0.48519202	-6.4992854	0.47490218	-175.41319	
	0.47599752	6.2223643	0.51123287	4.7516208	0.4751153	-175.31784	0.48768296	-6.6167784	
	0.48519202	-6.4992854	0.4751153	-175.31784	0.51413907	4.8409185	0.47683236	6.1225331	
	0.47490218	-175.41319	0.48768296	-6.6167784	0.47683236	6.1225331	0.51049624	4.749821	
	
0.13767556617613	0.51438998	4.5766096	0.47620892	6.156214	0.48483856	-6.4546266	0.47505061	-175.635	
	0.47620892	6.156214	0.51132495	4.5573303	0.47537422	-175.43606	0.48743087	-6.4492118	
	0.48483856	-6.4546266	0.47537422	-175.43606	0.5131969	4.6902614	0.47688876	6.0395844	
	0.47505061	-175.635	0.48743087	-6.4492118	0.47688876	6.0395844	0.51076304	4.5967596	
	
0.140855957142902	0.51421288	4.437087	0.47667315	6.0616449	0.4851701	-6.3727375	0.47549933	-175.72579	
	0.47667315	6.0616449	0.51208318	4.4082043	0.47476986	-175.61601	0.48689936	-6.3764738	
	0.4851701	-6.3727375	0.47476986	-175.61601	0.51314744	4.5538314	0.47682121	5.8518792	
	0.47549933	-175.72579	0.48689936	-6.3764738	0.47682121	5.8518792	0.510864	4.5153504	
	
0.144109817113524	0.51482441	4.2649936	0.47669787	5.9279038	0.48431207	-6.2607878	0.47572156	-175.88822	
	0.47669787	5.9279038	0.51212158	4.3364888	0.4752712	-175.75706	0.48671387	-6.273795	
	0.48431207	-6.2607878	0.4752712	-175.75706	0.5136492	4.4430052	0.47677874	5.8149658	
	0.47572156	-175.88822	0.48671387	-6.273795	0.47677874	5.8149658	0.5109871	4.4506284	
	
0.147438843267552	0.5144806	4.1754035	0.47695214	5.784159	0.4833015	-6.1709423	0.47567141	-176.00922	
	0.47695214	5.784159	0.51187983	4.2624395	0.47548225	-175.91381	0.48622534	-6.2698163	
	0.4833015	-6.1709423	0.47548225	-175.91381	0.51347126	4.3349659	0.47731342	5.6704717	
	0.47567141	-176.00922	0.48622534	-6.2698163	0.47731342	5.6704717	0.51234873	4.2127402	
	
0.150844771990442	0.51516418	4.0175606	0.47688898	5.7140955	0.48357864	-6.0742883	0.47560309	-176.16461	
	0.47688898	5.7140955	0.51203828	4.1584161	0.47500257	-176.09158	0.48638058	-6.1159712	
	0.48357864	-6.0742883	0.47500257	-176.09158	0.51392118	4.1895676	0.47709346	5.5994559	
	0.47560309	-176.16461	0.48638058	-6.1159712	0.47709346	5.5994559	0.5113584	4.1088567	
	
0.154329379779229	0.51460756	3.8656557	0.47695407	5.6048728	0.4832629	-5.9929555	0.47556611	-176.33581	
	0.47695407	5.6048728	0.5118749	3.9848794	0.47582032	-176.27136	0.48616038	-6.0381199	
	0.4832629	-5.9929555	0.47582032	-176.27136	0.5135978	4.0685306	0.47769217	5.5026322	
	0.47556611	-176.33581	0.48616038	-6.0381199	0.47769217	5.5026322	0.51163029	4.0316096	
	
0.157894484169135	0.51500813	3.8140837	0.47722309	5.4641558	0.48328682	-5.9023031	0.47607716	-176.48571	
	0.47722309	5.4641558	0.51242453	3.9099838	0.47590667	-176.34968	0.48593175	-5.9856279	
	0.48328682	-5.9023031	0.47590667	-176.34968	0.51380178	3.9950341	0.47744383	5.3473202	
	0.47607716	-176.48571	0.48593175	-5.9856279	0.47744383	5.3473202	0.51135848	3.9059599	
	
0.16154194468157	0.51437934	3.6570975	0.47798235	5.4237864	0.4819517	-5.7988068	0.47541183	-176.60053	
	0.47798235	5.4237864	0.51240409	3.8091028	0.47580626	-176.43876	0.4855126	-5.9795866	
	0.4819517	-5.7988068	0.47580626	-176.43876	0.51411901	3.8359044	0.47759766	5.4135177	
	0.47541183	-176.60053	0.4855126	-5.9795866	0.47759766	5.4135177	0.51172062	3.7580525	
	
0.165273663794043	0.51460187	3.5477434	0.4776957	5.2868107	0.48219525	-5.7873376	0.47599056	-176.75299	
	0.4776957	5.2868107	0.51256101	3.6194864	0.47552686	-176.64668	0.48557072	-5.832603	
	0.48219525	-5.7873376	0.47552686	-176.64668	0.51374805	3.6819397	0.47767149	5.1974205	
	0.47599056	-176.75299	0.48557072	-5.832603	0.47767149	5.1974205	0.51163916	3.6907171	
	
0.169091587932473	0.51522411	3.457345	0.47793935	5.2073242	0.48227355	-5.6965104	0.47639891	-176.89106	
	0.47793935	5.2073242	0.51241568	3.5590842	0.4760491	-176.73368	0.48497491	-5.8052119	
	0.48227355	-5.6965104	0.4760491	-176.73368	0.51402912	3.6623112	0.47745151	5.1473466	
	0.47639891	-176.89106	0.48497491	-5.8052119	0.47745151	5.1473466	0.51171214	3.5330247	
	
0.172997708486424	0.51511729	3.3040314	0.47759293	5.0757756	0.48261633	-5.6226868	0.47635947	-177.00095	
	0.47759293	5.0757756	0.51259407	3.4192065	0.47614591	-176.79853	0.48442335	-5.7273693	
	0.48261633	-5.6226868	0.47614591	-176.79853	0.51488719	3.5251422	0.47797112	5.038899	
	0.47635947	-177.00095	0.48442335	-5.7273693	0.47797112	5.038899	0.51190071	3.4896628	
	
0.176994062847797	0.51469314	3.2531086	0.47790936	5.0122446	0.4821402	-5.5496287	0.47627154	-177.16372	
	0.47790936	5.0122446	0.51265067	3.3795501	0.47629433	-176.96841	0.48472043	-5.6403845	
	0.4821402	-5.5496287	0.47629433	-176.96841	0.51439472	3.441453	0.47807613	4.9542315	
	0.47627154	-177.16372	0.48472043	-5.6403845	0.47807613	4.9542315	0.51196566	3.3287295	
	
0.181082735473506	0.51518046	3.1587107	0.47765443	4.9912462	0.48189047	-5.5129642	0.47634894	-177.25396	
	0.47765443	4.9912462	0.51314834	3.296291	0.47597178	-177.09697	0.48449978	-5.5968764	
	0.48189047	-5.5129642	0.47597178	-177.09697	0.51442376	3.2841308	0.47838432	4.8152706	
	0.47634894	-177.25396	0.48449978	-5.5968764	0.47838432	4.8152706	0.5120593	3.2817673	
	
0.185265858972714	0.51451315	3.0490237	0.47808241	4.8596909	0.48181102	-5.4594284	0.47622682	-177.40164	
	0.47808241	4.8596909	0.51290558	3.1605074	0.47663328	-177.2268	0.4839423	-5.5442704	
	0.48181102	-5.4594284	0.47663328	-177.2268	0.51413285	3.1409068	0.47826363	4.7659254	
	0.47622682	-177.40164	0.4839423	-5.5442704	0.47826363	4.7659254	0.51173351	3.1043389	
	
0.18954561521918	0.5147898	2.9495666	0.47824513	4.8660302	0.48141287	-5.4310835	0.47687741	-177.53036	
	0.47824513	4.8660302	0.51356086	3.0381594	0.4758482	-177.40531	0.48320935	-5.4815271	
	0.48141287	-5.4310835	0.4758482	-177.40531	0.51404011	3.0808627	0.4786497	4.7390537	
	0.47687741	-177.53036	0.48320935	-5.4815271	0.4786497	4.7390537	0.51155981	3.0099285	
	
0.193924236489297	0.51554904	2.8072348	0.47787892	4.7412684	0.48123529	-5.3289065	0.47641875	-177.65347	
	0.47787892	4.7412684	0.51310495	2.9337695	0.47669152	-177.46282	0.48405701	-5.4044503	
	0.48123529	-5.3289065	0.47669152	-177.46282	0.51472183	2.9908542	0.47835785	4.6218089	
	0.47641875	-177.65347	0.48405701	-5.4044503	0.47835785	4.6218089	0.51217901	2.9146393	
	
0.19840400662643	0.51493014	2.7326402	0.47831398	4.621974	0.48106297	-5.3011395	0.47659568	-177.78801	
	0.47831398	4.621974	0.5132951	2.8700933	0.47648153	-177.65496	0.48391998	-5.3383126	
	0.48106297	-5.3011395	0.47648153	-177.65496	0.51379905	2.8907224	0.47873178	4.5632582	
	0.47659568	-177.78801	0.48391998	-5.3383126	0.47873178	4.5632582	0.51161463	2.7785823	
	
0.202987262232139	0.51552316	2.6487074	0.47808426	4.5839958	0.48089879	-5.2357134	0.47704529	-177.90234	
	0.47808426	4.5839958	0.51333099	2.8519243	0.47648152	-177.77073	0.48305166	-5.2994612	
	0.48089879	-5.2357134	0.47648152	-177.77073	0.51436444	2.7646846	0.47850893	4.504309	
	0.47704529	-177.90234	0.48305166	-5.2994612	0.47850893	4.504309	0.51223334	2.7406985	
	
0.207676393884933	0.51484188	2.5275775	0.47853304	4.4985546	0.48091376	-5.1835436	0.47673451	-178.05496	
	0.47853304	4.4985546	0.51273949	2.7167826	0.47650972	-177.83692	0.48320623	-5.229907	
	0.48091376	-5.1835436	0.47650972	-177.83692	0.51442421	2.7396563	0.47842246	4.4011062	
	0.47673451	-178.05496	0.48320623	-5.229907	0.47842246	4.4011062	0.51331182	2.6507784	
	
0.212473847387164	0.51539809	2.4608977	0.47817944	4.4222217	0.4808499	-5.1562542	0.47672346	-178.1763	
	0.47817944	4.4222217	0.51297493	2.5217002	0.47597329	-178.00127	0.48319023	-5.2072839	
	0.4808499	-5.1562542	0.47597329	-178.00127	0.51478233	2.62084	0.47873692	4.3448941	
	0.47672346	-178.1763	0.48319023	-5.2072839	0.47873692	4.3448941	0.51227147	2.581761	
	
0.217382125040737	0.51532969	2.4366635	0.47860537	4.3698988	0.48087237	-5.1681288	0.4768054	-178.3137	
	0.47860537	4.3698988	0.51351602	2.5211709	0.47664941	-178.10612	0.48319804	-5.1479765	
	0.48087237	-5.1681288	0.47664941	-178.10612	0.51460774	2.5803577	0.479226	4.3022601	
	0.4768054	-178.3137	0.48319804	-5.1479765	0.479226	4.3022601	0.51215062	2.4340718	
	
0.222403786952283	0.51531911	2.2614001	0.47836754	4.2566785	0.48012649	-5.118283	0.47667716	-178.37457	
	0.47836754	4.2566785	0.5133302	2.3707628	0.47619589	-178.22759	0.48324516	-5.1237363	
	0.48012649	-5.118283	0.47619589	-178.22759	0.51444866	2.477387	0.47871796	4.1776307	
	0.47667716	-178.37457	0.48324516	-5.1237363	0.47871796	4.1776307	0.51242008	2.3599553	
	
0.227541452368483	0.51585692	2.1413443	0.47836634	4.2585019	0.48049144	-5.0079635	0.47696705	-178.56373	
	0.47836634	4.2585019	0.51368978	2.3445463	0.47630633	-178.29869	0.48251787	-5.1313031	
	0.48049144	-5.0079635	0.47630633	-178.29869	0.51517495	2.3287952	0.47877204	4.1315165	
	0.47696705	-178.56373	0.48251787	-5.1313031	0.47877204	4.1315165	0.51303082	2.244076	
	
0.232797801042241	0.51563483	2.1202473	0.47905666	4.168837	0.47970347	-4.9664899	0.4765707	-178.63514	
	0.47905666	4.168837	0.51283263	2.1879604	0.47664211	-178.47478	0.48212094	-5.080108	
	0.47970347	-4.9664899	0.47664211	-178.47478	0.51415106	2.243976	0.47828047	4.0845467	
	0.4765707	-178.63514	0.48212094	-5.080108	0.47828047	4.0845467	0.51250777	2.1720659	
	
0.238175574630416	0.51602906	1.96078	0.47852698	4.1665429	0.47992988	-4.9675629	0.47690312	-178.74055	
	0.47852698	4.1665429	0.5128645	2.1079828	0.47624208	-178.5817	0.48252064	-5.0245642	
	0.47992988	-4.9675629	0.47624208	-178.5817	0.51474365	2.2272285	0.47904722	4.0536217	
	0.47690312	-178.74055	0.48252064	-5.0245642	0.47904722	4.0536217	0.51281736	2.0829527	
	
0.24367757812384	0.51567868	1.9283294	0.47856398	4.0491514	0.47951562	-4.9817435	0.47687075	-178.81743	
	0.47856398	4.0491514	0.51380226	2.028072	0.47646875	-178.68269	0.48189364	-5.0558091	
	0.47951562	-4.9817435	0.47646875	-178.68269	0.51457253	2.117114	0.47823103	3.9321157	
	0.47687075	-178.81743	0.48189364	-5.0558091	0.47823103	3.9321157	0.51255471	1.9805796	
	
0.249306681310373	0.51593275	1.8144174	0.47859056	4.0119304	0.47935666	-4.9170832	0.47647544	-179.01502	
	0.47859056	4.0119304	0.51351933	1.9642452	0.47678569	-178.84422	0.48178526	-5.0350583	
	0.47935666	-4.9170832	0.47678569	-178.84422	0.51474559	2.0570553	0.47911926	3.8980011	
	0.47647544	-179.01502	0.48178526	-5.0350583	0.47911926	3.8980011	0.51268507	1.9245182	
	
0.255065820271756	0.51568579	1.7268207	0.47892592	3.9587066	0.47913646	-4.9098376	0.47699014	-179.05651	
	0.47892592	3.9587066	0.51337295	1.8256056	0.47609355	-178.94249	0.4817033	-4.9737106	
	0.47913646	-4.9098376	0.47609355	-178.94249	0.51415042	1.9484374	0.47942643	3.8325025	
	0.47699014	-179.05651	0.4817033	-4.9737106	0.47942643	3.8325025	0.51219563	1.8308592	
	
0.260957998915036	0.51519458	1.6452455	0.47848683	3.9648636	0.47915883	-4.8587699	0.47679304	-179.2422	
	0.47848683	3.9648636	0.5138285	1.8091321	0.4767404	-179.05547	0.48179101	-4.9512665	
	0.47915883	-4.8587699	0.4767404	-179.05547	0.51485509	1.7864524	0.47900751	3.8388092	
	0.47679304	-179.2422	0.48179101	-4.9512665	0.47900751	3.8388092	0.51254564	1.7530462	
	
0.266986290539378	0.51560322	1.5360604	0.47857574	3.8771464	0.47943102	-4.8333014	0.47691358	-179.33033	
	0.47857574	3.8771464	0.51319582	1.7425485	0.4772965	-179.13117	0.48178267	-4.9492426	
	0.47943102	-4.8333014	0.4772965	-179.13117	0.51500235	1.7895332	0.47917421	3.7591882	
	0.47691358	-179.33033	0.48178267	-4.9492426	0.47917421	3.7591882	0.51248787	1.7642552	
	
0.273153839439064	0.51576521	1.4946329	0.47876042	3.8533911	0.47932574	-4.8541258	0.47720372	-179.47839	
	0.47876042	3.8533911	0.51313669	1.6339773	0.47698418	-179.21944	0.48206792	-4.9146907	
	0.47932574	-4.8541258	0.47698418	-179.21944	0.51497855	1.638829	0.47879009	3.7590801	
	0.47720372	-179.47839	0.48206792	-4.9146907	0.47879009	3.7590801	0.51269285	1.6054847	
	
0.279463862543524	0.51597445	1.375073	0.47844282	3.7961589	0.47923637	-4.8712499	0.47668461	-179.55468	
	0.47844282	3.7961589	0.51417949	1.5328475	0.47678854	-179.43388	0.48095005	-4.926827	
	0.47923637	-4.8712499	0.47678854	-179.43388	0.51528195	1.6273107	0.47922969	3.6824431	
	0.47668461	-179.55468	0.48095005	-4.926827	0.47922969	3.6824431	0.51286014	1.4678595	
	
0.285919651095252	0.51587113	1.3750122	0.47902073	3.7356785	0.47907398	-4.8266591	0.47699596	-179.6648	
	0.47902073	3.7356785	0.51329749	1.531562	0.47664282	-179.49652	0.48184977	-4.9246967	
	0.47907398	-4.8266591	0.47664282	-179.49652	0.51470953	1.5227573	0.47912629	3.6364694	
	0.47699596	-179.6648	0.48184977	-4.9246967	0.47912629	3.6364694	0.51274589	1.4328704	
	
0.292524572366485	0.51564678	1.2467066	0.47872095	3.7401651	0.47840382	-4.8569213	0.4763804	-179.82277	
	0.47872095	3.7401651	0.51350875	1.4372727	0.47744467	-179.72059	0.48092272	-4.8495691	
	0.47840382	-4.8569213	0.47744467	-179.72059	0.51463064	1.5344399	0.47902024	3.5284265	
	0.4763804	-179.82277	0.48092272	-4.8495691	0.47902024	3.5284265	0.51245621	1.4249023	
	
0.299282071415539	0.51593328	1.1565472	0.47895014	3.670278	0.47923772	-4.8094204	0.47704963	-179.99487	
	0.47895014	3.670278	0.51310982	1.3890898	0.47640412	-179.7292	0.48175269	-4.9401813	
	0.47923772	-4.8094204	0.47640412	-179.7292	0.51518565	1.4932534	0.47916627	3.4569666	
	0.47704963	-179.99487	0.48175269	-4.9401813	0.47916627	3.4569666	0.51231592	1.3468372	
	
0.30619567288371	0.51586383	1.1221437	0.47912434	3.6623453	0.4785772	-4.8445417	0.47669625	179.8942	
	0.47912434	3.6623453	0.51382679	1.3386985	0.476684	-179.7812	0.48171153	-4.9059395	
	0.4785772	-4.8445417	0.476684	-179.7812	0.51483416	1.3506503	0.47947662	3.4741193	
	0.47669625	179.8942	0.48171153	-4.9059395	0.47947662	3.4741193	0.51211018	1.2062081	
	
0.313268982833699	0.51616635	0.97473236	0.47903952	3.6659126	0.4784455	-4.7673989	0.47702885	179.84712	
	0.47903952	3.6659126	0.51327475	1.1245577	0.4770835	-179.9333	0.48149817	-4.8586784	
	0.4784455	-4.7673989	0.4770835	-179.9333	0.51498668	1.2146472	0.47928104	3.4981673	
	0.47702885	179.84712	0.48149817	-4.8586784	0.47928104	3.4981673	0.51184196	1.172124	
	
0.320505690630487	0.51543786	0.84013887	0.47932535	3.6267336	0.47889291	-4.7168798	0.4777992	179.77966	
	0.47932535	3.6267336	0.5137999	1.0274786	0.47699647	179.97131	0.48166309	-4.8606165	
	0.47889291	-4.7168798	0.47699647	179.97131	0.51521011	1.071315	0.47970074	3.4509489	
	0.4777992	179.77966	0.48166309	-4.8606165	0.47970074	3.4509489	0.51273914	0.93429915	
	
0.327909570865677	0.51526673	0.73550643	0.47913754	3.6061897	0.47867436	-4.7464582	0.47815446	179.67392	
	0.47913754	3.6061897	0.51358479	0.95463187	0.47679537	-179.99843	0.48100149	-4.8847237	
	0.47867436	-4.7464582	0.47679537	-179.99843	0.51366819	1.0672475	0.47982379	3.4868487	
	0.47815446	179.67392	0.48100149	-4.8847237	0.47982379	3.4868487	0.51192026	0.85759245	
	
0.335484485326279	0.51546519	0.64695645	0.47958613	3.5836464	0.47833243	-4.7526049	0.47700768	179.54879	
	0.47958613	3.5836464	0.51368266	0.83457142	0.4770222	179.85901	0.48112588	-4.8450519	
