# MHz S MA R 50

0.1	0.49777158	10.432414	0.47504017	11.836522	0.51436679	-11.037956	0.47350658	-169.17885	
	0.47504017	11.836522	0.49707623	10.544455	0.47380336	-169.18843	0.51514958	-11.109646	
	0.51436679	-11.037956	0.47380336	-169.18843	0.49730822	10.507371	0.47526749	11.747935	
	0.47350658	-169.17885	0.51514958	-11.109646	0.47526749	11.747935	0.49769379	10.554313	
	
0.102310062021247	0.4983772	10.210768	0.4753731	11.550402	0.51264502	-10.808754	0.47381286	-169.55447	
	0.4753731	11.550402	0.4977965	10.220492	0.47379034	-169.49145	0.51353807	-10.93623	
	0.51264502	-10.808754	0.47379034	-169.49145	0.4976538	10.247167	0.47545522	11.448554	
	0.47381286	-169.55447	0.51353807	-10.93623	0.47545522	11.448554	0.49811796	10.260403	
	
0.104673487907914	0.49901399	9.9360348	0.47596299	11.284749	0.51159461	-10.67918	0.47462774	-169.80668	
	0.47596299	11.284749	0.49810166	10.05758	0.4739509	-169.71518	0.51286685	-10.745352	
	0.51159461	-10.67918	0.4739509	-169.71518	0.49828895	10.044139	0.47659636	11.210548	
	0.47462774	-169.80668	0.51286685	-10.745352	0.47659636	11.210548	0.49766669	10.025699	
	
0.107091510398389	0.49958026	9.72918	0.47622881	11.112205	0.5107752	-10.52699	0.47466152	-169.98201	
	0.47622881	11.112205	0.49878439	9.671962	0.4750778	-169.99919	0.51143938	-10.636128	
	0.5107752	-10.52699	0.4750778	-169.99919	0.49892961	9.83253	0.47636951	10.949686	
	0.47466152	-169.98201	0.51143938	-10.636128	0.47636951	10.949686	0.49885056	9.835659	
	
0.109565390708082	0.49972558	9.5963071	0.47676267	10.879276	0.509232	-10.321502	0.47535455	-170.30506	
	0.47676267	10.879276	0.49894086	9.469361	0.4748857	-170.25365	0.51071921	-10.401946	
	0.509232	-10.321502	0.4748857	-170.25365	0.49930343	9.545352	0.47714849	10.704531	
	0.47535455	-170.30506	0.51071921	-10.401946	0.47714849	10.704531	0.49924034	9.6436106	
	
0.112096419187261	0.50004676	9.334769	0.47775899	10.633075	0.50788499	-10.192694	0.47645612	-170.49859	
	0.47775899	10.633075	0.49998055	9.3299305	0.47582329	-170.45479	0.50907723	-10.265305	
	0.50788499	-10.192694	0.47582329	-170.45479	0.49905677	9.3418246	0.47775689	10.530467	
	0.47645612	-170.49859	0.50907723	-10.265305	0.47775689	10.530467	0.49914004	9.3809806	
	
0.114685915994083	0.50010432	9.0594945	0.47758689	10.470739	0.50762879	-9.9634602	0.47636226	-170.72913	
	0.47758689	10.470739	0.49965331	9.0590411	0.47615707	-170.71395	0.50870098	-10.067159	
	0.50762879	-9.9634602	0.47615707	-170.71395	0.49922773	9.1319042	0.47794688	10.305973	
	0.47636226	-170.72913	0.50870098	-10.067159	0.47794688	10.305973	0.49989907	9.1252991	
	
0.117335231783182	0.50093435	8.8894858	0.47781324	10.223791	0.50678906	-9.8697422	0.47624916	-170.953	
	0.47781324	10.223791	0.50087033	8.8853621	0.47657664	-170.963	0.5072874	-9.9750382	
	0.50678906	-9.8697422	0.47657664	-170.963	0.50029447	8.9085819	0.47849484	10.149425	
	0.47624916	-170.953	0.5072874	-9.9750382	0.47849484	10.149425	0.49986213	8.9774912	
	
0.120045748410147	0.50104607	8.5750607	0.47806805	10.02898	0.506231	-9.6647546	0.47672657	-171.25334	
	0.47806805	10.02898	0.49975648	8.5899958	0.47642321	-171.21523	0.50616785	-9.7689057	
	0.506231	-9.6647546	0.47642321	-171.21523	0.50106433	8.7521395	0.47798246	9.9855371	
	0.47672657	-171.25334	0.50616785	-9.7689057	0.47798246	9.9855371	0.50082474	8.6892252	
	
0.122818879652292	0.50162938	8.4288713	0.47850004	9.7834715	0.5047379	-9.4830871	0.47712682	-171.4395	
	0.47850004	9.7834715	0.50086131	8.459279	0.4768417	-171.36306	0.50556011	-9.6050737	
	0.5047379	-9.4830871	0.4768417	-171.36306	0.50086371	8.4962387	0.47927135	9.7172222	
	0.47712682	-171.4395	0.50556011	-9.6050737	0.47927135	9.7172222	0.50141532	8.4917703	
	
0.125656071946061	0.50191846	8.207426	0.47937192	9.6384563	0.50408109	-9.3465561	0.47751054	-171.7007	
	0.47937192	9.6384563	0.5009636	8.2386359	0.47722556	-171.60903	0.50482519	-9.4492309	
	0.50408109	-9.3465561	0.47722556	-171.60903	0.50145015	8.2292621	0.47936064	9.5568698	
	0.47751054	-171.7007	0.50482519	-9.4492309	0.47936064	9.5568698	0.50176045	8.2729918	
	
0.128558805141477	0.50166786	8.0913623	0.47917822	9.4133459	0.50286822	-9.2251036	0.47766905	-171.84841	
	0.47917822	9.4133459	0.50187722	8.070714	0.4776707	-171.83928	0.5039978	-9.3268706	
	0.50286822	-9.2251036	0.4776707	-171.83928	0.50261633	7.9616746	0.47986931	9.3670323	
	0.47766905	-171.84841	0.5039978	-9.3268706	0.47986931	9.3670323	0.50084517	8.1466758	
	
0.131528593274019	0.50228112	7.85968	0.48000425	9.2822057	0.50328032	-9.055553	0.47818976	-172.04371	
	0.48000425	9.2822057	0.50203838	7.893683	0.47806881	-172.03698	0.50316781	-9.1441015	
	0.50328032	-9.055553	0.47806881	-172.03698	0.50209247	7.8824589	0.47994596	9.1285561	
	0.47818976	-172.04371	0.50316781	-9.1441015	0.47994596	9.1285561	0.50168188	7.947345	
	
0.134566985354323	0.50290161	7.5660278	0.47927732	9.0629291	0.50190833	-8.8785778	0.47788453	-172.3036	
	0.47927732	9.0629291	0.50168137	7.6542543	0.47793832	-172.29396	0.50211011	-9.0195411	
	0.50190833	-8.8785778	0.47793832	-172.29396	0.50289495	7.6801532	0.48006404	8.9166349	
	0.47788453	-172.3036	0.50211011	-9.0195411	0.48006404	8.9166349	0.50096444	7.7747054	
	
0.13767556617613	0.50351502	7.4557351	0.47990024	8.9100944	0.50131444	-8.7304919	0.47815887	-172.53934	
	0.47990024	8.9100944	0.50271526	7.4038452	0.47847093	-172.44652	0.50218576	-8.8488654	
	0.50131444	-8.7304919	0.47847093	-172.44652	0.50195478	7.4855283	0.48066755	8.7707554	
	0.47815887	-172.53934	0.50218576	-8.8488654	0.48066755	8.7707554	0.50202895	7.6006671	
	
0.140855957142902	0.5030348	7.2717321	0.4801006	8.7617561	0.50114863	-8.64926	0.47842883	-172.78459	
	0.4801006	8.7617561	0.50312792	7.1619845	0.47772147	-172.72017	0.50084938	-8.7378793	
	0.50114863	-8.64926	0.47772147	-172.72017	0.50187746	7.3109293	0.48032496	8.5740428	
	0.47842883	-172.78459	0.50084938	-8.7378793	0.48032496	8.5740428	0.50203391	7.3395456	
	
0.144109817113524	0.5034715	7.0872848	0.48019287	8.5574706	0.49965142	-8.467958	0.47881152	-172.93818	
	0.48019287	8.5574706	0.50326416	7.0904046	0.47798241	-172.91122	0.5005203	-8.588402	
	0.49965142	-8.467958	0.47798241	-172.91122	0.50247045	7.091458	0.48078725	8.4806076	
	0.47881152	-172.93818	0.5005203	-8.588402	0.48078725	8.4806076	0.5030509	7.2246565	
	
0.147438843267552	0.50376061	6.9578786	0.48090013	8.362946	0.49885949	-8.3509429	0.47938935	-173.09083	
	0.48090013	8.362946	0.50325794	6.9079043	0.47868389	-173.10241	0.4996322	-8.4746021	
	0.49885949	-8.3509429	0.47868389	-173.10241	0.50338017	6.9657198	0.48144397	8.2808965	
	0.47938935	-173.09083	0.4996322	-8.4746021	0.48144397	8.2808965	0.50345351	7.0647298	
	
0.150844771990442	0.50483468	6.7155072	0.48082778	8.1818511	0.49888998	-8.1926879	0.47954192	-173.30966	
	0.48082778	8.1818511	0.50390434	6.7427066	0.47870337	-173.31331	0.49923904	-8.2758607	
	0.49888998	-8.1926879	0.47870337	-173.31331	0.50308563	6.7834156	0.48091595	8.1271466	
	0.47954192	-173.30966	0.49923904	-8.2758607	0.48091595	8.1271466	0.50348537	6.8380735	
	
0.154329379779229	0.50481861	6.5200362	0.4812422	8.0875989	0.49814346	-8.0714492	0.47964044	-173.51111	
	0.4812422	8.0875989	0.50375517	6.5309671	0.47947723	-173.55476	0.49912817	-8.1657709	
	0.49814346	-8.0714492	0.47947723	-173.55476	0.50308631	6.6021705	0.48159364	7.9286665	
	0.47964044	-173.51111	0.49912817	-8.1657709	0.48159364	7.9286665	0.50372303	6.75825	
	
0.157894484169135	0.50434408	6.3638311	0.4814198	7.9060666	0.49799298	-7.9450409	0.4798163	-173.72286	
	0.4814198	7.9060666	0.50447753	6.4111999	0.47963729	-173.68035	0.49845881	-8.0881692	
	0.49799298	-7.9450409	0.47963729	-173.68035	0.50360092	6.4930363	0.48199493	7.7590761	
	0.4798163	-173.72286	0.49845881	-8.0881692	0.48199493	7.7590761	0.50353443	6.4581086	
	
0.16154194468157	0.50384434	6.1805854	0.48205458	7.7511102	0.49650853	-7.8060342	0.4798611	-173.8692	
	0.48205458	7.7511102	0.50449179	6.246255	0.47953405	-173.83911	0.4977323	-8.015633	
	0.49650853	-7.8060342	0.47953405	-173.83911	0.50459311	6.2580693	0.48232391	7.7368492	
	0.4798611	-173.8692	0.4977323	-8.015633	0.48232391	7.7368492	0.50408192	6.2949383	
	
0.165273663794043	0.50451084	6.0667464	0.48228322	7.6194137	0.49647252	-7.752391	0.4803265	-174.08766	
	0.48228322	7.6194137	0.5043331	6.015842	0.47977492	-174.07137	0.49717432	-7.8326845	
	0.49647252	-7.752391	0.47977492	-174.07137	0.50409368	6.0408756	0.48259035	7.4739105	
	0.4803265	-174.08766	0.49717432	-7.8326845	0.48259035	7.4739105	0.50437839	6.1438222	
	
0.169091587932473	0.50547275	5.9251189	0.48201024	7.4210202	0.49610909	-7.6258779	0.48035043	-174.25953	
	0.48201024	7.4210202	0.50527353	5.8903062	0.48056925	-174.2534	0.49669748	-7.7237211	
	0.49610909	-7.6258779	0.48056925	-174.2534	0.50457671	5.9662518	0.48242188	7.3772489	
	0.48035043	-174.25953	0.49669748	-7.7237211	0.48242188	7.3772489	0.5042777	6.0047766	
	
0.172997708486424	0.50513543	5.7438176	0.48231241	7.3330728	0.49620342	-7.4408479	0.48052484	-174.37243	
	0.48231241	7.3330728	0.5047619	5.6557762	0.48039133	-174.36147	0.49565056	-7.6287523	
	0.49620342	-7.4408479	0.48039133	-174.36147	0.50483594	5.8199334	0.48232252	7.2214761	
	0.48052484	-174.37243	0.49565056	-7.6287523	0.48232252	7.2214761	0.5037881	5.9018456	
	
0.176994062847797	0.50512166	5.5496473	0.48254933	7.1636572	0.49520403	-7.3339608	0.48106361	-174.61871	
	0.48254933	7.1636572	0.50520153	5.6404717	0.4806717	-174.56046	0.49572228	-7.4367679	
	0.49520403	-7.3339608	0.4806717	-174.56046	0.50490463	5.6522145	0.48271983	7.0891758	
	0.48106361	-174.61871	0.49572228	-7.4367679	0.48271983	7.0891758	0.50377165	5.6711928	
	
0.181082735473506	0.50533226	5.446855	0.48214386	7.0485135	0.49528284	-7.2620641	0.48101295	-174.76821	
	0.48214386	7.0485135	0.50543265	5.4756415	0.48056038	-174.73593	0.49551534	-7.3926158	
	0.49528284	-7.2620641	0.48056038	-174.73593	0.50445911	5.4386537	0.48277567	6.9140936	
	0.48101295	-174.76821	0.49551534	-7.3926158	0.48277567	6.9140936	0.5046073	5.5616752	
	
0.185265858972714	0.50527007	5.2895315	0.48253451	6.926738	0.49435716	-7.1804061	0.48111665	-174.91018	
	0.48253451	6.926738	0.5055087	5.3104795	0.48089575	-174.92453	0.49482901	-7.3060051	
	0.49435716	-7.1804061	0.48089575	-174.92453	0.50464473	5.2616517	0.4832064	6.8505534	
	0.48111665	-174.91018	0.49482901	-7.3060051	0.4832064	6.8505534	0.50519584	5.4023355	
	
0.18954561521918	0.50551583	5.1377169	0.48338289	6.8326808	0.49392857	-7.0357129	0.48144629	-175.06825	
	0.48338289	6.8326808	0.50610354	5.0875237	0.48093002	-175.06562	0.49450634	-7.1737252	
	0.49392857	-7.0357129	0.48093002	-175.06562	0.50477307	5.1611022	0.4834081	6.7574921	
	0.48144629	-175.06825	0.49450634	-7.1737252	0.4834081	6.7574921	0.50468596	5.2704749	
	
0.193924236489297	0.50619847	5.0117358	0.48270873	6.6909182	0.4936664	-6.9470602	0.48116358	-175.27831	
	0.48270873	6.6909182	0.50558493	4.9662699	0.48148477	-175.24964	0.49415515	-7.0496186	
	0.4936664	-6.9470602	0.48148477	-175.24964	0.50497679	5.01029	0.4833432	6.5890229	
	0.48116358	-175.27831	0.49415515	-7.0496186	0.4833432	6.5890229	0.50544604	5.0927042	
	
0.19840400662643	0.50559354	4.8259884	0.48277962	6.5235061	0.49379456	-6.9139801	0.48152247	-175.45566	
	0.48277962	6.5235061	0.50584889	4.9003022	0.48119559	-175.41426	0.49390964	-6.9947012	
	0.49379456	-6.9139801	0.48119559	-175.41426	0.50496068	4.7754108	0.48408056	6.4833091	
	0.48152247	-175.45566	0.49390964	-6.9947012	0.48408056	6.4833091	0.50478252	4.9093654	
	
0.202987262232139	0.50630782	4.6731518	0.48316679	6.4123117	0.49292471	-6.8026472	0.4816467	-175.60513	
	0.48316679	6.4123117	0.50653965	4.7701598	0.48141133	-175.59125	0.49297933	-6.9032576	
	0.49292471	-6.8026472	0.48141133	-175.59125	0.5054655	4.6565396	0.48371089	6.355906	
	0.4816467	-175.60513	0.49297933	-6.9032576	0.48371089	6.355906	0.5055204	4.8299953	
	
0.207676393884933	0.50569503	4.5069453	0.48399175	6.3102625	0.49258814	-6.7004089	0.48175158	-175.79327	
	0.48399175	6.3102625	0.50624584	4.6267906	0.48144607	-175.71971	0.49285303	-6.784489	
	0.49258814	-6.7004089	0.48144607	-175.71971	0.50554742	4.61861	0.48381402	6.2115533	
	0.48175158	-175.79327	0.49285303	-6.784489	0.48381402	6.2115533	0.50595353	4.7087017	
	
0.212473847387164	0.50643384	4.4405286	0.48359311	6.227445	0.49252314	-6.5949351	0.48141342	-175.89267	
	0.48359311	6.227445	0.50579822	4.4286408	0.48111295	-175.90327	0.49280633	-6.7253293	
	0.49252314	-6.5949351	0.48111295	-175.90327	0.50589222	4.4680254	0.48385109	6.1298057	
	0.48141342	-175.89267	0.49280633	-6.7253293	0.48385109	6.1298057	0.50526015	4.6291483	
	
0.217382125040737	0.50627049	4.3111648	0.48358222	6.0615683	0.49206052	-6.5802049	0.48184754	-176.08243	
	0.48358222	6.0615683	0.50637032	4.355476	0.4812935	-176.03325	0.49263142	-6.6067352	
	0.49206052	-6.5802049	0.4812935	-176.03325	0.50559799	4.2987735	0.4843856	5.9679026	
	0.48184754	-176.08243	0.49263142	-6.6067352	0.4843856	5.9679026	0.50577386	4.4044001	
	
0.222403786952283	0.50680525	4.2025577	0.48386342	5.9465697	0.49186257	-6.4729299	0.48196826	-176.20808	
	0.48386342	5.9465697	0.50662011	4.1207166	0.48141115	-176.21501	0.49225822	-6.5405192	
	0.49186257	-6.4729299	0.48141115	-176.21501	0.50568027	4.2669152	0.48416494	5.8694123	
	0.48196826	-176.20808	0.49225822	-6.5405192	0.48416494	5.8694123	0.50558033	4.2982384	
	
0.227541452368483	0.50655189	4.0475048	0.48401518	5.8778522	0.49126638	-6.3152394	0.48242788	-176.39288	
	0.48401518	5.8778522	0.50710327	4.136483	0.48150581	-176.31766	0.49142314	-6.4933001	
	0.49126638	-6.3152394	0.48150581	-176.31766	0.50539174	4.0684006	0.48431602	5.7989734	
	0.48242788	-176.39288	0.49142314	-6.4933001	0.48431602	5.7989734	0.5066152	4.1486221	
	
0.232797801042241	0.50673098	3.980135	0.48447395	5.8122012	0.49136905	-6.2231815	0.48192334	-176.52185	
	0.48447395	5.8122012	0.50628493	3.9230473	0.48191997	-176.5129	0.49152552	-6.4024556	
	0.49136905	-6.2231815	0.48191997	-176.5129	0.50592719	3.8956806	0.48417277	5.6575454	
	0.48192334	-176.52185	0.49152552	-6.4024556	0.48417277	5.6575454	0.50673948	4.0838057	
	
0.238175574630416	0.50674659	3.8114092	0.48403562	5.7038647	0.49073274	-6.2016833	0.48239132	-176.60357	
	0.48403562	5.7038647	0.50608915	3.7839623	0.48175356	-176.65095	0.49124414	-6.3200965	
	0.49073274	-6.2016833	0.48175356	-176.65095	0.50603946	3.8267905	0.48428437	5.6096266	
	0.48239132	-176.60357	0.49124414	-6.3200965	0.48428437	5.6096266	0.50645264	3.9052422	
	
0.24367757812384	0.50683937	3.6868401	0.48449806	5.5536487	0.4906242	-6.1549497	0.48221663	-176.80412	
	0.48449806	5.5536487	0.50664873	3.6555319	0.48209448	-176.77798	0.49095143	-6.2755793	
	0.4906242	-6.1549497	0.48209448	-176.77798	0.50572689	3.7621497	0.48383692	5.4951644	
	0.48221663	-176.80412	0.49095143	-6.2755793	0.48383692	5.4951644	0.50652863	3.7574495	
	
0.249306681310373	0.50740968	3.5169816	0.48433148	5.5064954	0.49032725	-6.069976	0.48248273	-176.99155	
	0.48433148	5.5064954	0.50710873	3.5553763	0.48177	-176.93899	0.49087324	-6.2151627	
	0.49032725	-6.069976	0.48177	-176.93899	0.50648664	3.6111714	0.48480959	5.3877602	
	0.48248273	-176.99155	0.49087324	-6.2151627	0.48480959	5.3877602	0.50624503	3.6835938	
	
0.255065820271756	0.50675304	3.4471272	0.48435569	5.4138849	0.48996319	-6.0509095	0.48249519	-177.05267	
	0.48435569	5.4138849	0.50746079	3.464762	0.4816869	-177.07557	0.4904483	-6.090191	
	0.48996319	-6.0509095	0.4816869	-177.07557	0.5057886	3.3993791	0.48475422	5.2975099	
	0.48249519	-177.05267	0.4904483	-6.090191	0.48475422	5.2975099	0.50606655	3.5975534	
	
0.260957998915036	0.5072146	3.2949992	0.48432713	5.3989789	0.48987277	-5.9385171	0.48217728	-177.24341	
	0.48432713	5.3989789	0.50734745	3.3271993	0.48223511	-177.23897	0.49017573	-6.0901646	
	0.48987277	-5.9385171	0.48223511	-177.23897	0.50687187	3.3178594	0.48508553	5.297034	
	0.48217728	-177.24341	0.49017573	-6.0901646	0.48508553	5.297034	0.50640275	3.4590398	
	
0.266986290539378	0.50726427	3.2315554	0.48436968	5.2362093	0.48977534	-5.8676739	0.48262128	-177.4049	
	0.48436968	5.2362093	0.50674018	3.2349702	0.48244041	-177.37063	0.48990861	-6.0308246	
	0.48977534	-5.8676739	0.48244041	-177.37063	0.50675379	3.1665315	0.48496223	5.1321399	
	0.48262128	-177.4049	0.48990861	-6.0308246	0.48496223	5.1321399	0.50678742	3.411671	
	
0.273153839439064	0.50699017	3.1375297	0.48469986	5.1831292	0.48937575	-5.8345611	0.48263894	-177.51754	
	0.48469986	5.1831292	0.50732368	3.0744911	0.48294168	-177.45552	0.48988884	-5.9393671	
	0.48937575	-5.8345611	0.48294168	-177.45552	0.50620242	3.0948608	0.48450623	5.0891869	
	0.48263894	-177.51754	0.48988884	-5.9393671	0.48450623	5.0891869	0.50683353	3.2229416	
	
0.279463862543524	0.50709367	3.0016958	0.48442727	5.1492418	0.49008932	-5.8246099	0.48239307	-177.63708	
	0.48442727	5.1492418	0.5079391	2.958237	0.48261871	-177.69824	0.48946518	-5.9265099	
	0.49008932	-5.8246099	0.48261871	-177.69824	0.50674488	3.0070152	0.48484576	5.0066539	
	0.48239307	-177.63708	0.48946518	-5.9265099	0.48484576	5.0066539	0.50731682	3.0978295	
	
0.285919651095252	0.50723153	2.9023305	0.48511205	5.0165802	0.48940444	-5.7537898	0.48215295	-177.78829	
	0.48511205	5.0165802	0.50680886	2.8887092	0.48256883	-177.78032	0.48958071	-5.9033281	
	0.48940444	-5.7537898	0.48256883	-177.78032	0.50658591	2.8926474	0.48496759	4.8574537	
	0.48215295	-177.78829	0.48958071	-5.9033281	0.48496759	4.8574537	0.50648268	2.9860355	
	
0.292524572366485	0.507642	2.8032025	0.48488466	4.9641862	0.48917123	-5.6976006	0.48278431	-177.95285	
	0.48488466	4.9641862	0.50731782	2.8531143	0.48264262	-177.99604	0.48908628	-5.839043	
	0.48917123	-5.6976006	0.48264262	-177.99604	0.50657681	2.8447111	0.48515753	4.7847746	
	0.48278431	-177.95285	0.48908628	-5.839043	0.48515753	4.7847746	0.50733501	2.9625254	
	
0.299282071415539	0.50781041	2.7074554	0.48474959	4.8868578	0.48872334	-5.6499859	0.48289609	-178.09492	
	0.48474959	4.8868578	0.50705321	2.7571146	0.48224803	-178.07153	0.48940299	-5.8100414	
	0.48872334	-5.6499859	0.48224803	-178.07153	0.50704077	2.7937435	0.48499105	4.6593201	
	0.48289609	-178.09492	0.48940299	-5.8100414	0.48499105	4.6593201	0.50674004	2.9286317	
	
0.30619567288371	0.50789393	2.6654144	0.48488553	4.8333929	0.48854498	-5.5952421	0.48211255	-178.14519	
	0.48488553	4.8333929	0.50749353	2.6277021	0.48229356	-178.16608	0.48935576	-5.7509143	
	0.48854498	-5.5952421	0.48229356	-178.16608	0.50637111	2.6392958	0.48519912	4.640867	
	0.48211255	-178.14519	0.48935576	-5.7509143	0.48519912	4.640867	0.50600941	2.7202553	
	
0.313268982833699	0.50756846	2.4252237	0.48509116	4.8151879	0.48822621	-5.5531502	0.48283824	-178.31706	
	0.48509116	4.8151879	0.5066634	2.444531	0.48268143	-178.33199	0.48906024	-5.6790493	
	0.48822621	-5.5531502	0.48268143	-178.33199	0.50668239	2.462174	0.48545371	4.6497891	
	0.48283824	-178.31706	0.48906024	-5.6790493	0.48545371	4.6497891	0.50673838	2.6490015	
	
0.320505690630487	0.50711534	2.2783479	0.48536936	4.7419087	0.48824081	-5.4667345	0.48341055	-178.41028	
	0.48536936	4.7419087	0.5077006	2.2854932	0.48267756	-178.40634	0.4886765	-5.6445787	
	0.48824081	-5.4667345	0.48267756	-178.40634	0.50661258	2.2807001	0.48555401	4.5913632	
	0.48341055	-178.41028	0.4886765	-5.6445787	0.48555401	4.5913632	0.50674172	2.473375	
	
0.327909570865677	0.50726423	2.1280362	0.4852226	4.7007355	0.48863575	-5.4503364	0.48356491	-178.53167	
	0.4852226	4.7007355	0.50747006	2.1745695	0.48291603	-178.45666	0.48868243	-5.5787971	
	0.48863575	-5.4503364	0.48291603	-178.45666	0.5067427	2.2092061	0.48578846	4.5962	
	0.48356491	-178.53167	0.48868243	-5.5787971	0.48578846	4.5962	0.50643278	2.3430754	
	
0.335484485326279	0.50732346	2.0590815	0.48561186	4.6104231	0.4879352	-5.3875083	0.48308667	-178.64908	
	0.48561186	4.6104231	0.50744733	2.0888926	0.4832442	-178.60522	0.48861463	-5.5132295	
	0.4879352	-5.3875083	0.4832442	-178.60522	0.50626385	2.0847618	0.48575937	4.497858	
