# MHz S MA R 50

0.1	0.50672393	8.2479071	0.47436064	9.8722458	0.50053333	-9.5036459	0.47247377	-171.37488	
	0.47436064	9.8722458	0.50519895	8.2767003	0.47333644	-171.45443	0.501502	-9.5718406	
	0.50053333	-9.5036459	0.47333644	-171.45443	0.50531656	8.3571317	0.4743721	9.7073577	
	0.47247377	-171.37488	0.501502	-9.5718406	0.4743721	9.7073577	0.50378615	8.3159704	
	
0.102310062021247	0.50682605	8.0746458	0.47477695	9.6423712	0.49907587	-9.3559686	0.47347793	-171.66561	
	0.47477695	9.6423712	0.50520561	8.0556235	0.47329494	-171.62688	0.50092133	-9.4015692	
	0.49907587	-9.3559686	0.47329494	-171.62688	0.50594664	8.1553119	0.47495612	9.568934	
	0.47347793	-171.66561	0.50092133	-9.4015692	0.47495612	9.568934	0.50518104	8.1465834	
	
0.104673487907914	0.50737262	7.8681747	0.47488399	9.4148353	0.49821272	-9.2126213	0.47388493	-171.88105	
	0.47488399	9.4148353	0.50559002	7.9302133	0.47277338	-171.78444	0.50059384	-9.2363413	
	0.49821272	-9.2126213	0.47277338	-171.78444	0.50613595	7.9196113	0.47523594	9.3762846	
	0.47388493	-171.88105	0.50059384	-9.2363413	0.47523594	9.3762846	0.5048017	7.9330406	
	
0.107091510398389	0.50724212	7.6429362	0.47515324	9.2429705	0.49729721	-9.0491897	0.47358774	-172.06028	
	0.47515324	9.2429705	0.50625038	7.6514787	0.47386628	-172.04412	0.49927458	-9.0969819	
	0.49729721	-9.0491897	0.47386628	-172.04412	0.50664862	7.7731618	0.475016	9.1318061	
	0.47358774	-172.06028	0.49927458	-9.0969819	0.475016	9.1318061	0.50565507	7.8019752	
	
0.109565390708082	0.50738747	7.5713053	0.4758979	9.0651811	0.49686651	-8.8824407	0.47462361	-172.3039	
	0.4758979	9.0651811	0.50625274	7.4365918	0.47397123	-172.26949	0.49867692	-8.9320974	
	0.49686651	-8.8824407	0.47397123	-172.26949	0.50703515	7.5525388	0.47572379	8.9518877	
	0.47462361	-172.3039	0.49867692	-8.9320974	0.47572379	8.9518877	0.50603713	7.6442148	
	
0.112096419187261	0.50845676	7.3611452	0.47620232	8.8540572	0.49589678	-8.7533235	0.47496615	-172.48878	
	0.47620232	8.8540572	0.50626983	7.2795074	0.47453393	-172.43164	0.49784217	-8.8141513	
	0.49589678	-8.7533235	0.47453393	-172.43164	0.50633652	7.349517	0.47642715	8.7851806	
	0.47496615	-172.48878	0.49784217	-8.8141513	0.47642715	8.7851806	0.50541436	7.4209153	
	
0.114685915994083	0.50789349	7.1030842	0.47605828	8.7064111	0.49536125	-8.5716495	0.47487892	-172.6858	
	0.47605828	8.7064111	0.50606185	7.0486504	0.47466483	-172.70556	0.49735574	-8.6229124	
	0.49536125	-8.5716495	0.47466483	-172.70556	0.50667057	7.149512	0.47685031	8.6143397	
	0.47487892	-172.6858	0.49735574	-8.6229124	0.47685031	8.6143397	0.50584101	7.2606078	
	
0.117335231783182	0.5082471	6.9413698	0.47623772	8.5412801	0.49496696	-8.5041231	0.4749561	-172.85508	
	0.47623772	8.5412801	0.50730679	6.9582522	0.47490454	-172.92153	0.49663793	-8.5744796	
	0.49496696	-8.5041231	0.47490454	-172.92153	0.5071978	6.9912001	0.47667117	8.4560809	
	0.4749561	-172.85508	0.49663793	-8.5744796	0.47667117	8.4560809	0.50585621	7.0657515	
	
0.120045748410147	0.50882146	6.7803211	0.47657615	8.3787965	0.4946297	-8.350983	0.47505156	-173.10564	
	0.47657615	8.3787965	0.50641589	6.7239578	0.47479415	-173.12039	0.49602687	-8.3466451	
	0.4946297	-8.350983	0.47479415	-173.12039	0.50813767	6.7747422	0.47680695	8.3135083	
	0.47505156	-173.10564	0.49602687	-8.3466451	0.47680695	8.3135083	0.50663239	6.7356701	
	
0.122818879652292	0.50862673	6.5877683	0.47675714	8.1650739	0.49354289	-8.1822079	0.47539217	-173.29483	
	0.47675714	8.1650739	0.50706471	6.5723917	0.47531725	-173.272	0.49535139	-8.2393608	
	0.49354289	-8.1822079	0.47531725	-173.272	0.50804828	6.6335027	0.47733733	8.0786597	
	0.47539217	-173.29483	0.49535139	-8.2393608	0.47733733	8.0786597	0.50716096	6.652969	
	
0.125656071946061	0.50882149	6.4017522	0.47741618	8.045114	0.49306292	-8.0890849	0.47547354	-173.53296	
	0.47741618	8.045114	0.50744268	6.3627767	0.47541899	-173.49816	0.49475742	-8.1576586	
	0.49306292	-8.0890849	0.47541899	-173.49816	0.50861592	6.3643056	0.47730111	7.9750454	
	0.47547354	-173.53296	0.49475742	-8.1576586	0.47730111	7.9750454	0.50756175	6.4686428	
	
0.128558805141477	0.50896316	6.3275097	0.4773534	7.893225	0.49192779	-7.9578612	0.475603	-173.64576	
	0.4773534	7.893225	0.50777671	6.2600986	0.47543226	-173.68055	0.49413776	-8.007188	
	0.49192779	-7.9578612	0.47543226	-173.68055	0.50834514	6.2204607	0.47775044	7.8603095	
	0.475603	-173.64576	0.49413776	-8.007188	0.47775044	7.8603095	0.50686399	6.3374598	
	
0.131528593274019	0.50944504	6.1348021	0.47786854	7.7535692	0.49239947	-7.8275699	0.47625448	-173.79954	
	0.47786854	7.7535692	0.50819417	6.1368305	0.47550394	-173.82919	0.49361523	-7.9146589	
	0.49239947	-7.8275699	0.47550394	-173.82919	0.50841622	6.1062101	0.47800756	7.6301933	
	0.47625448	-173.79954	0.49361523	-7.9146589	0.47800756	7.6301933	0.50745471	6.2191097	
	
0.134566985354323	0.50929601	5.8881054	0.4773884	7.5451108	0.49158807	-7.7098846	0.47613111	-174.04094	
	0.4773884	7.5451108	0.50812926	5.867747	0.47583604	-174.01115	0.49323612	-7.7563732	
	0.49158807	-7.7098846	0.47583604	-174.01115	0.50946158	6.0018175	0.4780989	7.5050616	
	0.47613111	-174.04094	0.49323612	-7.7563732	0.4780989	7.5050616	0.50761751	6.0712382	
	
0.13767556617613	0.51035982	5.7913639	0.47762745	7.494025	0.49117652	-7.6149731	0.47586244	-174.25026	
	0.47762745	7.494025	0.50826744	5.711633	0.47621008	-174.18185	0.49253727	-7.6147045	
	0.49117652	-7.6149731	0.47621008	-174.18185	0.50907258	5.8110247	0.47833521	7.3534582	
	0.47586244	-174.25026	0.49253727	-7.6147045	0.47833521	7.3534582	0.50739968	5.8627612	
	
0.140855957142902	0.50983854	5.600939	0.47806719	7.3646732	0.49123169	-7.4984933	0.4759495	-174.41076	
	0.47806719	7.3646732	0.50912667	5.5628407	0.47599698	-174.36643	0.49216458	-7.4893493	
	0.49123169	-7.4984933	0.47599698	-174.36643	0.50915597	5.68726	0.47808946	7.2014812	
	0.4759495	-174.41076	0.49216458	-7.4893493	0.47808946	7.2014812	0.50814925	5.7740498	
	
0.144109817113524	0.5104212	5.4844832	0.47784329	7.1801542	0.49022849	-7.356034	0.4762129	-174.53568	
	0.47784329	7.1801542	0.50934753	5.4499292	0.47591342	-174.57099	0.49179096	-7.4052922	
	0.49022849	-7.356034	0.47591342	-174.57099	0.50907734	5.5044838	0.47835259	7.1038591	
	0.4762129	-174.53568	0.49179096	-7.4052922	0.47835259	7.1038591	0.50806049	5.5429508	
	
0.147438843267552	0.51019141	5.3257454	0.47827998	7.0409454	0.48954742	-7.2885312	0.47677433	-174.71676	
	0.47827998	7.0409454	0.50868883	5.2392559	0.47648507	-174.73266	0.49106165	-7.3323571	
	0.48954742	-7.2885312	0.47648507	-174.73266	0.50978657	5.3712115	0.47894264	6.9433079	
	0.47677433	-174.71676	0.49106165	-7.3323571	0.47894264	6.9433079	0.50877577	5.4297555	
	
0.150844771990442	0.51083025	5.1017652	0.47840892	6.8717229	0.4897288	-7.1205642	0.47692061	-174.94817	
	0.47840892	6.8717229	0.50958075	5.1300166	0.47627197	-174.95692	0.49085464	-7.1625014	
	0.4897288	-7.1205642	0.47627197	-174.95692	0.50978389	5.2317374	0.4785601	6.8431629	
	0.47692061	-174.94817	0.49085464	-7.1625014	0.4785601	6.8431629	0.50828777	5.2750413	
	
0.154329379779229	0.5109549	5.0398262	0.47849737	6.8071496	0.48919064	-7.0072196	0.47660159	-175.10617	
	0.47849737	6.8071496	0.50918775	4.9842571	0.47689535	-175.14901	0.49065185	-7.0891497	
	0.48919064	-7.0072196	0.47689535	-175.14901	0.50991387	5.0810484	0.47897108	6.7225231	
	0.47660159	-175.10617	0.49065185	-7.0891497	0.47897108	6.7225231	0.50856887	5.1489956	
	
0.157894484169135	0.51121388	4.9151187	0.47869373	6.6784786	0.48902968	-6.9358657	0.47726119	-175.24204	
	0.47869373	6.6784786	0.50943608	4.8953457	0.47708954	-175.26134	0.49070134	-7.0280703	
	0.48902968	-6.9358657	0.47708954	-175.26134	0.50978985	4.9300921	0.47926037	6.5568603	
	0.47726119	-175.24204	0.49070134	-7.0280703	0.47926037	6.5568603	0.50832976	4.9837235	
	
0.16154194468157	0.51046974	4.7342503	0.47951133	6.5973546	0.48747992	-6.7905984	0.47683722	-175.39876	
	0.47951133	6.5973546	0.50975124	4.7575442	0.47646146	-175.39188	0.48970722	-6.9756794	
	0.48747992	-6.7905984	0.47646146	-175.39188	0.5102178	4.71465	0.47917995	6.5277064	
	0.47683722	-175.39876	0.48970722	-6.9756794	0.47917995	6.5277064	0.50951387	4.8078637	
	
0.165273663794043	0.51099117	4.6760604	0.47961067	6.4463572	0.48796454	-6.7682832	0.47752789	-175.58427	
	0.47961067	6.4463572	0.50949643	4.5680101	0.47704335	-175.61102	0.48976703	-6.8560294	
	0.48796454	-6.7682832	0.47704335	-175.61102	0.51037707	4.6131835	0.47939793	6.3314166	
	0.47752789	-175.58427	0.48976703	-6.8560294	0.47939793	6.3314166	0.50907589	4.6843255	
	
0.169091587932473	0.51132503	4.4990823	0.4793243	6.2677794	0.48767098	-6.668998	0.47705557	-175.67854	
	0.4793243	6.2677794	0.51043809	4.4777864	0.47712595	-175.75349	0.48903265	-6.7683822	
	0.48767098	-6.668998	0.47712595	-175.75349	0.51078278	4.5508712	0.47912616	6.2194982	
	0.47705557	-175.67854	0.48903265	-6.7683822	0.47912616	6.2194982	0.50922947	4.6350471	
	
0.172997708486424	0.51132047	4.3944347	0.47944289	6.2711692	0.48734709	-6.5609667	0.47734186	-175.85988	
	0.47944289	6.2711692	0.51007031	4.3260554	0.47720927	-175.81257	0.48866788	-6.702128	
	0.48734709	-6.5609667	0.47720927	-175.81257	0.51087733	4.4021331	0.47937285	6.1071725	
	0.47734186	-175.85988	0.48866788	-6.702128	0.47937285	6.1071725	0.50878902	4.5252283	
	
0.176994062847797	0.51108758	4.2120229	0.47984447	6.1118157	0.48707134	-6.4567251	0.47781604	-176.05607	
	0.47984447	6.1118157	0.51021354	4.2347788	0.47753525	-176.00615	0.48865879	-6.5849112	
	0.48707134	-6.4567251	0.47753525	-176.00615	0.51087331	4.2262056	0.4795449	6.0166499	
	0.47781604	-176.05607	0.48865879	-6.5849112	0.4795449	6.0166499	0.50846585	4.3250129	
	
0.181082735473506	0.51166665	4.1237507	0.47959965	6.0001529	0.48715681	-6.4270411	0.47798557	-176.11951	
	0.47959965	6.0001529	0.51058645	4.0994178	0.47761363	-176.15898	0.4882431	-6.5352415	
	0.48715681	-6.4270411	0.47761363	-176.15898	0.51025027	4.0767241	0.47987052	5.8831542	
	0.47798557	-176.11951	0.4882431	-6.5352415	0.47987052	5.8831542	0.50944708	4.2364798	
	
0.185265858972714	0.51102565	3.9662718	0.47971878	5.9320171	0.48640503	-6.334727	0.47784653	-176.29616	
	0.47971878	5.9320171	0.50980266	3.975559	0.47769239	-176.32553	0.48762487	-6.4457339	
	0.48640503	-6.334727	0.47769239	-176.32553	0.51092517	3.9263645	0.48000009	5.8105984	
	0.47784653	-176.29616	0.48762487	-6.4457339	0.48000009	5.8105984	0.5096238	4.115852	
	
0.18954561521918	0.51117434	3.8598665	0.48024688	5.8147466	0.48637257	-6.2585189	0.47842733	-176.42104	
	0.48024688	5.8147466	0.51071563	3.7692352	0.47753866	-176.44858	0.48747061	-6.3195065	
	0.48637257	-6.2585189	0.47753866	-176.44858	0.51060299	3.8532468	0.48031759	5.7420378	
	0.47842733	-176.42104	0.48747061	-6.3195065	0.48031759	5.7420378	0.50917119	3.9587436	
	
0.193924236489297	0.51182358	3.7586306	0.47951071	5.7127815	0.48600858	-6.1686265	0.47780052	-176.59668	
	0.47951071	5.7127815	0.51062115	3.6288897	0.47827029	-176.62777	0.48764016	-6.2737946	
	0.48600858	-6.1686265	0.47827029	-176.62777	0.51068209	3.7125166	0.4801869	5.5977057	
	0.47780052	-176.59668	0.48764016	-6.2737946	0.4801869	5.5977057	0.50970308	3.8166766	
	
0.19840400662643	0.51158945	3.6309697	0.48016131	5.5950733	0.48545253	-6.095891	0.47789782	-176.74005	
	0.48016131	5.5950733	0.51077556	3.5490253	0.47839997	-176.76517	0.48760395	-6.1946554	
	0.48545253	-6.095891	0.47839997	-176.76517	0.51055742	3.5775683	0.48048595	5.4956035	
	0.47789782	-176.74005	0.48760395	-6.1946554	0.48048595	5.4956035	0.50947888	3.6374178	
	
0.202987262232139	0.51190671	3.5399978	0.48002368	5.5297603	0.48547446	-6.0339441	0.47823521	-176.91488	
	0.48002368	5.5297603	0.5107671	3.5115199	0.47777123	-176.94508	0.486457	-6.1141161	
	0.48547446	-6.0339441	0.47777123	-176.94508	0.51090326	3.5000239	0.48050637	5.4787391	
	0.47823521	-176.91488	0.486457	-6.1141161	0.48050637	5.4787391	0.50976067	3.6617707	
	
0.207676393884933	0.51081672	3.4147125	0.48049438	5.4328842	0.4851969	-5.9692527	0.47798621	-177.05827	
	0.48049438	5.4328842	0.51078432	3.338903	0.47800694	-177.06593	0.4868113	-6.0364104	
	0.4851969	-5.9692527	0.47800694	-177.06593	0.51085499	3.401782	0.48022153	5.3234055	
	0.47798621	-177.05827	0.4868113	-6.0364104	0.48022153	5.3234055	0.51061936	3.5340213	
	
0.212473847387164	0.51205332	3.2886078	0.48037225	5.3765343	0.48526657	-5.911089	0.47790983	-177.18093	
	0.48037225	5.3765343	0.51047547	3.1993735	0.47783174	-177.20636	0.48641012	-5.9633849	
	0.48526657	-5.911089	0.47783174	-177.20636	0.51132566	3.2732613	0.48068897	5.2786244	
	0.47790983	-177.18093	0.48641012	-5.9633849	0.48068897	5.2786244	0.51012229	3.4290712	
	
0.217382125040737	0.51200118	3.2255185	0.48026134	5.2613168	0.48514388	-5.8600821	0.47867139	-177.30132	
	0.48026134	5.2613168	0.51081002	3.1313145	0.47803082	-177.38275	0.4862791	-5.9260816	
	0.48514388	-5.8600821	0.47803082	-177.38275	0.51120055	3.0966506	0.48072888	5.1918994	
	0.47867139	-177.30132	0.4862791	-5.9260816	0.48072888	5.1918994	0.50993699	3.2440188	
	
0.222403786952283	0.51214565	3.0622123	0.48056838	5.1412061	0.48494886	-5.8614819	0.47855294	-177.42927	
	0.48056838	5.1412061	0.51109171	2.9240095	0.4780372	-177.47516	0.48632034	-5.8364136	
	0.48494886	-5.8614819	0.4780372	-177.47516	0.51124264	3.0646604	0.48067722	5.0461137	
	0.47855294	-177.42927	0.48632034	-5.8364136	0.48067722	5.0461137	0.50978942	3.1753315	
	
0.227541452368483	0.51237268	2.9336271	0.48012485	5.1425877	0.48469832	-5.6911483	0.47864749	-177.65733	
	0.48012485	5.1425877	0.51158275	2.9090458	0.47780575	-177.55999	0.48530574	-5.8453559	
	0.48469832	-5.6911483	0.47780575	-177.55999	0.51112423	2.8557269	0.48084476	5.0301415	
	0.47864749	-177.65733	0.48530574	-5.8453559	0.48084476	5.0301415	0.51102827	2.9574745	
	
0.232797801042241	0.51199651	2.8655659	0.48100339	5.0622835	0.48449803	-5.6583219	0.47844737	-177.71259	
	0.48100339	5.0622835	0.51110644	2.7897849	0.47857358	-177.76969	0.48555034	-5.8059156	
	0.48449803	-5.6583219	0.47857358	-177.76969	0.51145447	2.752496	0.48077927	4.8971111	
	0.47844737	-177.71259	0.48555034	-5.8059156	0.48077927	4.8971111	0.51046476	2.9313679	
	
0.238175574630416	0.51201568	2.6949631	0.48070392	4.9960754	0.48411107	-5.6319358	0.47867192	-177.82562	
	0.48070392	4.9960754	0.51076879	2.6608134	0.47850781	-177.87829	0.48562429	-5.7093609	
	0.48411107	-5.6319358	0.47850781	-177.87829	0.51150403	2.726049	0.48097639	4.8534665	
	0.47867192	-177.82562	0.48562429	-5.7093609	0.48097639	4.8534665	0.51049232	2.8354892	
	
0.24367757812384	0.51257573	2.6306624	0.48075863	4.8836084	0.48394242	-5.6235027	0.47868128	-177.92764	
	0.48075863	4.8836084	0.51055529	2.5049653	0.47816529	-177.99969	0.48553557	-5.6705686	
	0.48394242	-5.6235027	0.47816529	-177.99969	0.51147122	2.5776152	0.48075381	4.739316	
	0.47868128	-177.92764	0.48553557	-5.6705686	0.48075381	4.739316	0.51071521	2.6635295	
	
0.249306681310373	0.51208013	2.472801	0.4806413	4.7885312	0.48317321	-5.5009353	0.47843771	-178.12715	
	0.4806413	4.7885312	0.51164053	2.4447093	0.47855747	-178.18106	0.48502973	-5.6945335	
	0.48317321	-5.5009353	0.47855747	-178.18106	0.51176111	2.5314691	0.48079558	4.7091414	
	0.47843771	-178.12715	0.48502973	-5.6945335	0.48079558	4.7091414	0.51025451	2.6697503	
	
0.255065820271756	0.5122812	2.4070898	0.48096799	4.761197	0.4830209	-5.5429042	0.47864961	-178.2018	
	0.48096799	4.761197	0.51117777	2.2989025	0.47822397	-178.2783	0.48475707	-5.6144552	
	0.4830209	-5.5429042	0.47822397	-178.2783	0.51112241	2.3944714	0.48152386	4.6306193	
	0.47864961	-178.2018	0.48475707	-5.6144552	0.48152386	4.6306193	0.51044903	2.5088136	
	
0.260957998915036	0.51205281	2.2698103	0.48102043	4.7560175	0.4833409	-5.4692508	0.47858611	-178.34803	
	0.48102043	4.7560175	0.51168981	2.2306289	0.47838785	-178.40919	0.48485386	-5.5740254	
	0.4833409	-5.4692508	0.47838785	-178.40919	0.51177188	2.252434	0.48115686	4.6194332	
	0.47858611	-178.34803	0.48485386	-5.5740254	0.48115686	4.6194332	0.51074771	2.4281082	
	
0.266986290539378	0.51261185	2.21759	0.48073943	4.6219403	0.4835133	-5.4472954	0.47886568	-178.52477	
	0.48073943	4.6219403	0.51070532	2.1635156	0.47893438	-178.51397	0.48491002	-5.5858074	
	0.4835133	-5.4472954	0.47893438	-178.51397	0.5119669	2.1714864	0.48137289	4.5386525	
	0.47886568	-178.52477	0.48491002	-5.5858074	0.48137289	4.5386525	0.51072225	2.3803381	
	
0.273153839439064	0.51282827	2.1553074	0.48096304	4.5950381	0.48329962	-5.4034825	0.47911235	-178.6614	
	0.48096304	4.5950381	0.51096917	2.0357623	0.47877236	-178.66342	0.484848	-5.4927475	
	0.48329962	-5.4034825	0.47877236	-178.66342	0.51168018	2.0657226	0.48101145	4.4817653	
	0.47911235	-178.6614	0.484848	-5.4927475	0.48101145	4.4817653	0.51086636	2.2097232	
	
0.279463862543524	0.51245498	1.9927133	0.48077271	4.5452163	0.48281973	-5.4111227	0.47871405	-178.73243	
	0.48077271	4.5452163	0.51180101	1.897053	0.47867673	-178.82237	0.48395863	-5.4808653	
	0.48281973	-5.4111227	0.47867673	-178.82237	0.51202673	1.9746132	0.48127146	4.415717	
	0.47871405	-178.73243	0.48395863	-5.4808653	0.48127146	4.415717	0.51088482	2.1714761	
	
0.285919651095252	0.51266613	1.9875878	0.48130299	4.4628354	0.48296973	-5.3595622	0.478633	-178.90908	
	0.48130299	4.4628354	0.51092261	1.8958983	0.47849897	-178.91091	0.48442712	-5.4559633	
	0.48296973	-5.3595622	0.47849897	-178.91091	0.51144156	1.9209132	0.48133597	4.3525734	
	0.478633	-178.90908	0.48442712	-5.4559633	0.48133597	4.3525734	0.51101107	2.033904	
	
0.292524572366485	0.51271468	1.8301655	0.48128638	4.4486754	0.48239805	-5.3595021	0.47856531	-179.04066	
	0.48128638	4.4486754	0.51111535	1.8385417	0.47891338	-179.16878	0.48391884	-5.4342301	
	0.48239805	-5.3595021	0.47891338	-179.16878	0.51142731	1.8287355	0.48153863	4.2738138	
	0.47856531	-179.04066	0.48391884	-5.4342301	0.48153863	4.2738138	0.51076028	2.0515013	
	
0.299282071415539	0.51267403	1.7193627	0.48119043	4.383711	0.48270535	-5.3155939	0.47887767	-179.18692	
	0.48119043	4.383711	0.5111077	1.7231959	0.47859506	-179.19094	0.48422907	-5.4279775	
	0.48270535	-5.3155939	0.47859506	-179.19094	0.51186089	1.8071794	0.48118275	4.1639554	
	0.47887767	-179.18692	0.48422907	-5.4279775	0.48118275	4.1639554	0.51053979	1.9497134	
	
0.30619567288371	0.51256174	1.6939321	0.48111857	4.358561	0.48244402	-5.264927	0.47837844	-179.28085	
	0.48111857	4.358561	0.51204328	1.6491866	0.47879508	-179.27063	0.48416104	-5.4201396	
	0.48244402	-5.264927	0.47879508	-179.27063	0.51195703	1.7131119	0.48155503	4.1898523	
	0.47837844	-179.28085	0.48416104	-5.4201396	0.48155503	4.1898523	0.51010545	1.7991929	
	
0.313268982833699	0.51273163	1.5424638	0.48121075	4.342658	0.48212536	-5.2668472	0.4789585	-179.37331	
	0.48121075	4.342658	0.51047155	1.4515438	0.47881618	-179.45195	0.48403365	-5.3584797	
	0.48212536	-5.2668472	0.47881618	-179.45195	0.51204771	1.536053	0.48193449	4.1816395	
	0.4789585	-179.37331	0.48403365	-5.3584797	0.48193449	4.1816395	0.51043903	1.6952477	
	
0.320505690630487	0.51242809	1.4103803	0.48172446	4.3585356	0.48260461	-5.2150005	0.47938875	-179.4394	
	0.48172446	4.3585356	0.51133043	1.2982102	0.47854828	-179.56253	0.48376011	-5.3340508	
	0.48260461	-5.2150005	0.47854828	-179.56253	0.5118153	1.3157878	0.48195504	4.0954796	
	0.47938875	-179.4394	0.48376011	-5.3340508	0.48195504	4.0954796	0.51087632	1.5086941	
	
0.327909570865677	0.51221341	1.3052092	0.48182612	4.2654268	0.48258431	-5.1942802	0.47964545	-179.61562	
	0.48182612	4.2654268	0.51119084	1.144719	0.47900998	-179.58001	0.48358291	-5.358815	
	0.48258431	-5.1942802	0.47900998	-179.58001	0.51124818	1.2508177	0.4821176	4.1396823	
	0.47964545	-179.61562	0.48358291	-5.358815	0.4821176	4.1396823	0.50992303	1.3371538	
	
0.335484485326279	0.51232444	1.179168	0.48212422	4.2306736	0.48190155	-5.1705593	0.4789121	-179.68616	
	0.48212422	4.2306736	0.51102352	1.1114875	0.47916486	-179.73631	0.48374357	-5.2746598	
