# MHz S MA R 50

0.1	0.074434032	80.122484	0.079061638	80.625406	0.9846297	-4.4913273	0.076534769	-99.879073	
	0.079061638	80.625406	0.075315143	80.809659	0.076153897	-99.572606	0.98535463	-4.5611407	
	0.9846297	-4.4913273	0.076153897	-99.572606	0.07805634	81.162724	0.079276318	80.447637	
	0.076534769	-99.879073	0.98535463	-4.5611407	0.079276318	80.447637	0.076598254	80.667923	
	
0.102310062021247	0.077437018	80.391603	0.080629939	80.062184	0.98332363	-4.5674215	0.077842633	-100.19279	
	0.080629939	80.062184	0.077911071	79.747407	0.07801007	-99.97346	0.98383813	-4.7140725	
	0.98332363	-4.5674215	0.07801007	-99.97346	0.078449619	81.000831	0.08090703	80.196902	
	0.077842633	-100.19279	0.98383813	-4.7140725	0.08090703	80.196902	0.07969517	79.881525	
	
0.104673487907914	0.079727972	80.07666	0.082624375	80.265376	0.98336978	-4.6930085	0.079817841	-100.44712	
	0.082624375	80.265376	0.08019303	79.406532	0.079735075	-100.23162	0.98453267	-4.8279584	
	0.98336978	-4.6930085	0.079735075	-100.23162	0.08007954	80.741467	0.082649886	79.919571	
	0.079817841	-100.44712	0.98453267	-4.8279584	0.082649886	79.919571	0.080582582	81.215714	
	
0.107091510398389	0.080718705	79.687727	0.084237195	79.817048	0.98307575	-4.7922952	0.081555948	-100.47242	
	0.084237195	79.817048	0.080814401	79.378555	0.081709277	-100.42668	0.98353915	-4.891225	
	0.98307575	-4.7922952	0.081709277	-100.42668	0.082215503	80.476724	0.084585194	79.764126	
	0.081555948	-100.47242	0.98353915	-4.891225	0.084585194	79.764126	0.082974198	80.286387	
	
0.109565390708082	0.083708511	80.619791	0.086197082	79.655256	0.98289622	-4.9053667	0.083519017	-100.84604	
	0.086197082	79.655256	0.082890573	79.470159	0.083515654	-100.6925	0.98325636	-5.0159588	
	0.98289622	-4.9053667	0.083515654	-100.6925	0.08331846	80.163784	0.086546376	79.51157	
	0.083519017	-100.84604	0.98325636	-5.0159588	0.086546376	79.51157	0.085281952	80.174406	
	
0.112096419187261	0.085078352	80.232098	0.088330211	79.409891	0.98193059	-4.9896028	0.085601862	-100.86333	
	0.088330211	79.409891	0.084512805	80.000644	0.085320629	-100.65974	0.98301656	-5.163038	
	0.98193059	-4.9896028	0.085320629	-100.65974	0.08453079	80.799388	0.088481941	79.440083	
	0.085601862	-100.86333	0.98301656	-5.163038	0.088481941	79.440083	0.086489794	80.605772	
	
0.114685915994083	0.086469969	79.346493	0.090358272	79.118977	0.982067	-5.1083225	0.087530733	-101.25033	
	0.090358272	79.118977	0.086291686	78.935821	0.087389181	-100.97824	0.98225289	-5.2457491	
	0.982067	-5.1083225	0.087389181	-100.97824	0.087211875	80.473935	0.090643033	79.134501	
	0.087530733	-101.25033	0.98225289	-5.2457491	0.090643033	79.134501	0.088418003	79.908745	
	
0.117335231783182	0.087740129	78.803863	0.092466904	79.309075	0.98102043	-5.2445727	0.089063375	-101.34072	
	0.092466904	79.309075	0.088953197	78.713089	0.089154628	-101.48362	0.98180861	-5.3686486	
	0.98102043	-5.2445727	0.089154628	-101.48362	0.088722856	79.781752	0.091948336	79.008596	
	0.089063375	-101.34072	0.98180861	-5.3686486	0.091948336	79.008596	0.089734177	79.787629	
	
0.120045748410147	0.090376169	78.313273	0.094167418	78.58412	0.98115112	-5.3334276	0.090960395	-101.55246	
	0.094167418	78.58412	0.090587349	78.789691	0.090982589	-101.75494	0.98073404	-5.4405345	
	0.98115112	-5.3334276	0.090982589	-101.75494	0.090558647	79.107428	0.094439298	78.835363	
	0.090960395	-101.55246	0.98073404	-5.4405345	0.094439298	78.835363	0.09137477	78.57387	
	
0.122818879652292	0.092074797	78.620419	0.096413072	78.423449	0.98046547	-5.4411136	0.09329117	-101.92029	
	0.096413072	78.423449	0.09223893	78.57228	0.093199844	-102.06982	0.9807203	-5.5656051	
	0.98046547	-5.4411136	0.093199844	-102.06982	0.093310338	79.438604	0.09660704	78.503272	
	0.09329117	-101.92029	0.9807203	-5.5656051	0.09660704	78.503272	0.093896644	79.153528	
	
0.125656071946061	0.094794868	78.513635	0.098614603	78.248762	0.97964997	-5.6039872	0.0952519	-102.10713	
	0.098614603	78.248762	0.094351657	78.385407	0.095088242	-102.2094	0.98009142	-5.7132577	
	0.97964997	-5.6039872	0.095088242	-102.2094	0.095050894	78.59419	0.098456271	78.149767	
	0.0952519	-102.10713	0.98009142	-5.7132577	0.098456271	78.149767	0.096646631	78.663401	
	
0.128558805141477	0.096267309	78.048498	0.10095036	77.996455	0.97899716	-5.6969643	0.097226598	-102.39482	
	0.10095036	77.996455	0.09723403	77.873041	0.09745913	-102.29298	0.97985717	-5.8385051	
	0.97899716	-5.6969643	0.09745913	-102.29298	0.096446287	78.782469	0.10074603	78.102041	
	0.097226598	-102.39482	0.97985717	-5.8385051	0.10074603	78.102041	0.097535169	78.74234	
	
0.131528593274019	0.098234815	77.594767	0.10290186	77.604899	0.9781905	-5.8379019	0.099603174	-102.61887	
	0.10290186	77.604899	0.098336261	77.792924	0.09940141	-102.66088	0.97903829	-5.9678538	
	0.9781905	-5.8379019	0.09940141	-102.66088	0.099334258	78.573976	0.10281181	77.812141	
	0.099603174	-102.61887	0.97903829	-5.9678538	0.10281181	77.812141	0.099714674	78.881219	
	
0.134566985354323	0.10068269	77.252082	0.10492151	77.60666	0.97722043	-5.9528055	0.10196313	-102.94968	
	0.10492151	77.60666	0.1012534	77.293824	0.10126055	-102.88564	0.97824711	-6.1232206	
	0.97722043	-5.9528055	0.10126055	-102.88564	0.10149866	77.711698	0.10533349	77.447282	
	0.10196313	-102.94968	0.97824711	-6.1232206	0.10533349	77.447282	0.10361111	78.400341	
	
0.13767556617613	0.10244664	77.029763	0.10711714	77.45502	0.97628767	-6.090356	0.10370551	-103.24468	
	0.10711714	77.45502	0.10349724	77.02233	0.10390498	-103.10049	0.97744361	-6.2084032	
	0.97628767	-6.090356	0.10390498	-103.10049	0.10321634	77.592931	0.10763123	77.03005	
	0.10370551	-103.24468	0.97744361	-6.2084032	0.10763123	77.03005	0.10516903	77.819629	
	
0.140855957142902	0.10403536	76.757089	0.10962411	77.246719	0.97546747	-6.244178	0.10584869	-103.52386	
	0.10962411	77.246719	0.10600738	76.024182	0.10579858	-103.24496	0.97557468	-6.3600568	
	0.97546747	-6.244178	0.10579858	-103.24496	0.10554735	77.224309	0.10977938	76.770193	
	0.10584869	-103.52386	0.97557468	-6.3600568	0.10977938	76.770193	0.10800425	77.059208	
	
0.144109817113524	0.10716874	76.059253	0.11204956	76.78544	0.9748298	-6.3544368	0.10845055	-103.73052	
	0.11204956	76.78544	0.10800099	76.322305	0.10826407	-103.92764	0.97497838	-6.4930087	
	0.9748298	-6.3544368	0.10826407	-103.92764	0.10788125	76.941778	0.11221301	76.737586	
	0.10845055	-103.73052	0.97497838	-6.4930087	0.11221301	76.737586	0.11042128	76.939186	
	
0.147438843267552	0.10971571	76.25684	0.11459291	76.464747	0.97369112	-6.495231	0.11075811	-103.98058	
	0.11459291	76.464747	0.1103085	75.997536	0.11079515	-103.99161	0.9740297	-6.6823597	
	0.97369112	-6.495231	0.11079515	-103.99161	0.11045986	77.0934	0.11424843	76.201472	
	0.11075811	-103.98058	0.9740297	-6.6823597	0.11424843	76.201472	0.11238463	76.810733	
	
0.150844771990442	0.11217779	75.329114	0.11692905	76.290051	0.97299284	-6.6020331	0.11312277	-104.45243	
	0.11692905	76.290051	0.11340874	75.402503	0.11291843	-104.36338	0.97304336	-6.7840034	
	0.97299284	-6.6020331	0.11291843	-104.36338	0.11276772	75.901725	0.11720416	76.082413	
	0.11312277	-104.45243	0.97304336	-6.7840034	0.11720416	76.082413	0.11367659	76.567233	
	
0.154329379779229	0.11441467	75.328292	0.11930574	76.049336	0.97237602	-6.7505719	0.11554697	-104.7186	
	0.11930574	76.049336	0.1162457	75.343724	0.11541002	-104.53566	0.97284697	-6.9241733	
	0.97237602	-6.7505719	0.11541002	-104.53566	0.1155261	76.182571	0.11975111	75.769531	
	0.11554697	-104.7186	0.97284697	-6.9241733	0.11975111	75.769531	0.11752506	76.141448	
	
0.157894484169135	0.1167839	75.320905	0.12212906	75.637597	0.97193783	-6.8957655	0.11792723	-104.87329	
	0.12212906	75.637597	0.11839003	75.084963	0.11814872	-104.97249	0.97226399	-7.1094177	
	0.97193783	-6.8957655	0.11814872	-104.97249	0.11786857	76.111592	0.12225625	75.505755	
	0.11792723	-104.87329	0.97226399	-7.1094177	0.12225625	75.505755	0.12009065	76.221625	
	
0.16154194468157	0.11962899	75.332467	0.12490245	75.416459	0.97002482	-7.0633532	0.12059209	-105.14853	
	0.12490245	75.416459	0.12045037	75.404322	0.12005689	-105.0938	0.97173367	-7.2505118	
	0.97002482	-7.0633532	0.12005689	-105.0938	0.11915041	75.600868	0.12482866	75.237278	
	0.12059209	-105.14853	0.97173367	-7.2505118	0.12482866	75.237278	0.12131057	75.249216	
	
0.165273663794043	0.12183648	74.877433	0.12753901	75.110842	0.96927661	-7.2307718	0.12322995	-105.613	
	0.12753901	75.110842	0.12333267	74.384547	0.12303222	-105.53028	0.97013065	-7.4168669	
	0.96927661	-7.2307718	0.12303222	-105.53028	0.12237401	75.042022	0.12759716	74.868803	
	0.12322995	-105.613	0.97013065	-7.4168669	0.12759716	74.868803	0.12458906	75.204781	
	
0.169091587932473	0.12484181	74.456807	0.13021007	74.646703	0.96848945	-7.374174	0.12553906	-105.95213	
	0.13021007	74.646703	0.12595027	74.653754	0.12567503	-105.94114	0.96868196	-7.573399	
	0.96848945	-7.374174	0.12567503	-105.94114	0.12621184	74.513918	0.13010675	74.67196	
	0.12553906	-105.95213	0.96868196	-7.573399	0.13010675	74.67196	0.12728831	74.496707	
	
0.172997708486424	0.12731836	73.971998	0.13304157	74.379273	0.96759281	-7.5295294	0.12857305	-106.34551	
	0.13304157	74.379273	0.12746505	73.794691	0.12817011	-106.02032	0.96729354	-7.7553651	
	0.96759281	-7.5295294	0.12817011	-106.02032	0.1284284	73.979896	0.13292609	74.146873	
	0.12857305	-106.34551	0.96729354	-7.7553651	0.13292609	74.146873	0.13013329	74.337036	
	
0.176994062847797	0.12991597	73.788643	0.13606883	74.036362	0.96629085	-7.6719788	0.13149029	-106.55347	
	0.13606883	74.036362	0.13167543	73.511191	0.13104466	-106.41013	0.96637813	-7.8601319	
	0.96629085	-7.6719788	0.13104466	-106.41013	0.1317415	74.032198	0.13604189	73.889892	
	0.13149029	-106.55347	0.96637813	-7.8601319	0.13604189	73.889892	0.1323671	74.241916	
	
0.181082735473506	0.13279951	73.26329	0.13838136	73.752103	0.96490188	-7.856707	0.13397156	-106.93414	
	0.13838136	73.752103	0.13424327	72.844684	0.13383993	-106.84739	0.965085	-8.0505041	
	0.96490188	-7.856707	0.13383993	-106.84739	0.1328993	73.926418	0.13863209	73.608928	
	0.13397156	-106.93414	0.965085	-8.0505041	0.13863209	73.608928	0.13633806	73.773438	
	
0.185265858972714	0.13497308	73.123257	0.14131784	73.475458	0.963983	-7.9982543	0.13644231	-107.22823	
	0.14131784	73.475458	0.13745936	72.954617	0.13677796	-107.17422	0.96401304	-8.2200506	
	0.963983	-7.9982543	0.13677796	-107.17422	0.13519636	73.589651	0.14122547	73.268531	
	0.13644231	-107.22823	0.96401304	-8.2200506	0.14122547	73.268531	0.13808496	73.26352	
	
0.18954561521918	0.1381778	72.582418	0.14431958	73.158155	0.96263733	-8.2009509	0.13973883	-107.57205	
	0.14431958	73.158155	0.13957769	72.568342	0.13960305	-107.35824	0.96313379	-8.3305557	
	0.96263733	-8.2009509	0.13960305	-107.35824	0.13870746	73.276619	0.14488914	73.191775	
	0.13973883	-107.57205	0.96313379	-8.3305557	0.14488914	73.191775	0.1405872	73.243199	
	
0.193924236489297	0.14153349	72.27034	0.14703536	72.821326	0.96031407	-8.3690473	0.14253178	-107.98019	
	0.14703536	72.821326	0.14233632	71.914509	0.14277265	-107.82188	0.96149344	-8.5237998	
	0.96031407	-8.3690473	0.14277265	-107.82188	0.14230003	72.850366	0.14741894	72.64303	
	0.14253178	-107.98019	0.96149344	-8.5237998	0.14741894	72.64303	0.14416368	72.719165	
	
0.19840400662643	0.14423077	72.286336	0.15078987	72.356959	0.95982339	-8.5257925	0.14590929	-108.35729	
	0.15078987	72.356959	0.14613208	72.145846	0.14580162	-108.29052	0.96080734	-8.7706769	
	0.95982339	-8.5257925	0.14580162	-108.29052	0.14545363	72.268151	0.15116397	72.1955	
	0.14590929	-108.35729	0.96080734	-8.7706769	0.15116397	72.1955	0.1470393	72.157694	
	
0.202987262232139	0.14784764	71.619037	0.15350907	71.997794	0.95854578	-8.6978603	0.14860998	-108.76302	
	0.15350907	71.997794	0.14978311	71.266268	0.14857284	-108.69695	0.95835543	-8.895951	
	0.95854578	-8.6978603	0.14857284	-108.69695	0.14771014	71.862608	0.15374976	71.837687	
	0.14860998	-108.76302	0.95835543	-8.895951	0.15374976	71.837687	0.15069658	71.943211	
	
0.207676393884933	0.15011703	71.202606	0.15704462	71.576247	0.95653553	-8.887929	0.15181949	-109.16677	
	0.15704462	71.576247	0.15286707	70.939261	0.15158519	-109.06772	0.95697374	-9.0757907	
	0.95653553	-8.887929	0.15158519	-109.06772	0.15008315	71.654982	0.1571094	71.526832	
	0.15181949	-109.16677	0.95697374	-9.0757907	0.1571094	71.526832	0.15437857	71.670236	
	
0.212473847387164	0.15346572	70.537402	0.15988937	71.155701	0.95505582	-9.0718098	0.1544672	-109.495	
	0.15988937	71.155701	0.15483647	70.637249	0.154618	-109.37923	0.955338	-9.2473666	
	0.95505582	-9.0718098	0.154618	-109.37923	0.15404107	70.986564	0.16020707	71.060466	
	0.1544672	-109.495	0.955338	-9.2473666	0.16020707	71.060466	0.15699676	70.945308	
	
0.217382125040737	0.15659473	70.384075	0.16310263	70.857382	0.95331574	-9.2802944	0.15777017	-109.97004	
	0.16310263	70.857382	0.15900469	70.043933	0.1579973	-109.79334	0.95394782	-9.4544963	
	0.95331574	-9.2802944	0.1579973	-109.79334	0.1562402	70.883421	0.16387209	70.769314	
	0.15777017	-109.97004	0.95394782	-9.4544963	0.16387209	70.769314	0.16020277	70.753267	
	
0.222403786952283	0.1596417	69.764695	0.16667312	70.467458	0.95166119	-9.467184	0.16095876	-110.29902	
	0.16667312	70.467458	0.16245886	69.744651	0.16134669	-110.32854	0.95213288	-9.6534638	
	0.95166119	-9.467184	0.16134669	-110.32854	0.16058914	70.136737	0.16695976	70.199952	
	0.16095876	-110.29902	0.95213288	-9.6534638	0.16695976	70.199952	0.16329852	70.110514	
	
0.227541452368483	0.16397474	69.535523	0.1700815	69.953821	0.95085664	-9.6096267	0.16443998	-110.78097	
	0.1700815	69.953821	0.16623687	69.478913	0.16453329	-110.64847	0.95063744	-9.8702571	
	0.95085664	-9.6096267	0.16453329	-110.64847	0.1631966	69.6481	0.17014659	69.928658	
	0.16443998	-110.78097	0.95063744	-9.8702571	0.17014659	69.928658	0.16584118	70.034491	
	
0.232797801042241	0.16608493	69.048108	0.17365009	69.562026	0.9482676	-9.8156226	0.16754896	-111.21224	
	0.17365009	69.562026	0.16846761	69.208998	0.16779252	-111.05682	0.94867886	-10.037089	
	0.9482676	-9.8156226	0.16779252	-111.05682	0.16716598	69.183475	0.17364374	69.467867	
	0.16754896	-111.21224	0.94867886	-10.037089	0.17364374	69.467867	0.17038088	69.287195	
	
0.238175574630416	0.16913938	68.605301	0.17718909	69.228723	0.9468572	-9.9926652	0.17129866	-111.56411	
	0.17718909	69.228723	0.17227771	68.709215	0.17101264	-111.47814	0.94620917	-10.242987	
	0.9468572	-9.9926652	0.17101264	-111.47814	0.17064019	68.701616	0.1773119	69.185903	
	0.17129866	-111.56411	0.94620917	-10.242987	0.1773119	69.185903	0.17313997	68.90326	
	
0.24367757812384	0.17323039	68.129297	0.18050466	68.779221	0.94421761	-10.206199	0.17438685	-112.03071	
	0.18050466	68.779221	0.17461102	68.213421	0.17435177	-111.95895	0.94480157	-10.476872	
	0.94421761	-10.206199	0.17435177	-111.95895	0.1740392	68.307931	0.180899	68.595393	
	0.17438685	-112.03071	0.94480157	-10.476872	0.180899	68.595393	0.17589781	68.577653	
	
0.249306681310373	0.17674937	67.644799	0.18430591	68.337329	0.94220625	-10.416301	0.17801027	-112.57812	
	0.18430591	68.337329	0.17917081	67.520217	0.17793761	-112.57594	0.94231393	-10.645769	
	0.94220625	-10.416301	0.17793761	-112.57594	0.17790234	68.233151	0.18441211	68.169459	
	0.17801027	-112.57812	0.94231393	-10.645769	0.18441211	68.169459	0.18002387	67.911564	
	
0.255065820271756	0.17986032	67.376411	0.18767759	67.86075	0.94046615	-10.603309	0.18194458	-112.96491	
	0.18767759	67.86075	0.18307396	67.199154	0.18150762	-112.91829	0.94055822	-10.830511	
	0.94046615	-10.603309	0.18150762	-112.91829	0.18046841	67.373229	0.18833781	67.693825	
	0.18194458	-112.96491	0.94055822	-10.830511	0.18833781	67.693825	0.18408647	67.606474	
	
0.260957998915036	0.183477	66.677211	0.19133246	67.466028	0.93750651	-10.78993	0.18486749	-113.38124	
	0.19133246	67.466028	0.18675529	66.523387	0.18494916	-113.24334	0.93806725	-11.038074	
	0.93750651	-10.78993	0.18494916	-113.24334	0.1841557	67.030005	0.19168889	67.421136	
	0.18486749	-113.38124	0.93806725	-11.038074	0.19168889	67.421136	0.18699483	66.936056	
	
0.266986290539378	0.18734679	66.1309	0.19538139	66.955667	0.93614381	-10.976272	0.1885732	-113.93791	
	0.19538139	66.955667	0.1903437	66.395937	0.18877242	-113.8414	0.93600262	-11.271852	
	0.93614381	-10.976272	0.18877242	-113.8414	0.18800335	66.424381	0.19514313	66.902451	
	0.1885732	-113.93791	0.93600262	-11.271852	0.19514313	66.902451	0.19091162	66.437599	
	
0.273153839439064	0.19098434	65.918603	0.19902951	66.464988	0.93414494	-11.171653	0.19232212	-114.39458	
	0.19902951	66.464988	0.19377872	65.846445	0.19226351	-114.20117	0.9333776	-11.472486	
	0.93414494	-11.171653	0.19226351	-114.20117	0.1906385	66.113189	0.19892977	66.432693	
	0.19232212	-114.39458	0.9333776	-11.472486	0.19892977	66.432693	0.19510266	66.116114	
	
0.279463862543524	0.19397518	65.143758	0.20247959	66.064904	0.93155706	-11.422093	0.19607623	-114.76813	
	0.20247959	66.064904	0.19805929	65.224618	0.1960769	-114.83895	0.93096202	-11.701259	
	0.93155706	-11.422093	0.1960769	-114.83895	0.19487438	65.346061	0.20305122	65.939689	
	0.19607623	-114.76813	0.93096202	-11.701259	0.20305122	65.939689	0.19845226	65.49559	
	
0.285919651095252	0.19857183	64.69996	0.20696508	65.516474	0.9286023	-11.621181	0.19966025	-115.4051	
	0.20696508	65.516474	0.20149861	64.960922	0.19974042	-115.39307	0.92812997	-11.915364	
	0.9286023	-11.621181	0.19974042	-115.39307	0.19872946	65.055566	0.20698709	65.404546	
	0.19966025	-115.4051	0.92812997	-11.915364	0.20698709	65.404546	0.20313037	65.001507	
	
0.292524572366485	0.20214365	64.347997	0.21064008	65.132727	0.92619384	-11.819303	0.20364772	-115.8633	
	0.21064008	65.132727	0.20668119	64.26238	0.20352594	-115.96544	0.92580197	-12.108508	
	0.92619384	-11.819303	0.20352594	-115.96544	0.20353917	64.70749	0.21059944	64.87203	
	0.20364772	-115.8633	0.92580197	-12.108508	0.21059944	64.87203	0.20801109	64.929011	
	
0.299282071415539	0.2060641	63.913635	0.21454924	64.524129	0.92307322	-12.025317	0.20733262	-116.49499	
	0.21454924	64.524129	0.20934755	63.846299	0.20716348	-116.45358	0.92256098	-12.318517	
	0.92307322	-12.025317	0.20716348	-116.45358	0.20726076	64.026722	0.21465488	64.380645	
	0.20733262	-116.49499	0.92256098	-12.318517	0.21465488	64.380645	0.21189179	64.085474	
	
0.30619567288371	0.21011006	63.372818	0.21822271	64.17734	0.91984073	-12.261808	0.21064671	-116.99445	
	0.21822271	64.17734	0.21204562	63.207885	0.21081171	-116.84256	0.92036725	-12.491934	
	0.91984073	-12.261808	0.21081171	-116.84256	0.2111145	63.585741	0.21841447	63.961876	
	0.21064671	-116.99445	0.92036725	-12.491934	0.21841447	63.961876	0.21502688	63.619883	
	
0.313268982833699	0.21333191	62.919925	0.22276361	63.696365	0.91817109	-12.468765	0.2149453	-117.45361	
	0.22276361	63.696365	0.21670704	62.872175	0.21551379	-117.35176	0.91759725	-12.761311	
	0.91817109	-12.468765	0.21551379	-117.35176	0.21481741	63.157817	0.22287182	63.463906	
	0.2149453	-117.45361	0.91759725	-12.761311	0.22287182	63.463906	0.21836004	63.197873	
	
0.320505690630487	0.21649075	62.386364	0.22674769	63.249808	0.91555339	-12.658077	0.21917528	-117.74598	
	0.22674769	63.249808	0.22011889	62.109094	0.2192497	-117.70363	0.91529956	-12.964199	
	0.91555339	-12.658077	0.2192497	-117.70363	0.21833144	62.477492	0.22708717	63.113908	
	0.21917528	-117.74598	0.91529956	-12.964199	0.22708717	63.113908	0.22122283	62.773396	
	
0.327909570865677	0.22055726	61.960215	0.23089199	62.768103	0.91260499	-12.895276	0.22378524	-118.39738	
	0.23089199	62.768103	0.22411257	61.714341	0.22354461	-118.23315	0.91197558	-13.250204	
	0.91260499	-12.895276	0.22354461	-118.23315	0.22135724	62.074008	0.23187427	62.51917	
	0.22378524	-118.39738	0.91197558	-13.250204	0.23187427	62.51917	0.22608547	62.260424	
	
0.335484485326279	0.22412847	61.195696	0.23526775	62.226905	0.90939887	-13.12444	0.22741316	-118.95452	
