# MHz S MA R 50

0.1	0.47432099	18.854441	0.46049673	19.38695	0.5680369	-16.352808	0.45817011	-161.47557	
	0.46049673	19.38695	0.47446978	18.899764	0.45878936	-161.46329	0.56937425	-16.406809	
	0.5680369	-16.352808	0.45878936	-161.46329	0.47441924	18.939054	0.46073264	19.226505	
	0.45817011	-161.47557	0.56937425	-16.406809	0.46073264	19.226505	0.47317256	18.802496	
	
0.102310062021247	0.47609791	18.51221	0.46152722	18.977161	0.56498221	-16.148567	0.4596617	-161.96446	
	0.46152722	18.977161	0.47479076	18.536776	0.45917101	-161.89972	0.56643626	-16.23852	
	0.56498221	-16.148567	0.45917101	-161.89972	0.47493375	18.514349	0.46139442	18.875437	
	0.4596617	-161.96446	0.56643626	-16.23852	0.46139442	18.875437	0.47565841	18.527817	
	
0.104673487907914	0.47737685	18.08305	0.46273606	18.535741	0.562729	-15.964268	0.46091381	-162.36247	
	0.46273606	18.535741	0.47541842	18.198669	0.46042486	-162.27958	0.56399413	-15.983481	
	0.562729	-15.964268	0.46042486	-162.27958	0.47663682	18.160085	0.46303023	18.397005	
	0.46091381	-162.36247	0.56399413	-15.983481	0.46303023	18.397005	0.47561261	18.178463	
	
0.107091510398389	0.4784421	17.726915	0.46352148	18.12991	0.55998811	-15.806131	0.46161663	-162.72057	
	0.46352148	18.12991	0.4771801	17.756678	0.46183725	-162.72551	0.56102803	-15.853681	
	0.55998811	-15.806131	0.46183725	-162.72551	0.47738009	17.763322	0.46385371	18.019608	
	0.46161663	-162.72057	0.56102803	-15.853681	0.46385371	18.019608	0.47759793	17.862965	
	
0.109565390708082	0.4791661	17.391137	0.46508727	17.744005	0.55704793	-15.606729	0.46305183	-163.16545	
	0.46508727	17.744005	0.47851216	17.386149	0.46274471	-163.13813	0.55858202	-15.61381	
	0.55704793	-15.606729	0.46274471	-163.13813	0.47876753	17.445284	0.46498682	17.666553	
	0.46305183	-163.16545	0.55858202	-15.61381	0.46498682	17.666553	0.47872823	17.529412	
	
0.112096419187261	0.48115197	17.070141	0.46662694	17.342496	0.55448206	-15.402722	0.46482801	-163.54314	
	0.46662694	17.342496	0.47983488	16.99168	0.46457281	-163.51097	0.55546816	-15.496049	
	0.55448206	-15.402722	0.46457281	-163.51097	0.47933744	17.071378	0.46654837	17.260113	
	0.46482801	-163.54314	0.55546816	-15.496049	0.46654837	17.260113	0.4790979	17.165475	
	
0.114685915994083	0.48119209	16.585841	0.46702042	17.045135	0.55246268	-15.212043	0.46559951	-163.91986	
	0.46702042	17.045135	0.47987632	16.65144	0.46523627	-163.89399	0.55363788	-15.297495	
	0.55246268	-15.212043	0.46523627	-163.89399	0.48038109	16.751122	0.46770098	16.87643	
	0.46559951	-163.91986	0.55363788	-15.297495	0.46770098	16.87643	0.48008395	16.771787	
	
0.117335231783182	0.48192328	16.25314	0.46759942	16.643343	0.55023716	-15.071349	0.46585694	-164.29239	
	0.46759942	16.643343	0.48196228	16.297087	0.46585531	-164.33769	0.55112916	-15.159398	
	0.55023716	-15.071349	0.46585531	-164.33769	0.48131628	16.40046	0.46839786	16.58016	
	0.46585694	-164.29239	0.55112916	-15.159398	0.46839786	16.58016	0.48085362	16.434584	
	
0.120045748410147	0.48332363	15.964087	0.46839484	16.285651	0.54826003	-14.853838	0.46710201	-164.71967	
	0.46839484	16.285651	0.48189648	15.964892	0.46669517	-164.72613	0.5485383	-14.902249	
	0.54826003	-14.853838	0.46669517	-164.72613	0.48292285	15.996686	0.46913255	16.247881	
	0.46710201	-164.71967	0.5485383	-14.902249	0.46913255	16.247881	0.4819777	15.990236	
	
0.122818879652292	0.48409666	15.606868	0.46964989	15.911279	0.54559071	-14.628986	0.46786678	-165.06461	
	0.46964989	15.911279	0.48297105	15.647638	0.46729508	-165.00265	0.54697067	-14.758428	
	0.54559071	-14.628986	0.46729508	-165.00265	0.48358742	15.713706	0.47037014	15.839271	
	0.46786678	-165.06461	0.54697067	-14.758428	0.47037014	15.839271	0.48325423	15.743546	
	
0.125656071946061	0.48507425	15.296315	0.47081857	15.582453	0.54390848	-14.476139	0.46848419	-165.47002	
	0.47081857	15.582453	0.48403966	15.265229	0.46822994	-165.43085	0.54453974	-14.56836	
	0.54390848	-14.476139	0.46822994	-165.43085	0.4844602	15.295643	0.47099662	15.525273	
	0.46848419	-165.47002	0.54453974	-14.56836	0.47099662	15.525273	0.48416569	15.413875	
	
0.128558805141477	0.48545525	15.023816	0.47089069	15.239306	0.54108175	-14.300656	0.46940633	-165.76816	
	0.47089069	15.239306	0.48505956	15.046671	0.46921146	-165.72466	0.54258557	-14.392681	
	0.54108175	-14.300656	0.46921146	-165.72466	0.4857375	14.98389	0.47201939	15.22586	
	0.46940633	-165.76816	0.54258557	-14.392681	0.47201939	15.22586	0.48447938	15.061666	
	
0.131528593274019	0.48656528	14.693957	0.47201479	14.941357	0.53976638	-14.084845	0.47028109	-166.05654	
	0.47201479	14.941357	0.48549043	14.696946	0.47005753	-166.10548	0.54062079	-14.244246	
	0.53976638	-14.084845	0.47005753	-166.10548	0.48602655	14.707301	0.4726295	14.819636	
	0.47028109	-166.05654	0.54062079	-14.244246	0.4726295	14.819636	0.4851071	14.748553	
	
0.134566985354323	0.48710089	14.30772	0.47244404	14.545976	0.5377425	-13.916167	0.47099457	-166.48077	
	0.47244404	14.545976	0.48692119	14.359275	0.47062222	-166.45727	0.53908565	-14.03287	
	0.5377425	-13.916167	0.47062222	-166.45727	0.48765521	14.426143	0.47334892	14.492388	
	0.47099457	-166.48077	0.53908565	-14.03287	0.47334892	14.492388	0.48598042	14.507509	
	
0.13767556617613	0.48852508	14.042273	0.47312161	14.341209	0.53624349	-13.771879	0.47128342	-166.85903	
	0.47312161	14.341209	0.48760147	14.044639	0.47155326	-166.80401	0.53703094	-13.777972	
	0.53624349	-13.771879	0.47155326	-166.80401	0.48749101	14.011956	0.47438157	14.151191	
	0.47128342	-166.85903	0.53703094	-13.777972	0.47438157	14.151191	0.48662447	14.213625	
	
0.140855957142902	0.4881569	13.772066	0.47380362	14.034151	0.53504398	-13.544525	0.47161089	-167.2051	
	0.47380362	14.034151	0.48882872	13.677603	0.47134313	-167.19257	0.53517662	-13.654876	
	0.53504398	-13.544525	0.47134313	-167.19257	0.48834882	13.7667	0.4743868	13.865553	
	0.47161089	-167.2051	0.53517662	-13.654876	0.4743868	13.865553	0.48752858	13.812463	
	
0.144109817113524	0.48947776	13.497663	0.4745962	13.730791	0.53253563	-13.363169	0.47274483	-167.49869	
	0.4745962	13.730791	0.4888392	13.501878	0.4724641	-167.46774	0.5333841	-13.463319	
	0.53253563	-13.363169	0.4724641	-167.46774	0.48851956	13.501	0.47528026	13.554306	
	0.47274483	-167.49869	0.5333841	-13.463319	0.47528026	13.554306	0.4884037	13.513614	
	
0.147438843267552	0.4899546	13.23361	0.47529077	13.352683	0.53073521	-13.219267	0.47324255	-167.80928	
	0.47529077	13.352683	0.48937038	13.205174	0.47318766	-167.81009	0.53159714	-13.324051	
	0.53073521	-13.219267	0.47318766	-167.81009	0.48982265	13.232824	0.47571242	13.255602	
	0.47324255	-167.80928	0.53159714	-13.324051	0.47571242	13.255602	0.48944525	13.27898	
	
0.150844771990442	0.4913893	12.876503	0.47599624	13.06743	0.52965769	-13.005152	0.47414295	-168.11577	
	0.47599624	13.06743	0.49082979	12.907062	0.47330683	-168.13407	0.53020022	-13.070361	
	0.52965769	-13.005152	0.47330683	-168.13407	0.48987736	12.9199	0.47622745	12.969062	
	0.47414295	-168.11577	0.53020022	-13.070361	0.47622745	12.969062	0.4897723	12.950307	
	
0.154329379779229	0.49182516	12.629583	0.47627989	12.806277	0.52807439	-12.807475	0.47455887	-168.47515	
	0.47627989	12.806277	0.49071663	12.636909	0.47445651	-168.4897	0.52902848	-12.931435	
	0.52807439	-12.807475	0.47445651	-168.4897	0.49032148	12.694942	0.47716976	12.675147	
	0.47455887	-168.47515	0.52902848	-12.931435	0.47716976	12.675147	0.49028114	12.764576	
	
0.157894484169135	0.49206893	12.357166	0.47728517	12.50216	0.52665222	-12.629629	0.47527387	-168.78642	
	0.47728517	12.50216	0.49124199	12.447718	0.47536704	-168.76166	0.52761399	-12.763896	
	0.52665222	-12.629629	0.47536704	-168.76166	0.49111813	12.422749	0.47749519	12.357075	
	0.47527387	-168.78642	0.52761399	-12.763896	0.47749519	12.357075	0.49059379	12.464243	
	
0.16154194468157	0.49155998	12.07538	0.47788473	12.263014	0.52414668	-12.465776	0.47511028	-169.08229	
	0.47788473	12.263014	0.49251797	12.172556	0.47527014	-169.03565	0.52617275	-12.683701	
	0.52414668	-12.465776	0.47527014	-169.03565	0.49113192	12.099032	0.47780473	12.209157	
	0.47511028	-169.08229	0.52617275	-12.683701	0.47780473	12.209157	0.49159825	12.06564	
	
0.165273663794043	0.49286409	11.904811	0.47842109	11.987793	0.52390989	-12.348775	0.47624846	-169.40681	
	0.47842109	11.987793	0.49243877	11.809428	0.47562606	-169.39391	0.52460068	-12.464872	
	0.52390989	-12.348775	0.47562606	-169.39391	0.49229744	11.889279	0.47868928	11.833366	
	0.47624846	-169.40681	0.52460068	-12.464872	0.47868928	11.833366	0.49216147	11.958052	
	
0.169091587932473	0.49392143	11.629474	0.47873286	11.690238	0.52256772	-12.156126	0.47643056	-169.68538	
	0.47873286	11.690238	0.49331047	11.63911	0.47651653	-169.71178	0.52298275	-12.2716	
	0.52256772	-12.156126	0.47651653	-169.71178	0.49315113	11.628632	0.47881579	11.576848	
	0.47643056	-169.68538	0.52298275	-12.2716	0.47881579	11.576848	0.49292991	11.725311	
	
0.172997708486424	0.49379928	11.339944	0.47913427	11.418535	0.52162938	-11.975083	0.47708358	-169.98719	
	0.47913427	11.418535	0.49349679	11.354759	0.47682658	-169.90794	0.52172565	-12.150104	
	0.52162938	-11.975083	0.47682658	-169.90794	0.49369756	11.442452	0.4795726	11.303311	
	0.47708358	-169.98719	0.52172565	-12.150104	0.4795726	11.303311	0.49305791	11.433468	
	
0.176994062847797	0.49436988	11.095412	0.47976111	11.094077	0.51990521	-11.802946	0.47771454	-170.29289	
	0.47976111	11.094077	0.49388867	11.145099	0.47741401	-170.25407	0.52084493	-11.90875	
	0.51990521	-11.802946	0.47741401	-170.25407	0.49446277	11.153531	0.4801765	11.081983	
	0.47771454	-170.29289	0.52084493	-11.90875	0.4801765	11.081983	0.49313366	11.250113	
	
0.181082735473506	0.49528986	10.888502	0.47969784	10.908316	0.51896271	-11.645523	0.47798956	-170.56478	
	0.47969784	10.908316	0.49498133	10.896085	0.47780326	-170.53609	0.51969101	-11.851566	
	0.51896271	-11.645523	0.47780326	-170.53609	0.4933992	10.895466	0.48047727	10.783818	
	0.47798956	-170.56478	0.51969101	-11.851566	0.48047727	10.783818	0.49354842	10.988792	
	
0.185265858972714	0.49515897	10.687811	0.48042123	10.659123	0.51776423	-11.531599	0.47851531	-170.81321	
	0.48042123	10.659123	0.49462597	10.71191	0.47857714	-170.78385	0.51821483	-11.637003	
	0.51776423	-11.531599	0.47857714	-170.78385	0.49436088	10.643854	0.48053179	10.569784	
	0.47851531	-170.81321	0.51821483	-11.637003	0.48053179	10.569784	0.49455387	10.775173	
	
0.18954561521918	0.49553628	10.404698	0.48132416	10.482929	0.51638115	-11.360986	0.47936408	-171.08585	
	0.48132416	10.482929	0.49606968	10.387815	0.478537	-171.1417	0.51672288	-11.456211	
	0.51638115	-11.360986	0.478537	-171.1417	0.49471945	10.421319	0.48161045	10.377359	
	0.47936408	-171.08585	0.51672288	-11.456211	0.48161045	10.377359	0.49474457	10.523156	
	
0.193924236489297	0.49667671	10.163541	0.48077726	10.212907	0.5154443	-11.208886	0.47898012	-171.37587	
	0.48077726	10.212907	0.49591682	10.163056	0.47926936	-171.32574	0.51643302	-11.343747	
	0.5154443	-11.208886	0.47926936	-171.32574	0.49516524	10.205811	0.48159747	10.08163	
	0.47898012	-171.37587	0.51643302	-11.343747	0.48159747	10.08163	0.49538847	10.292897	
	
0.19840400662643	0.49680235	9.9960773	0.48163186	9.9748187	0.51468107	-11.048654	0.47968085	-171.65756	
	0.48163186	9.9748187	0.49615089	9.9641193	0.47928251	-171.62936	0.51516031	-11.166687	
	0.51468107	-11.048654	0.47928251	-171.62936	0.49530166	10.017594	0.48271079	9.8671153	
	0.47968085	-171.65756	0.51516031	-11.166687	0.48271079	9.8671153	0.49496857	10.000187	
	
0.202987262232139	0.4971064	9.7687093	0.48163021	9.6999847	0.51398626	-10.916809	0.4800012	-171.94401	
	0.48163021	9.6999847	0.49685551	9.8004214	0.47947361	-171.92806	0.51387847	-11.048277	
	0.51398626	-10.916809	0.47947361	-171.92806	0.49603564	9.7446773	0.48223477	9.6278704	
	0.4800012	-171.94401	0.51387847	-11.048277	0.48223477	9.6278704	0.49626125	9.863571	
	
0.207676393884933	0.49669445	9.5336122	0.48225006	9.4793337	0.51310649	-10.818949	0.48007495	-172.17644	
	0.48225006	9.4793337	0.49711091	9.5524635	0.48012738	-172.16411	0.51294518	-10.907024	
	0.51310649	-10.818949	0.48012738	-172.16411	0.49634643	9.6079379	0.4828677	9.3189951	
	0.48007495	-172.17644	0.51294518	-10.907024	0.4828677	9.3189951	0.49673233	9.7380966	
	
0.212473847387164	0.49785548	9.342665	0.48223301	9.2689459	0.5120109	-10.627495	0.48012668	-172.4544	
	0.48223301	9.2689459	0.49727359	9.3435749	0.47977018	-172.40145	0.51269202	-10.752389	
	0.5120109	-10.627495	0.47977018	-172.40145	0.49714629	9.4178846	0.48291908	9.2174756	
	0.48012668	-172.4544	0.51269202	-10.752389	0.48291908	9.2174756	0.4964963	9.5220904	
	
0.217382125040737	0.49802594	9.197903	0.48271808	9.0536223	0.51120737	-10.538852	0.48098716	-172.71612	
	0.48271808	9.0536223	0.49808961	9.1687655	0.48041803	-172.67966	0.51192774	-10.636396	
	0.51120737	-10.538852	0.48041803	-172.67966	0.49708434	9.2036867	0.48360776	8.9502446	
	0.48098716	-172.71612	0.51192774	-10.636396	0.48360776	8.9502446	0.49704939	9.144939	
	
0.222403786952283	0.49844095	8.9219981	0.48297896	8.8068671	0.51055821	-10.418572	0.48096169	-172.91662	
	0.48297896	8.8068671	0.49820384	8.8809222	0.48053637	-172.92126	0.51102304	-10.486004	
	0.51055821	-10.418572	0.48053637	-172.92126	0.49717003	9.0094715	0.48347833	8.6909748	
	0.48096169	-172.91662	0.51102304	-10.486004	0.48347833	8.6909748	0.4975073	9.094932	
	
0.227541452368483	0.49882207	8.7322982	0.48338928	8.6106621	0.50950328	-10.216829	0.48140107	-173.19213	
	0.48338928	8.6106621	0.49926127	8.8050104	0.4807978	-173.11021	0.50970228	-10.408654	
	0.50950328	-10.216829	0.4807978	-173.11021	0.49767643	8.6825498	0.48378363	8.5885616	
	0.48140107	-173.19213	0.50970228	-10.408654	0.48378363	8.5885616	0.49810114	8.8795421	
	
0.232797801042241	0.49862798	8.6176646	0.48377448	8.4253785	0.50872898	-10.114485	0.48129596	-173.42557	
	0.48377448	8.4253785	0.49882229	8.5802562	0.48184593	-173.39482	0.50928553	-10.244544	
	0.50872898	-10.114485	0.48184593	-173.39482	0.49812859	8.5687343	0.48404408	8.2813342	
	0.48129596	-173.42557	0.50928553	-10.244544	0.48404408	8.2813342	0.49820327	8.7243299	
	
0.238175574630416	0.49928398	8.416592	0.48379382	8.2727886	0.50799945	-9.9990208	0.48186589	-173.62211	
	0.48379382	8.2727886	0.49869125	8.3437856	0.48137882	-173.65153	0.50852041	-10.120616	
	0.50799945	-9.9990208	0.48137882	-173.65153	0.49848239	8.4357569	0.48443218	8.1288819	
	0.48186589	-173.62211	0.50852041	-10.120616	0.48443218	8.1288819	0.49875672	8.499187	
	
0.24367757812384	0.49939908	8.2604676	0.48433497	8.0273182	0.50719955	-9.9381083	0.48191782	-173.86503	
	0.48433497	8.0273182	0.49889015	8.121865	0.48170269	-173.85417	0.50746394	-10.028538	
	0.50719955	-9.9381083	0.48170269	-173.85417	0.49825452	8.3103413	0.48403558	7.9089496	
	0.48191782	-173.86503	0.50746394	-10.028538	0.48403558	7.9089496	0.49860047	8.2995754	
	
0.249306681310373	0.49970577	8.0161112	0.48417072	7.8639057	0.5061526	-9.8260779	0.48206623	-174.15475	
	0.48417072	7.8639057	0.50005657	8.023069	0.48188122	-174.14849	0.50684421	-9.9366256	
	0.5061526	-9.8260779	0.48188122	-174.14849	0.49949433	8.0824216	0.48504472	7.7280825	
	0.48206623	-174.15475	0.50684421	-9.9366256	0.48504472	7.7280825	0.49903948	8.1227441	
	
0.255065820271756	0.49970391	7.8755726	0.48433655	7.6631922	0.50593891	-9.7067952	0.48295838	-174.32436	
	0.48433655	7.6631922	0.50022247	7.8555051	0.48191829	-174.33289	0.50634075	-9.7943352	
	0.50593891	-9.7067952	0.48191829	-174.33289	0.49884617	7.9158134	0.48558352	7.5261285	
	0.48295838	-174.32436	0.50634075	-9.7943352	0.48558352	7.5261285	0.49903449	7.9966931	
	
0.260957998915036	0.50058349	7.6939381	0.48461711	7.5322787	0.50512539	-9.5922383	0.48242251	-174.56214	
	0.48461711	7.5322787	0.50058333	7.7035067	0.48238254	-174.5871	0.50570909	-9.7133796	
	0.50512539	-9.5922383	0.48238254	-174.5871	0.49952275	7.6890129	0.48543247	7.3809446	
	0.48242251	-174.56214	0.50570909	-9.7133796	0.48543247	7.3809446	0.49896647	7.8404278	
	
0.266986290539378	0.50075055	7.5606485	0.48453949	7.2681359	0.5051618	-9.4781496	0.48256146	-174.80491	
	0.48453949	7.2681359	0.49987771	7.5915139	0.48287534	-174.87418	0.50524866	-9.6096683	
	0.5051618	-9.4781496	0.48287534	-174.87418	0.49976858	7.5391118	0.4856957	7.1953084	
	0.48256146	-174.80491	0.50524866	-9.6096683	0.4856957	7.1953084	0.49983624	7.7707667	
	
0.273153839439064	0.50096018	7.4056988	0.48496663	7.0842606	0.50422443	-9.4025047	0.48311517	-175.03362	
	0.48496663	7.0842606	0.49997126	7.3911758	0.48321345	-175.0326	0.50462789	-9.5091014	
	0.50422443	-9.4025047	0.48321345	-175.0326	0.49971425	7.3224048	0.48537314	7.0114695	
	0.48311517	-175.03362	0.50462789	-9.5091014	0.48537314	7.0114695	0.50026525	7.5402283	
	
0.279463862543524	0.50083152	7.2317991	0.48508662	6.9457005	0.50382726	-9.2944893	0.48323258	-175.19849	
	0.48508662	6.9457005	0.50179482	7.193806	0.48312606	-175.28753	0.50334322	-9.4229417	
	0.50382726	-9.2944893	0.48312606	-175.28753	0.50019773	7.252711	0.48561681	6.8448732	
	0.48323258	-175.19849	0.50334322	-9.4229417	0.48561681	6.8448732	0.50055647	7.3637576	
	
0.285919651095252	0.5011038	7.1385087	0.48557815	6.730926	0.50304166	-9.1717385	0.48297787	-175.49243	
	0.48557815	6.730926	0.50063151	7.1153903	0.48304502	-175.49297	0.50348806	-9.3389786	
	0.50304166	-9.1717385	0.48304502	-175.49297	0.50034569	7.1478255	0.48565355	6.6362912	
	0.48297787	-175.49243	0.50348806	-9.3389786	0.48565355	6.6362912	0.50047853	7.2059473	
	
0.292524572366485	0.50173441	6.9603275	0.48581085	6.6339304	0.50213197	-9.1069745	0.48304858	-175.70635	
	0.48581085	6.6339304	0.50114598	7.0443307	0.48349954	-175.80704	0.50281395	-9.1957801	
	0.50213197	-9.1069745	0.48349954	-175.80704	0.5010702	7.0225817	0.48633627	6.4262239	
	0.48304858	-175.70635	0.50281395	-9.1957801	0.48633627	6.4262239	0.50099149	7.1774895	
	
0.299282071415539	0.50134552	6.813466	0.4853418	6.4200663	0.50232929	-9.0423761	0.48365073	-175.96574	
	0.4853418	6.4200663	0.50114906	6.8861236	0.48316728	-175.92863	0.50266578	-9.1724801	
	0.50232929	-9.0423761	0.48316728	-175.92863	0.50080153	6.9424711	0.48598913	6.2206008	
	0.48365073	-175.96574	0.50266578	-9.1724801	0.48598913	6.2206008	0.50025846	7.0178189	
	
0.30619567288371	0.50191846	6.6858001	0.48556136	6.2578929	0.50152589	-8.9632348	0.48311375	-176.11165	
	0.48556136	6.2578929	0.50188405	6.721739	0.48303239	-176.09525	0.50220897	-9.0512716	
	0.50152589	-8.9632348	0.48303239	-176.09525	0.50042226	6.7219436	0.48635493	6.1151281	
	0.48311375	-176.11165	0.50220897	-9.0512716	0.48635493	6.1151281	0.50054118	6.8067619	
	
0.313268982833699	0.50224534	6.4945419	0.48573934	6.124834	0.50097003	-8.8794278	0.48385018	-176.30965	
	0.48573934	6.124834	0.50121539	6.4786844	0.48402339	-176.34617	0.50187998	-9.0074033	
	0.50097003	-8.8794278	0.48402339	-176.34617	0.50119544	6.549363	0.48664331	5.9854055	
	0.48385018	-176.30965	0.50187998	-9.0074033	0.48664331	5.9854055	0.50085647	6.7277238	
	
0.320505690630487	0.50158351	6.3036755	0.48618156	5.9939624	0.50102648	-8.6944155	0.48460397	-176.47413	
	0.48618156	5.9939624	0.50182141	6.3039357	0.48383614	-176.56109	0.50106203	-8.9316108	
	0.50102648	-8.6944155	0.48383614	-176.56109	0.50155054	6.3233796	0.48704798	5.8745129	
	0.48460397	-176.47413	0.50106203	-8.9316108	0.48704798	5.8745129	0.5015186	6.4398709	
	
0.327909570865677	0.50223641	6.1782345	0.48628993	5.8337087	0.50016902	-8.6292591	0.48514402	-176.71146	
	0.48628993	5.8337087	0.50228923	6.043098	0.48408632	-176.67109	0.50041679	-8.8547272	
	0.50016902	-8.6292591	0.48408632	-176.67109	0.50061377	6.2530129	0.48707562	5.7288394	
	0.48514402	-176.71146	0.50041679	-8.8547272	0.48707562	5.7288394	0.50054835	6.3532257	
	
0.335484485326279	0.50183667	5.9790031	0.48665075	5.7504329	0.4996804	-8.6472492	0.48414914	-176.91412	
	0.48665075	5.7504329	0.50244979	6.053712	0.48436471	-176.84269	0.50026104	-8.7222971	
