# MHz S MA R 50

0.1	0.52747173	7.7364819	0.46168391	3.4580462	0.47910005	-9.6920722	0.46196645	-177.65321	
	0.46168391	3.4580462	0.52575291	7.8916079	0.46178906	-177.71631	0.48095896	-9.7791609	
	0.47910005	-9.6920722	0.46178906	-177.71631	0.52490296	7.9072034	0.46316256	3.3287269	
	0.46196645	-177.65321	0.48095896	-9.7791609	0.46316256	3.3287269	0.52463878	8.01156	
	
0.102310062021247	0.52726123	7.7117652	0.46218954	3.2120626	0.47910089	-9.5440242	0.46204751	-177.89193	
	0.46218954	3.2120626	0.52543993	7.6794653	0.46162102	-177.89492	0.48048558	-9.7289459	
	0.47910089	-9.5440242	0.46162102	-177.89492	0.52634202	7.8171481	0.46305833	3.0739614	
	0.46204751	-177.89193	0.48048558	-9.7289459	0.46305833	3.0739614	0.52391501	7.9423109	
	
0.104673487907914	0.52733948	7.7180081	0.46218439	2.9927076	0.47871629	-9.5086179	0.46259351	-178.14464	
	0.46218439	2.9927076	0.52615361	7.7306062	0.46192834	-178.09691	0.48048869	-9.6950758	
	0.47871629	-9.5086179	0.46192834	-178.09691	0.52628391	7.8139219	0.46334751	2.932092	
	0.46259351	-178.14464	0.48048869	-9.6950758	0.46334751	2.932092	0.52531838	7.9167676	
	
0.107091510398389	0.52795103	7.5630854	0.46205282	2.7898751	0.47847046	-9.5396277	0.46227763	-178.41101	
	0.46205282	2.7898751	0.52737686	7.6279803	0.4620045	-178.2998	0.47976774	-9.7130708	
	0.47847046	-9.5396277	0.4620045	-178.2998	0.52632724	7.7658411	0.46357387	2.6894442	
	0.46227763	-178.41101	0.47976774	-9.7130708	0.46357387	2.6894442	0.52519009	7.8799477	
	
0.109565390708082	0.52825846	7.5120642	0.46222809	2.6221484	0.47784003	-9.4707952	0.46179242	-178.60577	
	0.46222809	2.6221484	0.52614273	7.602083	0.46169933	-178.56591	0.47980329	-9.6374617	
	0.47784003	-9.4707952	0.46169933	-178.56591	0.52618687	7.7235338	0.46345024	2.5350457	
	0.46179242	-178.60577	0.47980329	-9.6374617	0.46345024	2.5350457	0.52505594	7.7431449	
	
0.112096419187261	0.52832594	7.5254294	0.46188842	2.4270568	0.47749901	-9.4516969	0.46211812	-178.83069	
	0.46188842	2.4270568	0.52736852	7.4975836	0.46216676	-178.79417	0.47888125	-9.6617813	
	0.47749901	-9.4516969	0.46216676	-178.79417	0.52741746	7.6284954	0.46341738	2.3796354	
	0.46211812	-178.83069	0.47888125	-9.6617813	0.46341738	2.3796354	0.52597985	7.7381234	
	
0.114685915994083	0.52838107	7.4812278	0.46213725	2.2711299	0.47705661	-9.438357	0.46260004	-179.03362	
	0.46213725	2.2711299	0.52766536	7.4982051	0.46221786	-179.00645	0.47922114	-9.5479991	
	0.47705661	-9.438357	0.46221786	-179.00645	0.52716011	7.6415844	0.46370356	2.1721944	
	0.46260004	-179.03362	0.47922114	-9.5479991	0.46370356	2.1721944	0.5253987	7.644981	
	
0.117335231783182	0.52881116	7.3452019	0.46175026	2.0078284	0.47714174	-9.4294728	0.46238258	-179.29199	
	0.46175026	2.0078284	0.52757754	7.4468201	0.46228529	-179.16958	0.47863935	-9.6023162	
	0.47714174	-9.4294728	0.46228529	-179.16958	0.52771217	7.5980539	0.46330039	1.9508432	
	0.46238258	-179.29199	0.47863935	-9.6023162	0.46330039	1.9508432	0.52588394	7.5972251	
	
0.120045748410147	0.52873949	7.4150489	0.46213357	1.9317016	0.47655643	-9.4299958	0.46238081	-179.51555	
	0.46213357	1.9317016	0.5279888	7.447456	0.46234576	-179.46777	0.47842394	-9.5479505	
	0.47655643	-9.4299958	0.46234576	-179.46777	0.52732809	7.5556325	0.46383617	1.7159528	
	0.46238081	-179.51555	0.47842394	-9.5479505	0.46383617	1.7159528	0.52629457	7.598035	
	
0.122818879652292	0.53021455	7.3122274	0.46189299	1.7158918	0.47602306	-9.3991985	0.46200122	-179.66435	
	0.46189299	1.7158918	0.52791011	7.3292923	0.46255599	-179.59752	0.47784569	-9.6155661	
	0.47602306	-9.3991985	0.46255599	-179.59752	0.52756813	7.4250252	0.46382171	1.5280728	
	0.46200122	-179.66435	0.47784569	-9.6155661	0.46382171	1.5280728	0.52669408	7.5790532	
	
0.125656071946061	0.52994446	7.2737779	0.46172273	1.4546319	0.47584216	-9.4348791	0.46246671	-179.92266	
	0.46172273	1.4546319	0.52874866	7.2723488	0.46274654	-179.80845	0.47753579	-9.5312997	
	0.47584216	-9.4348791	0.46274654	-179.80845	0.52793964	7.4342322	0.4639006	1.3707784	
	0.46246671	-179.92266	0.47753579	-9.5312997	0.4639006	1.3707784	0.52713954	7.5121417	
	
0.128558805141477	0.53016819	7.2292424	0.46207672	1.3149072	0.47584329	-9.4485836	0.46240937	179.8969	
	0.46207672	1.3149072	0.52906416	7.295769	0.46264612	179.96592	0.4769265	-9.6206625	
	0.47584329	-9.4485836	0.46264612	179.96592	0.52848483	7.3854838	0.46409508	1.1794001	
	0.46240937	179.8969	0.4769265	-9.6206625	0.46409508	1.1794001	0.52675242	7.4493306	
	
0.131528593274019	0.53097257	7.2508383	0.4621228	1.1077192	0.47511346	-9.418923	0.46292875	179.68577	
	0.4621228	1.1077192	0.52897245	7.3114662	0.46259172	179.75082	0.47660944	-9.6116059	
	0.47511346	-9.418923	0.46259172	179.75082	0.52839956	7.2629149	0.46388055	1.0311108	
	0.46292875	179.68577	0.47660944	-9.6116059	0.46388055	1.0311108	0.52677256	7.421663	
	
0.134566985354323	0.53077511	7.2142394	0.46202165	0.92909658	0.47486826	-9.4724294	0.46275972	179.45579	
	0.46202165	0.92909658	0.52983084	7.3494498	0.46226419	179.48551	0.47665773	-9.6230037	
	0.47486826	-9.4724294	0.46226419	179.48551	0.52923509	7.3426106	0.46376654	0.81480527	
	0.46275972	179.45579	0.47665773	-9.6230037	0.46376654	0.81480527	0.5277888	7.4465078	
	
0.13767556617613	0.5305851	7.2217927	0.46148559	0.75438658	0.47470586	-9.4817108	0.46240602	179.22325	
	0.46148559	0.75438658	0.53026367	7.2061083	0.46236391	179.2455	0.47620311	-9.6529011	
	0.47470586	-9.4817108	0.46236391	179.2455	0.52896986	7.2837425	0.46394242	0.64011465	
	0.46240602	179.22325	0.47620311	-9.6529011	0.46394242	0.64011465	0.52785669	7.4650292	
	
0.140855957142902	0.53082264	7.174339	0.4617853	0.56345583	0.47497867	-9.5284929	0.46273489	179.05173	
	0.4617853	0.56345583	0.52949395	7.2356998	0.46221361	179.09924	0.47644447	-9.6949306	
	0.47497867	-9.5284929	0.46221361	179.09924	0.52856788	7.23203	0.46326149	0.4695263	
	0.46273489	179.05173	0.47644447	-9.6949306	0.46326149	0.4695263	0.5278674	7.4258196	
	
0.144109817113524	0.53173476	7.1808295	0.46223256	0.36441954	0.47366147	-9.5100587	0.46274494	178.79175	
	0.46223256	0.36441954	0.53064992	7.1735988	0.46265676	178.78243	0.47564364	-9.7242255	
	0.47366147	-9.5100587	0.46265676	178.78243	0.52977511	7.3345001	0.46407283	0.23240534	
	0.46274494	178.79175	0.47564364	-9.7242255	0.46407283	0.23240534	0.5281965	7.3866595	
	
0.147438843267552	0.53160018	7.173515	0.46165721	0.23301931	0.47354624	-9.5886754	0.46278549	178.5416	
	0.46165721	0.23301931	0.53160218	7.220526	0.46275101	178.61869	0.47543564	-9.7481646	
	0.47354624	-9.5886754	0.46275101	178.61869	0.5301903	7.2869368	0.46389541	0.11411996	
	0.46278549	178.5416	0.47543564	-9.7481646	0.46389541	0.11411996	0.52868439	7.4170181	
	
0.150844771990442	0.53241197	7.1493951	0.46135611	0.022350736	0.47375418	-9.5850828	0.46262236	178.37602	
	0.46135611	0.022350736	0.53145449	7.2268969	0.46287637	178.38482	0.47495433	-9.7827478	
	0.47375418	-9.5850828	0.46287637	178.38482	0.53050619	7.3132923	0.46378039	-0.15863895	
	0.46262236	178.37602	0.47495433	-9.7827478	0.46378039	-0.15863895	0.52903785	7.3890113	
	
0.154329379779229	0.53246528	7.1759207	0.46172062	-0.14763348	0.47369043	-9.6265713	0.46261035	178.09482	
	0.46172062	-0.14763348	0.53120712	7.1048431	0.46253052	178.17264	0.47470738	-9.8007115	
	0.47369043	-9.6265713	0.46253052	178.17264	0.53052036	7.2783088	0.46387275	-0.33085907	
	0.46261035	178.09482	0.47470738	-9.8007115	0.46387275	-0.33085907	0.52960295	7.4323655	
	
0.157894484169135	0.53293612	7.1167139	0.46139837	-0.37647334	0.47352613	-9.6795085	0.4628118	177.91093	
	0.46139837	-0.37647334	0.53175913	7.2224354	0.46234319	177.93516	0.47483804	-9.828774	
	0.47352613	-9.6795085	0.46234319	177.93516	0.53036481	7.2606744	0.46371229	-0.56356411	
	0.4628118	177.91093	0.47483804	-9.828774	0.46371229	-0.56356411	0.52977226	7.4549797	
	
0.16154194468157	0.53338081	7.1389934	0.46105259	-0.5435557	0.47316577	-9.7186254	0.46233203	177.71234	
	0.46105259	-0.5435557	0.53225746	7.1663795	0.46239758	177.67837	0.47408768	-9.9439123	
	0.47316577	-9.7186254	0.46239758	177.67837	0.53035293	7.2783012	0.46391775	-0.6933793	
	0.46233203	177.71234	0.47408768	-9.9439123	0.46391775	-0.6933793	0.5302204	7.4548045	
	
0.165273663794043	0.53339279	7.1356402	0.46113304	-0.73471888	0.47253926	-9.77088	0.462284	177.45448	
	0.46113304	-0.73471888	0.53177716	7.2235148	0.46184856	177.50299	0.47428955	-9.9981493	
	0.47253926	-9.77088	0.46184856	177.50299	0.53098105	7.2532695	0.46400849	-0.95212739	
	0.462284	177.45448	0.47428955	-9.9981493	0.46400849	-0.95212739	0.5300609	7.3502166	
	
0.169091587932473	0.53371338	7.1020854	0.4611422	-1.0010535	0.47279506	-9.8820429	0.46234671	177.20255	
	0.4611422	-1.0010535	0.53318431	7.1540048	0.46182432	177.24441	0.47379048	-10.000928	
	0.47279506	-9.8820429	0.46182432	177.24441	0.53109595	7.3019973	0.46344202	-1.0601643	
	0.46234671	177.20255	0.47379048	-10.000928	0.46344202	-1.0601643	0.52996984	7.4085399	
	
0.172997708486424	0.53417281	7.1810006	0.46059418	-1.085054	0.47289355	-9.920276	0.46236702	177.01564	
	0.46059418	-1.085054	0.53280519	7.1217504	0.46223078	176.99433	0.47327033	-10.087125	
	0.47289355	-9.920276	0.46223078	176.99433	0.53151045	7.2975312	0.4633946	-1.2950059	
	0.46236702	177.01564	0.47327033	-10.087125	0.4633946	-1.2950059	0.53113169	7.4474801	
	
0.176994062847797	0.53447839	7.2139077	0.46056017	-1.3341339	0.47258275	-10.023959	0.46243096	176.7636	
	0.46056017	-1.3341339	0.5337227	7.2662005	0.46206646	176.778	0.47361937	-10.156293	
	0.47258275	-10.023959	0.46206646	176.778	0.53120762	7.3386258	0.46376422	-1.4595054	
	0.46243096	176.7636	0.47361937	-10.156293	0.46376422	-1.4595054	0.53106917	7.4154658	
	
0.181082735473506	0.53530609	7.2024654	0.46032559	-1.4654104	0.47164746	-10.097502	0.4621829	176.50731	
	0.46032559	-1.4654104	0.53444229	7.2003032	0.46212603	176.54922	0.47316513	-10.213692	
	0.47164746	-10.097502	0.46212603	176.54922	0.53154701	7.4213732	0.46373718	-1.622711	
	0.4621829	176.50731	0.47316513	-10.213692	0.46373718	-1.622711	0.53093788	7.4797583	
	
0.185265858972714	0.535268	7.2202029	0.46039032	-1.6508248	0.47200522	-10.15956	0.4625999	176.29429	
	0.46039032	-1.6508248	0.53446438	7.2971826	0.46237162	176.33319	0.47274063	-10.325323	
	0.47200522	-10.15956	0.46237162	176.33319	0.53212358	7.3240721	0.46336837	-1.8802393	
	0.4625999	176.29429	0.47274063	-10.325323	0.46336837	-1.8802393	0.53206661	7.5819146	
	
0.18954561521918	0.53592428	7.2850987	0.46025343	-1.8411465	0.47162414	-10.298069	0.46148694	176.063	
	0.46025343	-1.8411465	0.53485352	7.3048232	0.46207672	176.09618	0.47271556	-10.416853	
	0.47162414	-10.298069	0.46207672	176.09618	0.53278448	7.3791021	0.46347619	-1.9987083	
	0.46148694	176.063	0.47271556	-10.416853	0.46347619	-1.9987083	0.53054367	7.4902836	
	
0.193924236489297	0.53617014	7.2904031	0.46008425	-2.0500918	0.4713858	-10.358845	0.46161927	175.82566	
	0.46008425	-2.0500918	0.5356856	7.2301063	0.4619679	175.86693	0.47195323	-10.500303	
	0.4713858	-10.358845	0.4619679	175.86693	0.53240805	7.4312273	0.46333637	-2.2426989	
	0.46161927	175.82566	0.47195323	-10.500303	0.46333637	-2.2426989	0.53178505	7.5691348	
	
0.19840400662643	0.53621044	7.3197294	0.46010077	-2.2706024	0.47072168	-10.423268	0.4616213	175.5736	
	0.46010077	-2.2706024	0.53668206	7.2274491	0.46203844	175.6399	0.47171166	-10.626275	
	0.47072168	-10.423268	0.46203844	175.6399	0.53344301	7.5125649	0.46333089	-2.4437029	
	0.4616213	175.5736	0.47171166	-10.626275	0.46333089	-2.4437029	0.53249249	7.6796964	
	
0.202987262232139	0.53692942	7.3243232	0.45934787	-2.425463	0.47076833	-10.532831	0.46204979	175.35644	
	0.45934787	-2.425463	0.53617076	7.3813408	0.46110654	175.37405	0.47180835	-10.690859	
	0.47076833	-10.532831	0.46110654	175.37405	0.5335434	7.5040966	0.46345506	-2.6224031	
	0.46204979	175.35644	0.47180835	-10.690859	0.46345506	-2.6224031	0.53310556	7.6097145	
	
0.207676393884933	0.5382241	7.3860062	0.45937309	-2.662715	0.47060354	-10.645461	0.46159676	175.133	
	0.45937309	-2.662715	0.53676392	7.3889107	0.46178627	175.06563	0.47162897	-10.878687	
	0.47060354	-10.645461	0.46178627	175.06563	0.53378266	7.6402114	0.46350197	-2.8425366	
	0.46159676	175.133	0.47162897	-10.878687	0.46350197	-2.8425366	0.53317706	7.6626772	
	
0.212473847387164	0.53835465	7.3921166	0.45874105	-2.8508133	0.47034384	-10.768975	0.46104478	174.8798	
	0.45874105	-2.8508133	0.53747072	7.4785086	0.46145841	174.90817	0.47136826	-10.929545	
	0.47034384	-10.768975	0.46145841	174.90817	0.53496732	7.5914575	0.46275989	-3.0039599	
	0.46104478	174.8798	0.47136826	-10.929545	0.46275989	-3.0039599	0.53349366	7.7957694	
	
0.217382125040737	0.53882764	7.4050532	0.45860622	-3.0469633	0.46959733	-10.871943	0.46105826	174.59323	
	0.45860622	-3.0469633	0.53743924	7.4795217	0.46093442	174.60842	0.47121996	-11.062345	
	0.46959733	-10.871943	0.46093442	174.60842	0.53506579	7.6537482	0.46306563	-3.1682766	
	0.46105826	174.59323	0.47121996	-11.062345	0.46306563	-3.1682766	0.53391831	7.8559279	
	
0.222403786952283	0.53932269	7.5333065	0.45810559	-3.2222515	0.46945116	-11.005268	0.46139043	174.34473	
	0.45810559	-3.2222515	0.53859615	7.6020766	0.46120847	174.41492	0.47102387	-11.19135	
	0.46945116	-11.005268	0.46120847	174.41492	0.53521716	7.6755658	0.46271727	-3.4513141	
	0.46139043	174.34473	0.47102387	-11.19135	0.46271727	-3.4513141	0.53505162	7.802876	
	
0.227541452368483	0.53993162	7.6047373	0.45814595	-3.4433486	0.46941907	-11.138413	0.46097062	174.09735	
	0.45814595	-3.4433486	0.53940141	7.6165138	0.46115468	174.13439	0.47035758	-11.278611	
	0.46941907	-11.138413	0.46115468	174.13439	0.53612465	7.7783886	0.4624609	-3.6026491	
	0.46097062	174.09735	0.47035758	-11.278611	0.4624609	-3.6026491	0.53524492	7.8978101	
	
0.232797801042241	0.54059847	7.6174394	0.45760667	-3.6190301	0.46904998	-11.290669	0.46073107	173.85104	
	0.45760667	-3.6190301	0.53993357	7.6634972	0.46069492	173.83559	0.47057181	-11.44619	
	0.46904998	-11.290669	0.46069492	173.83559	0.53601786	7.8758195	0.46240846	-3.8362532	
	0.46073107	173.85104	0.47057181	-11.44619	0.46240846	-3.8362532	0.53536057	7.9529664	
	
0.238175574630416	0.54121848	7.6134276	0.45734924	-3.8521057	0.46858377	-11.417386	0.46073043	173.60292	
	0.45734924	-3.8521057	0.5407686	7.7217054	0.46096742	173.66804	0.46981939	-11.544616	
	0.46858377	-11.417386	0.46096742	173.66804	0.53742792	7.9368991	0.46196949	-4.0735475	
	0.46073043	173.60292	0.46981939	-11.544616	0.46196949	-4.0735475	0.5362092	8.031276	
	
0.24367757812384	0.5417879	7.7489484	0.45694528	-4.0379159	0.46844117	-11.533442	0.46096445	173.33893	
	0.45694528	-4.0379159	0.54123474	7.7105347	0.46036302	173.33674	0.46986253	-11.642183	
	0.46844117	-11.533442	0.46036302	173.33674	0.5371599	8.0257777	0.46178791	-4.2564862	
	0.46096445	173.33893	0.46986253	-11.642183	0.46178791	-4.2564862	0.53657249	8.0637476	
	
0.249306681310373	0.54274651	7.7790819	0.45635221	-4.2352447	0.46853892	-11.656268	0.46020671	173.09873	
	0.45635221	-4.2352447	0.54154876	7.8080925	0.46002689	173.02433	0.46923438	-11.88585	
	0.46853892	-11.656268	0.46002689	173.02433	0.53734255	8.0352243	0.46174456	-4.5060467	
	0.46020671	173.09873	0.46923438	-11.88585	0.46174456	-4.5060467	0.5372736	8.1034521	
	
0.255065820271756	0.54283115	7.8555214	0.45668236	-4.4103116	0.46807086	-11.914471	0.46010043	172.77053	
	0.45668236	-4.4103116	0.54230252	7.8484362	0.46038824	172.82865	0.46930936	-12.017528	
	0.46807086	-11.914471	0.46038824	172.82865	0.5382669	8.1283647	0.46142828	-4.6614831	
	0.46010043	172.77053	0.46930936	-12.017528	0.46142828	-4.6614831	0.53751287	8.2275335	
	
0.260957998915036	0.54352561	7.9018245	0.45637297	-4.6920096	0.46784901	-12.06372	0.46015895	172.53886	
	0.45637297	-4.6920096	0.54359208	7.9699973	0.45990154	172.497	0.4684643	-12.187979	
	0.46784901	-12.06372	0.45990154	172.497	0.53814845	8.1982289	0.46128554	-4.9234698	
	0.46015895	172.53886	0.4684643	-12.187979	0.46128554	-4.9234698	0.53788397	8.2576851	
	
0.266986290539378	0.54499633	7.9930159	0.45559916	-4.8825802	0.46737156	-12.212847	0.45993014	172.25303	
	0.45559916	-4.8825802	0.54408833	8.0823117	0.45990903	172.23392	0.46830514	-12.356158	
	0.46737156	-12.212847	0.45990903	172.23392	0.53946122	8.3361311	0.46089656	-5.0643292	
	0.45993014	172.25303	0.46830514	-12.356158	0.46089656	-5.0643292	0.53902031	8.4231292	
	
0.273153839439064	0.54527294	8.0794119	0.45493019	-5.0901797	0.46736872	-12.381215	0.4597452	171.9407	
	0.45493019	-5.0901797	0.54478211	8.1113905	0.45932877	171.95438	0.46810696	-12.554853	
	0.46736872	-12.381215	0.45932877	171.95438	0.54033124	8.3052572	0.4605322	-5.314372	
	0.4597452	171.9407	0.46810696	-12.554853	0.4605322	-5.314372	0.53879371	8.4245445	
	
0.279463862543524	0.54656052	8.1112503	0.454197	-5.2319257	0.46687687	-12.550351	0.45898344	171.69501	
	0.454197	-5.2319257	0.54567208	8.1163964	0.45963562	171.71819	0.46845386	-12.786532	
	0.46687687	-12.550351	0.45963562	171.71819	0.54009555	8.4645165	0.46065351	-5.5664119	
	0.45898344	171.69501	0.46845386	-12.786532	0.46065351	-5.5664119	0.53979011	8.6304812	
	
0.285919651095252	0.54704881	8.2394491	0.45397636	-5.5054555	0.46659188	-12.7792	0.45917511	171.36928	
	0.45397636	-5.5054555	0.54636471	8.2588769	0.4591218	171.36544	0.46781323	-12.917515	
	0.46659188	-12.7792	0.4591218	171.36544	0.54110485	8.5521377	0.45994995	-5.7643962	
	0.45917511	171.36928	0.46781323	-12.917515	0.45994995	-5.7643962	0.54103643	8.6620447	
	
0.292524572366485	0.54849785	8.3320787	0.45329938	-5.7185466	0.46546278	-12.93262	0.45894966	171.08245	
	0.45329938	-5.7185466	0.5471792	8.3064099	0.45868828	171.07501	0.46700201	-13.158024	
	0.46546278	-12.93262	0.45868828	171.07501	0.54172064	8.6394543	0.45982377	-6.0496127	
	0.45894966	171.08245	0.46700201	-13.158024	0.45982377	-6.0496127	0.54210368	8.829848	
	
0.299282071415539	0.54936873	8.3785682	0.45245381	-5.9506988	0.4659082	-13.173723	0.45850361	170.73129	
	0.45245381	-5.9506988	0.54811648	8.4641959	0.45869699	170.77207	0.4668744	-13.332571	
	0.4659082	-13.173723	0.45869699	170.77207	0.54293312	8.7695274	0.45966322	-6.3337793	
	0.45850361	170.73129	0.4668744	-13.332571	0.45966322	-6.3337793	0.54210493	8.9574781	
	
0.30619567288371	0.54939913	8.4878772	0.45227917	-6.177507	0.4654358	-13.361443	0.45822209	170.46781	
	0.45227917	-6.177507	0.54944064	8.5252823	0.45778434	170.47168	0.4663121	-13.49662	
	0.4654358	-13.361443	0.45778434	170.47168	0.54371549	8.8762407	0.45881081	-6.4929553	
	0.45822209	170.46781	0.4663121	-13.49662	0.45881081	-6.4929553	0.54247981	8.9826847	
	
0.313268982833699	0.55061526	8.518052	0.45180597	-6.373937	0.4652203	-13.54508	0.45825	170.19507	
	0.45180597	-6.373937	0.54988044	8.6385697	0.4584302	170.16567	0.46578038	-13.743146	
	0.4652203	-13.54508	0.4584302	170.16567	0.54377136	8.9591246	0.45915299	-6.718051	
	0.45825	170.19507	0.46578038	-13.743146	0.45915299	-6.718051	0.5434396	9.0237967	
	
0.320505690630487	0.55099364	8.6676562	0.45100602	-6.6188153	0.46543693	-13.732537	0.45789902	169.9163	
	0.45100602	-6.6188153	0.55033412	8.6154085	0.45803966	169.88551	0.46586224	-13.904114	
	0.46543693	-13.732537	0.45803966	169.88551	0.54452172	8.9944338	0.4591519	-7.0134929	
	0.45789902	169.9163	0.46586224	-13.904114	0.4591519	-7.0134929	0.54361484	9.0725299	
	
0.327909570865677	0.55232813	8.651441	0.45086359	-6.8240697	0.46483501	-14.029322	0.45784813	169.60074	
	0.45086359	-6.8240697	0.5508734	8.6924012	0.45806286	169.67131	0.46581322	-14.148734	
	0.46483501	-14.029322	0.45806286	169.67131	0.54480046	9.1220422	0.45912703	-7.1761921	
	0.45784813	169.60074	0.46581322	-14.148734	0.45912703	-7.1761921	0.54520501	9.1860528	
	
0.335484485326279	0.553454	8.7820655	0.45010199	-7.0797391	0.46446627	-14.211462	0.45743492	169.24984	
	0.45010199	-7.0797391	0.55316599	8.7901965	0.45741888	169.24102	0.46519608	-14.356964	
