# MHz S MA R 50

0.1	0.52588915	3.8873345	0.46451866	5.9668352	0.47241429	-5.9855595	0.46291371	-175.738	
	0.46451866	5.9668352	0.52599957	3.9926339	0.4631436	-175.77249	0.47264802	-6.1090399	
	0.47241429	-5.9855595	0.4631436	-175.77249	0.52489646	4.0325031	0.46438037	5.8572405	
	0.46291371	-175.738	0.47264802	-6.1090399	0.46438037	5.8572405	0.52526877	3.9392106	
	
0.102310062021247	0.52599238	3.8731555	0.46460235	5.8277526	0.47165079	-5.9281905	0.46326114	-175.9491	
	0.46460235	5.8277526	0.52578937	3.8373679	0.46281048	-175.94625	0.47228429	-6.0448087	
	0.47165079	-5.9281905	0.46281048	-175.94625	0.52486899	3.8397182	0.46437178	5.7861789	
	0.46326114	-175.9491	0.47228429	-6.0448087	0.46437178	5.7861789	0.52524992	3.9106797	
	
0.104673487907914	0.52552047	3.6802034	0.46441947	5.6883411	0.47168456	-5.8149688	0.46356655	-176.08013	
	0.46441947	5.6883411	0.52589975	3.672687	0.46286341	-176.03552	0.47239017	-5.9252542	
	0.47168456	-5.8149688	0.46286341	-176.03552	0.525444	3.746446	0.46447535	5.6426392	
	0.46356655	-176.08013	0.47239017	-5.9252542	0.46447535	5.6426392	0.52538728	3.8254362	
	
0.107091510398389	0.52603372	3.5813429	0.46468685	5.6174854	0.47155235	-5.763815	0.46307082	-176.18532	
	0.46468685	5.6174854	0.52601526	3.5711886	0.46306545	-176.20111	0.471769	-5.8755903	
	0.47155235	-5.763815	0.46306545	-176.20111	0.5254285	3.6314709	0.46458761	5.4912281	
	0.46307082	-176.18532	0.471769	-5.8755903	0.46458761	5.4912281	0.52581255	3.7234185	
	
0.109565390708082	0.52604053	3.5320611	0.46511219	5.5700374	0.47119249	-5.6982267	0.46382866	-176.37099	
	0.46511219	5.5700374	0.52642572	3.4332086	0.46307913	-176.34496	0.47164159	-5.7577472	
	0.47119249	-5.6982267	0.46307913	-176.34496	0.52532475	3.52517	0.46487881	5.4038401	
	0.46382866	-176.37099	0.47164159	-5.7577472	0.46487881	5.4038401	0.52569189	3.6464785	
	
0.112096419187261	0.52658831	3.4150233	0.4653899	5.4362993	0.47028416	-5.6339542	0.46416666	-176.48494	
	0.4653899	5.4362993	0.52605817	3.3147027	0.46368088	-176.42466	0.47107366	-5.7138131	
	0.47028416	-5.6339542	0.46368088	-176.42466	0.52490026	3.4593858	0.46511892	5.3537993	
	0.46416666	-176.48494	0.47107366	-5.7138131	0.46511892	5.3537993	0.52508686	3.3943896	
	
0.114685915994083	0.52589236	3.2691971	0.46486945	5.3894906	0.47056241	-5.4856339	0.46398335	-176.59939	
	0.46486945	5.3894906	0.52597797	3.2405529	0.46367763	-176.59166	0.47140328	-5.5865731	
	0.47056241	-5.4856339	0.46367763	-176.59166	0.5251093	3.3073085	0.46556468	5.2343255	
	0.46398335	-176.59939	0.47140328	-5.5865731	0.46556468	5.2343255	0.52559336	3.3602002	
	
0.117335231783182	0.52629687	3.1969521	0.4650661	5.2627824	0.47011891	-5.4848081	0.46373781	-176.68798	
	0.4650661	5.2627824	0.52665676	3.1608974	0.4639586	-176.78711	0.47063174	-5.5721198	
	0.47011891	-5.4848081	0.4639586	-176.78711	0.5253456	3.1627673	0.46544265	5.2157801	
	0.46373781	-176.68798	0.47063174	-5.5721198	0.46544265	5.2157801	0.5257528	3.2295239	
	
0.120045748410147	0.52629301	3.0953915	0.46492437	5.1587747	0.47020536	-5.4390642	0.46406395	-176.86734	
	0.46492437	5.1587747	0.52584217	3.020687	0.4636079	-176.88192	0.47094314	-5.4669279	
	0.47020536	-5.4390642	0.4636079	-176.88192	0.52587736	3.0802071	0.46492033	5.0838506	
	0.46406395	-176.86734	0.47094314	-5.4669279	0.46492033	5.0838506	0.52634802	3.1346474	
	
0.122818879652292	0.5262682	2.9608743	0.46522715	5.0681491	0.46998437	-5.2882899	0.46388671	-176.96323	
	0.46522715	5.0681491	0.52582351	2.9049546	0.46374189	-176.91315	0.4704183	-5.4536233	
	0.46998437	-5.2882899	0.46374189	-176.91315	0.52563792	2.9739934	0.46582098	4.9826082	
	0.46388671	-176.96323	0.4704183	-5.4536233	0.46582098	4.9826082	0.52632092	3.0378627	
	
0.125656071946061	0.52628662	2.8686277	0.46568305	5.0539492	0.47026487	-5.2298211	0.46408772	-177.14613	
	0.46568305	5.0539492	0.52593179	2.8495106	0.46370008	-177.08586	0.47025095	-5.3472618	
	0.47026487	-5.2298211	0.46370008	-177.08586	0.52594449	2.852637	0.4656336	4.9593218	
	0.46408772	-177.14613	0.47025095	-5.3472618	0.4656336	4.9593218	0.52621908	2.9324375	
	
0.128558805141477	0.52609035	2.8093294	0.46534344	4.9708386	0.46940602	-5.1361173	0.46443334	-177.20838	
	0.46534344	4.9708386	0.52682946	2.7445233	0.46377553	-177.22897	0.47029431	-5.2837685	
	0.46940602	-5.1361173	0.46377553	-177.22897	0.52627362	2.7139949	0.46566201	4.8832146	
	0.46443334	-177.20838	0.47029431	-5.2837685	0.46566201	4.8832146	0.52597246	2.7909247	
	
0.131528593274019	0.52698533	2.7148039	0.46565984	4.8957469	0.46943028	-5.138235	0.46436327	-177.2881	
	0.46565984	4.8957469	0.52675296	2.6865932	0.46407333	-177.3083	0.469903	-5.258103	
	0.46943028	-5.138235	0.46407333	-177.3083	0.52560057	2.7073801	0.46608296	4.7842404	
	0.46436327	-177.2881	0.469903	-5.258103	0.46608296	4.7842404	0.52592687	2.7679575	
	
0.134566985354323	0.52641287	2.5386456	0.46548296	4.7816252	0.46931028	-5.129589	0.46407271	-177.41526	
	0.46548296	4.7816252	0.52612607	2.5069212	0.46406409	-177.47014	0.46934572	-5.2153721	
	0.46931028	-5.129589	0.46406409	-177.47014	0.52674051	2.638221	0.46605141	4.6983398	
	0.46407271	-177.41526	0.46934572	-5.2153721	0.46605141	4.6983398	0.52597074	2.6620729	
	
0.13767556617613	0.52727824	2.5091565	0.46553247	4.7804144	0.46905686	-5.0643515	0.46376913	-177.57857	
	0.46553247	4.7804144	0.52693314	2.4642166	0.46422282	-177.55423	0.46951483	-5.1268628	
	0.46905686	-5.0643515	0.46422282	-177.55423	0.52605008	2.515704	0.46587412	4.6436224	
	0.46376913	-177.57857	0.46951483	-5.1268628	0.46587412	4.6436224	0.52565081	2.5651356	
	
0.140855957142902	0.52681455	2.3191229	0.46588635	4.688227	0.46933699	-5.0491756	0.4640295	-177.69859	
	0.46588635	4.688227	0.52709918	2.2935924	0.46316208	-177.7531	0.46903173	-5.0734435	
	0.46933699	-5.0491756	0.46316208	-177.7531	0.52556142	2.3859786	0.46594359	4.5533533	
	0.4640295	-177.69859	0.46903173	-5.0734435	0.46594359	4.5533533	0.52609322	2.5416369	
	
0.144109817113524	0.52701145	2.2926205	0.46577492	4.6724624	0.46889446	-4.9558575	0.46438442	-177.7897	
	0.46577492	4.6724624	0.52708188	2.2249311	0.46371114	-177.85494	0.46901471	-5.072776	
	0.46889446	-4.9558575	0.46371114	-177.85494	0.52549643	2.3261467	0.46571648	4.5049947	
	0.46438442	-177.7897	0.46901471	-5.072776	0.46571648	4.5049947	0.52628022	2.3708216	
	
0.147438843267552	0.52734574	2.2099985	0.46570795	4.5721514	0.46851937	-4.932729	0.46431553	-177.8932	
	0.46570795	4.5721514	0.5272592	2.2323857	0.46419591	-177.93065	0.46889702	-5.0050289	
	0.46851937	-4.932729	0.46419591	-177.93065	0.52613121	2.2262085	0.46618996	4.4656273	
	0.46431553	-177.8932	0.46889702	-5.0050289	0.46618996	4.4656273	0.52631026	2.3165922	
	
0.150844771990442	0.52749375	2.0743149	0.46575976	4.4947598	0.46871237	-4.8613475	0.46438322	-178.01183	
	0.46575976	4.4947598	0.52738791	2.0660581	0.46407224	-178.09551	0.46910694	-4.8951387	
	0.46871237	-4.8613475	0.46407224	-178.09551	0.52630884	2.1075286	0.46588425	4.4105961	
	0.46438322	-178.01183	0.46910694	-4.8951387	0.46588425	4.4105961	0.52610963	2.2496608	
	
0.154329379779229	0.52726215	2.0406249	0.46573656	4.4390436	0.46877987	-4.8021449	0.46428416	-178.15423	
	0.46573656	4.4390436	0.52660989	1.9689229	0.46417144	-178.23148	0.46909641	-4.9089993	
	0.46877987	-4.8021449	0.46417144	-178.23148	0.52631371	2.0631768	0.46650984	4.3520921	
	0.46428416	-178.15423	0.46909641	-4.9089993	0.46650984	4.3520921	0.52661369	2.1569417	
	
0.157894484169135	0.52746755	1.9532412	0.46594787	4.3768371	0.46880221	-4.7383999	0.46447146	-178.24999	
	0.46594787	4.3768371	0.52703225	1.9426766	0.46462712	-178.29462	0.46890901	-4.8608456	
	0.46880221	-4.7383999	0.46462712	-178.29462	0.52611231	1.9962575	0.4666144	4.2602565	
	0.46447146	-178.24999	0.46890901	-4.8608456	0.4666144	4.2602565	0.52635005	2.0508733	
	
0.16154194468157	0.52665746	1.8634848	0.46663261	4.3455288	0.46802709	-4.6915813	0.46400589	-178.36952	
	0.46663261	4.3455288	0.52698039	1.8258885	0.464163	-178.38254	0.46855939	-4.9172964	
	0.46802709	-4.6915813	0.464163	-178.38254	0.52677007	1.8142003	0.46666686	4.3679477	
	0.46400589	-178.36952	0.46855939	-4.9172964	0.46666686	4.3679477	0.52645483	1.9682925	
	
0.165273663794043	0.52670341	1.8122665	0.46636409	4.2797562	0.46794886	-4.7179962	0.46437951	-178.52197	
	0.46636409	4.2797562	0.52726624	1.6825293	0.46386357	-178.55564	0.46872927	-4.8297158	
	0.46794886	-4.7179962	0.46386357	-178.55564	0.52578432	1.7631731	0.46629445	4.1801561	
	0.46437951	-178.52197	0.46872927	-4.8297158	0.46629445	4.1801561	0.52646251	1.8870646	
	
0.169091587932473	0.52722718	1.7205577	0.46636145	4.2100996	0.46759256	-4.6558885	0.46421496	-178.58215	
	0.46636145	4.2100996	0.52733536	1.6461399	0.46401099	-178.67544	0.46810119	-4.8067337	
	0.46759256	-4.6558885	0.46401099	-178.67544	0.52650103	1.7360636	0.46580935	4.1310509	
	0.46421496	-178.58215	0.46810119	-4.8067337	0.46580935	4.1310509	0.52599722	1.7966627	
	
0.172997708486424	0.52728511	1.571778	0.46640595	4.20423	0.46832217	-4.6092504	0.46446084	-178.70427	
	0.46640595	4.20423	0.5268336	1.4934627	0.46396131	-178.72351	0.46788931	-4.7989157	
	0.46832217	-4.6092504	0.46396131	-178.72351	0.52700773	1.6351914	0.46662652	4.0838866	
	0.46446084	-178.70427	0.46788931	-4.7989157	0.46662652	4.0838866	0.52637362	1.7286831	
	
0.176994062847797	0.5271155	1.5098523	0.46647545	4.1167867	0.46796172	-4.5581713	0.46470386	-178.79945	
	0.46647545	4.1167867	0.52720578	1.4812807	0.46426297	-178.83295	0.46804808	-4.7214779	
	0.46796172	-4.5581713	0.46426297	-178.83295	0.52647913	1.5452989	0.46655583	4.0738095	
	0.46470386	-178.79945	0.46804808	-4.7214779	0.46655583	4.0738095	0.52592167	1.6427522	
	
0.181082735473506	0.52734488	1.464158	0.46625636	4.1311115	0.4680777	-4.5775211	0.46469992	-178.87681	
	0.46625636	4.1311115	0.52763803	1.4663169	0.46407508	-178.93593	0.46833223	-4.7056032	
	0.4680777	-4.5775211	0.46407508	-178.93593	0.52563432	1.4070754	0.46663225	3.9748705	
	0.46469992	-178.87681	0.46833223	-4.7056032	0.46663225	3.9748705	0.5264845	1.5425829	
	
0.185265858972714	0.52645102	1.380584	0.4664611	4.0649646	0.46757583	-4.578108	0.46463971	-179.00848	
	0.4664611	4.0649646	0.52690536	1.3569014	0.46440836	-179.01228	0.46774988	-4.6844948	
	0.46757583	-4.578108	0.46440836	-179.01228	0.52605052	1.3247767	0.46671485	3.9757061	
	0.46463971	-179.00848	0.46774988	-4.6844948	0.46671485	3.9757061	0.52644725	1.4800984	
	
0.18954561521918	0.52701397	1.2913345	0.46647041	4.1272254	0.46717494	-4.5405003	0.46434653	-179.09169	
	0.46647041	4.1272254	0.52763901	1.2058777	0.46366674	-179.16247	0.46683759	-4.6460358	
	0.46717494	-4.5405003	0.46366674	-179.16247	0.52580965	1.286336	0.46661853	4.016742	
	0.46434653	-179.09169	0.46683759	-4.6460358	0.46661853	4.016742	0.52575156	1.3869695	
	
0.193924236489297	0.5274146	1.1831733	0.46598902	3.9887383	0.4675987	-4.5235821	0.46451621	-179.20556	
	0.46598902	3.9887383	0.52763632	1.120287	0.46486033	-179.24312	0.4680432	-4.6126748	
	0.4675987	-4.5235821	0.46486033	-179.24312	0.52607917	1.185861	0.4666804	3.9103024	
	0.46451621	-179.20556	0.4680432	-4.6126748	0.4666804	3.9103024	0.52675047	1.2651139	
	
0.19840400662643	0.52689374	1.1065703	0.46657794	3.9346109	0.46739484	-4.4923037	0.46469048	-179.30354	
	0.46657794	3.9346109	0.52655176	1.0694467	0.46458924	-179.37818	0.46795895	-4.6236159	
	0.46739484	-4.4923037	0.46458924	-179.37818	0.52606637	1.0901444	0.46774112	3.8564121	
	0.46469048	-179.30354	0.46795895	-4.6236159	0.46774112	3.8564121	0.5263674	1.0984899	
	
0.202987262232139	0.52696964	1.0659271	0.46657683	3.8910183	0.46703078	-4.4770757	0.46463417	-179.47851	
	0.46657683	3.8910183	0.52743005	1.0581816	0.46411523	-179.49962	0.46689471	-4.5876343	
	0.46703078	-4.4770757	0.46411523	-179.49962	0.52634576	1.0093813	0.46668456	3.8455744	
	0.46463417	-179.47851	0.46689471	-4.5876343	0.46668456	3.8455744	0.52648902	1.1315197	
	
0.207676393884933	0.52698606	0.94238431	0.4668076	3.8898588	0.46720682	-4.507584	0.46448446	-179.56363	
	0.4668076	3.8898588	0.52743406	0.90913731	0.46434169	-179.58501	0.46690232	-4.5977533	
	0.46720682	-4.507584	0.46434169	-179.58501	0.52616571	0.92688363	0.46679658	3.8026674	
	0.46448446	-179.56363	0.46690232	-4.5977533	0.46679658	3.8026674	0.52574981	1.0961341	
	
0.212473847387164	0.5271819	0.92807235	0.46657296	3.8485294	0.46735469	-4.501961	0.46452734	-179.66983	
	0.46657296	3.8485294	0.52731378	0.77106839	0.46397311	-179.69064	0.46754778	-4.6018628	
	0.46735469	-4.501961	0.46397311	-179.69064	0.52626166	0.931157	0.46710293	3.8103347	
	0.46452734	-179.66983	0.46754778	-4.6018628	0.46710293	3.8103347	0.52656029	1.0219475	
	
0.217382125040737	0.52706695	0.83412107	0.46662745	3.843889	0.46756521	-4.5376947	0.4647379	-179.78752	
	0.46662745	3.843889	0.52770396	0.74964523	0.46433084	-179.84437	0.46720444	-4.598462	
	0.46756521	-4.5376947	0.46433084	-179.84437	0.5259763	0.87529552	0.46757905	3.7571421	
	0.4647379	-179.78752	0.46720444	-4.598462	0.46757905	3.7571421	0.52687675	0.91565689	
	
0.222403786952283	0.52739273	0.7395249	0.46678371	3.7537754	0.46734402	-4.5171259	0.46469127	-179.82764	
	0.46678371	3.7537754	0.52729805	0.64157873	0.46443814	-179.891	0.46729451	-4.5643039	
	0.46734402	-4.5171259	0.46443814	-179.891	0.52610422	0.77557825	0.46742236	3.6962578	
	0.46469127	-179.82764	0.46729451	-4.5643039	0.46742236	3.6962578	0.52647948	0.85409787	
	
0.227541452368483	0.52743028	0.64760415	0.46675457	3.8203678	0.46697066	-4.4500724	0.46438185	179.96928	
	0.46675457	3.8203678	0.52748242	0.6823631	0.46419616	-179.97695	0.4664332	-4.5643201	
	0.46697066	-4.4500724	0.46419616	-179.97695	0.52577714	0.61275844	0.46688922	3.7138012	
	0.46438185	179.96928	0.4664332	-4.5643201	0.46688922	3.7138012	0.52675494	0.7484092	
	
0.232797801042241	0.52687226	0.59431165	0.46730068	3.7926766	0.46685685	-4.4749584	0.46434498	179.89977	
	0.46730068	3.7926766	0.52729447	0.54105163	0.46429207	179.86932	0.46706576	-4.5688409	
	0.46685685	-4.4749584	0.46429207	179.86932	0.52581059	0.5439272	0.46718522	3.6644068	
	0.46434498	179.89977	0.46706576	-4.5688409	0.46718522	3.6644068	0.52687542	0.72544191	
	
0.238175574630416	0.52724751	0.52861982	0.46699595	3.7738265	0.46654107	-4.4577417	0.46466302	179.85906	
	0.46699595	3.7738265	0.52674305	0.45981374	0.4641602	179.77698	0.46691511	-4.629704	
	0.46654107	-4.4577417	0.4641602	179.77698	0.52623913	0.53563029	0.46727259	3.6493215	
	0.46466302	179.85906	0.46691511	-4.629704	0.46727259	3.6493215	0.52672575	0.62427071	
	
0.24367757812384	0.5272151	0.47996742	0.46715622	3.7161232	0.46698306	-4.5040029	0.46468099	179.76599	
	0.46715622	3.7161232	0.52711915	0.3031236	0.46396329	179.66867	0.46659398	-4.6340116	
	0.46698306	-4.5040029	0.46396329	179.66867	0.52614255	0.43232708	0.46667272	3.5807018	
	0.46468099	179.76599	0.46659398	-4.6340116	0.46667272	3.5807018	0.52620658	0.52748799	
	
0.249306681310373	0.52696505	0.34941213	0.46686685	3.7434062	0.46605195	-4.4728312	0.46412912	179.62138	
	0.46686685	3.7434062	0.52706639	0.27472364	0.46420003	179.4794	0.46591981	-4.6202638	
	0.46605195	-4.4728312	0.46420003	179.4794	0.52673496	0.33992623	0.4669495	3.5646463	
	0.46412912	179.62138	0.46591981	-4.6202638	0.4669495	3.5646463	0.52654531	0.52386803	
	
0.255065820271756	0.52709145	0.29338728	0.46706661	3.7236027	0.46614277	-4.537589	0.46451623	179.55252	
	0.46706661	3.7236027	0.5273883	0.24027477	0.46398239	179.46392	0.46635386	-4.5641788	
	0.46614277	-4.537589	0.46398239	179.46392	0.52559182	0.26775499	0.46761336	3.5699986	
	0.46451623	179.55252	0.46635386	-4.5641788	0.46761336	3.5699986	0.52604377	0.43684342	
	
0.260957998915036	0.52716458	0.20516361	0.46712254	3.7512193	0.46634022	-4.5244367	0.46443071	179.41899	
	0.46712254	3.7512193	0.52741259	0.15084812	0.46435652	179.29996	0.46660432	-4.6502082	
	0.46634022	-4.5244367	0.46435652	179.29996	0.52624368	0.17937344	0.46739525	3.5919207	
	0.46443071	179.41899	0.46660432	-4.6502082	0.46739525	3.5919207	0.52645511	0.30864302	
	
0.266986290539378	0.52694793	0.16571137	0.46707125	3.6531485	0.46671481	-4.5288758	0.46448146	179.2754	
	0.46707125	3.6531485	0.52710769	0.10845362	0.46474374	179.21146	0.46676659	-4.6643067	
	0.46671481	-4.5288758	0.46474374	179.21146	0.52650551	0.10399864	0.46734316	3.583266	
	0.46448146	179.2754	0.46676659	-4.6643067	0.46734316	3.583266	0.5272554	0.30128944	
	
0.273153839439064	0.52714551	0.082160899	0.46727292	3.6589046	0.4665732	-4.5285588	0.46485222	179.16834	
	0.46727292	3.6589046	0.52686508	-0.02897477	0.46459282	179.14498	0.46665635	-4.6431232	
	0.4665732	-4.5285588	0.46459282	179.14498	0.52602245	-0.051932226	0.46711703	3.608328	
	0.46485222	179.16834	0.46665635	-4.6431232	0.46711703	3.608328	0.52699436	0.20884603	
	
0.279463862543524	0.52718151	-0.035730397	0.46698557	3.6489224	0.46707823	-4.604075	0.46437305	179.13662	
	0.46698557	3.6489224	0.52765317	-0.16845433	0.46435563	178.94966	0.46619367	-4.7299537	
	0.46707823	-4.604075	0.46435563	178.94966	0.52694629	-0.10712148	0.46751649	3.5757798	
	0.46437305	179.13662	0.46619367	-4.7299537	0.46751649	3.5757798	0.52738575	0.084041745	
	
0.285919651095252	0.52728218	-0.078030953	0.46755127	3.6549859	0.46621446	-4.6136341	0.46450859	178.97241	
	0.46755127	3.6549859	0.52677389	-0.12404455	0.46422241	178.90578	0.46654867	-4.6978476	
	0.46621446	-4.6136341	0.46422241	178.90578	0.52591122	-0.062836493	0.4672749	3.4822359	
	0.46450859	178.97241	0.46654867	-4.6978476	0.4672749	3.4822359	0.5266281	0.056900073	
	
0.292524572366485	0.52713631	-0.088529332	0.46747144	3.7228985	0.46619795	-4.6149663	0.46426275	178.88242	
	0.46747144	3.7228985	0.52669654	-0.14862389	0.46467494	178.7067	0.46605777	-4.7448748	
	0.46619795	-4.6149663	0.46467494	178.7067	0.52638176	-0.12574586	0.46751589	3.4658914	
	0.46426275	178.88242	0.46605777	-4.7448748	0.46751589	3.4658914	0.52644763	0.0080958397	
	
0.299282071415539	0.52721094	-0.19814219	0.46731285	3.6738543	0.46646247	-4.6681648	0.46471835	178.75188	
	0.46731285	3.6738543	0.52729234	-0.22249852	0.46437231	178.70166	0.4667607	-4.8004327	
	0.46646247	-4.6681648	0.46437231	178.70166	0.52653973	-0.17645287	0.46754383	3.4446979	
	0.46471835	178.75188	0.4667607	-4.8004327	0.46754383	3.4446979	0.52631146	0.032688203	
	
0.30619567288371	0.52709913	-0.2218403	0.46751447	3.6765356	0.46592705	-4.6834117	0.46419804	178.65485	
	0.46751447	3.6765356	0.52751384	-0.25066034	0.46412586	178.61636	0.46640624	-4.7774196	
	0.46592705	-4.6834117	0.46412586	178.61636	0.5258362	-0.23883508	0.46754606	3.489149	
	0.46419804	178.65485	0.46640624	-4.7774196	0.46754606	3.489149	0.526185	-0.13425481	
	
0.313268982833699	0.52738366	-0.36448976	0.4674117	3.7488123	0.46598415	-4.6760914	0.4643401	178.54989	
	0.4674117	3.7488123	0.52672471	-0.48855194	0.46461046	178.43967	0.46650374	-4.810886	
	0.46598415	-4.6760914	0.46461046	178.43967	0.52594348	-0.40769793	0.46781538	3.5243819	
	0.4643401	178.54989	0.46650374	-4.810886	0.46781538	3.5243819	0.52598041	-0.12888706	
	
0.320505690630487	0.5264161	-0.46278355	0.46802979	3.7350798	0.46620328	-4.6792026	0.46464677	178.47325	
	0.46802979	3.7350798	0.52721345	-0.55501854	0.46416984	178.36121	0.46629401	-4.8141598	
	0.46620328	-4.6792026	0.46416984	178.36121	0.52666338	-0.53553311	0.46795167	3.5449001	
	0.46464677	178.47325	0.46629401	-4.8141598	0.46795167	3.5449001	0.52653391	-0.33624173	
	
0.327909570865677	0.52597537	-0.55852628	0.46808429	3.7460167	0.46591328	-4.7292723	0.46523647	178.37926	
	0.46808429	3.7460167	0.52656536	-0.73139746	0.46446664	178.32143	0.46577388	-4.9094631	
	0.46591328	-4.7292723	0.46446664	178.32143	0.52529527	-0.63563445	0.46827575	3.6418332	
	0.46523647	178.37926	0.46577388	-4.9094631	0.46827575	3.6418332	0.52480396	-0.46455888	
	
0.335484485326279	0.52661318	-0.69514668	0.46792516	3.7445655	0.46555584	-4.7347511	0.46444357	178.23839	
