# MHz S MA R 50

0.1	0.038690597	84.861005	0.040474987	84.355661	0.99173189	-2.3194183	0.038501365	-95.850496	
	0.040474987	84.355661	0.037250456	86.45117	0.038959479	-95.866137	0.99294214	-2.2853981	
	0.99173189	-2.3194183	0.038959479	-95.866137	0.041096525	85.832842	0.040732237	84.574618	
	0.038501365	-95.850496	0.99294214	-2.2853981	0.040732237	84.574618	0.037939579	85.987275	
	
0.102310062021247	0.040356423	85.080047	0.041433018	84.235125	0.99124357	-2.3674143	0.039674057	-95.872579	
	0.041433018	84.235125	0.038568381	85.383682	0.039783373	-96.064607	0.99205254	-2.35184	
	0.99124357	-2.3674143	0.039783373	-96.064607	0.041220221	86.576651	0.041344103	84.403336	
	0.039674057	-95.872579	0.99205254	-2.35184	0.041344103	84.403336	0.040338368	85.020933	
	
0.104673487907914	0.041700884	84.899948	0.042314066	84.314759	0.99121807	-2.4398574	0.040498249	-96.013741	
	0.042314066	84.314759	0.039315676	84.363458	0.04082901	-96.294238	0.99257382	-2.4334579	
	0.99121807	-2.4398574	0.04082901	-96.294238	0.042202323	86.079209	0.042372329	83.834374	
	0.040498249	-96.013741	0.99257382	-2.4334579	0.042372329	83.834374	0.040232449	87.519958	
	
0.107091510398389	0.042058272	84.530161	0.043423207	84.108342	0.99065846	-2.5077868	0.041625134	-96.193094	
	0.043423207	84.108342	0.039686155	84.022796	0.041523354	-96.168592	0.99153246	-2.485082	
	0.99065846	-2.5077868	0.041523354	-96.168592	0.043154698	86.123757	0.042958806	83.915867	
	0.041625134	-96.193094	0.99153246	-2.485082	0.042958806	83.915867	0.04172973	85.159139	
	
0.109565390708082	0.043817548	86.229091	0.044390809	84.057885	0.99109544	-2.5525835	0.042328655	-96.436172	
	0.044390809	84.057885	0.041165332	84.763974	0.042523402	-96.227135	0.99182913	-2.5304583	
	0.99109544	-2.5525835	0.042523402	-96.227135	0.043863104	85.911225	0.044251455	84.088386	
	0.042328655	-96.436172	0.99182913	-2.5304583	0.044251455	84.088386	0.043299177	85.741616	
	
0.112096419187261	0.044682105	86.241721	0.04528971	84.141329	0.99125416	-2.5966342	0.04356451	-96.279462	
	0.04528971	84.141329	0.0417718	85.210583	0.043764867	-96.078664	0.99210742	-2.6059729	
	0.99125416	-2.5966342	0.043764867	-96.078664	0.044062161	86.619318	0.045646575	83.888683	
	0.04356451	-96.279462	0.99210742	-2.6059729	0.045646575	83.888683	0.043444894	87.389189	
	
0.114685915994083	0.044767304	84.746664	0.046294137	84.015812	0.99063682	-2.6126206	0.044494106	-96.187465	
	0.046294137	84.015812	0.042534824	84.312145	0.044885945	-96.454407	0.99161298	-2.6619923	
	0.99063682	-2.6126206	0.044885945	-96.454407	0.045915353	87.33011	0.046373795	83.402241	
	0.044494106	-96.187465	0.99161298	-2.6619923	0.046373795	83.402241	0.045106935	86.040277	
	
0.117335231783182	0.04510582	83.816631	0.047242163	83.834957	0.99043076	-2.7476542	0.045303012	-96.509402	
	0.047242163	83.834957	0.044273114	84.168813	0.045576453	-96.536185	0.99172992	-2.7446157	
	0.99043076	-2.7476542	0.045576453	-96.536185	0.046439625	86.4653	0.047512887	83.781912	
	0.045303012	-96.509402	0.99172992	-2.7446157	0.047512887	83.781912	0.044844565	86.264984	
	
0.120045748410147	0.047334347	83.47623	0.048377038	83.746216	0.99101934	-2.7846513	0.046732643	-96.69434	
	0.048377038	83.746216	0.044788533	85.182127	0.046501302	-96.82112	0.99142856	-2.7330039	
	0.99101934	-2.7846513	0.046501302	-96.82112	0.047558281	85.139769	0.048021542	83.45329	
	0.046732643	-96.69434	0.99142856	-2.7330039	0.048021542	83.45329	0.04532704	84.845671	
	
0.122818879652292	0.047962649	84.118943	0.049355566	83.303979	0.99092164	-2.8097582	0.047640531	-96.70914	
	0.049355566	83.303979	0.046101247	85.024849	0.047806565	-96.529707	0.99148412	-2.8019028	
	0.99092164	-2.8097582	0.047806565	-96.529707	0.049205984	85.718677	0.049686714	83.49393	
	0.047640531	-96.70914	0.99148412	-2.8019028	0.049686714	83.49393	0.047378879	84.981385	
	
0.125656071946061	0.049340523	84.407178	0.05073994	83.246757	0.99001322	-2.9393094	0.048570281	-97.031038	
	0.05073994	83.246757	0.046578944	84.324403	0.04855608	-96.976757	0.99115529	-2.8938071	
	0.99001322	-2.9393094	0.04855608	-96.976757	0.049863894	84.886821	0.050729515	83.314768	
	0.048570281	-97.031038	0.99115529	-2.8938071	0.050729515	83.314768	0.048405346	85.173203	
	
0.128558805141477	0.050233659	84.163824	0.051877197	83.425209	0.98947183	-2.991337	0.049693509	-97.127234	
	0.051877197	83.425209	0.048404591	84.028796	0.049911366	-96.886221	0.99132129	-2.978629	
	0.98947183	-2.991337	0.049911366	-96.886221	0.049865317	85.283219	0.051773012	83.036818	
	0.049693509	-97.127234	0.99132129	-2.978629	0.051773012	83.036818	0.048572024	85.496025	
	
0.131528593274019	0.051502209	83.542385	0.053117865	83.140731	0.98971585	-3.0720094	0.051055144	-97.394138	
	0.053117865	83.140731	0.048635008	84.72862	0.050743648	-97.263472	0.99117197	-3.0239252	
	0.98971585	-3.0720094	0.050743648	-97.263472	0.052421332	84.206408	0.05303762	83.028871	
	0.051055144	-97.394138	0.99117197	-3.0239252	0.05303762	83.028871	0.049370941	86.271777	
	
0.134566985354323	0.05253098	82.960197	0.054145939	82.90313	0.9892805	-3.1219955	0.052179139	-97.112676	
	0.054145939	82.90313	0.049969567	83.853523	0.051817418	-97.370361	0.99102543	-3.124087	
	0.9892805	-3.1219955	0.051817418	-97.370361	0.053246706	83.77763	0.054248111	82.949518	
	0.052179139	-97.112676	0.99102543	-3.124087	0.054248111	82.949518	0.052404756	86.011329	
	
0.13767556617613	0.05376813	82.976022	0.055166986	82.984722	0.98928455	-3.2012956	0.0528671	-97.52088	
	0.055166986	82.984722	0.051416018	83.899591	0.053147923	-97.41668	0.99051078	-3.1421999	
	0.98928455	-3.2012956	0.053147923	-97.41668	0.053676187	84.379201	0.055356909	82.583258	
	0.0528671	-97.52088	0.99051078	-3.1421999	0.055356909	82.583258	0.053205489	85.161807	
	
0.140855957142902	0.053970841	82.945942	0.056733764	82.640665	0.98898025	-3.3067965	0.054787776	-97.845161	
	0.056733764	82.640665	0.053075772	81.574907	0.054352455	-97.620715	0.98917922	-3.2298913	
	0.98898025	-3.3067965	0.054352455	-97.620715	0.055960418	83.234115	0.056763908	82.60523	
	0.054787776	-97.845161	0.98917922	-3.2298913	0.056763908	82.60523	0.054961694	83.735132	
	
0.144109817113524	0.055970482	82.384747	0.057871512	82.633722	0.98782511	-3.3354602	0.055514676	-97.969345	
	0.057871512	82.633722	0.053441813	82.676507	0.055753158	-97.674034	0.98947629	-3.3022994	
	0.98782511	-3.3354602	0.055753158	-97.674034	0.057095167	83.666045	0.057860517	82.527436	
	0.055514676	-97.969345	0.98947629	-3.3022994	0.057860517	82.527436	0.056315948	84.008039	
	
0.147438843267552	0.057297257	82.368505	0.059113954	82.382278	0.98822145	-3.4182778	0.056772826	-97.862072	
	0.059113954	82.382278	0.05477913	82.625791	0.056803526	-98.133635	0.98928754	-3.4306876	
	0.98822145	-3.4182778	0.056803526	-98.133635	0.057738401	84.188788	0.059361386	82.203844	
	0.056772826	-97.862072	0.98928754	-3.4306876	0.059361386	82.203844	0.057423106	83.883853	
	
0.150844771990442	0.058518255	81.684271	0.060503898	82.106788	0.98788766	-3.4607086	0.057965725	-97.948222	
	0.060503898	82.106788	0.05684383	81.83845	0.058107624	-98.026951	0.98904448	-3.4452896	
	0.98788766	-3.4607086	0.058107624	-98.026951	0.059169777	82.444476	0.060790955	82.074169	
	0.057965725	-97.948222	0.98904448	-3.4452896	0.060790955	82.074169	0.057654187	83.78948	
	
0.154329379779229	0.059706884	82.162307	0.061835142	82.279664	0.98727182	-3.5542536	0.059250979	-98.407984	
	0.061835142	82.279664	0.058856213	82.241235	0.059496632	-98.438773	0.98896845	-3.5561638	
	0.98727182	-3.5542536	0.059496632	-98.438773	0.061012021	83.364293	0.062027425	82.151832	
	0.059250979	-98.407984	0.98896845	-3.5561638	0.062027425	82.151832	0.059494437	83.158154	
	
0.157894484169135	0.061125757	82.100816	0.062969656	82.010783	0.98778455	-3.6300905	0.060742902	-98.380537	
	0.062969656	82.010783	0.059132464	82.086593	0.060938586	-98.469776	0.9889372	-3.6461931	
	0.98778455	-3.6300905	0.060938586	-98.469776	0.062155551	83.867813	0.063646231	81.835097	
	0.060742902	-98.380537	0.9889372	-3.6461931	0.063646231	81.835097	0.060837237	83.963627	
	
0.16154194468157	0.063369471	82.315572	0.064653913	81.763195	0.98665178	-3.7134648	0.062035073	-98.944994	
	0.064653913	81.763195	0.060335122	82.805068	0.062183886	-98.37921	0.9890352	-3.7354252	
	0.98665178	-3.7134648	0.062183886	-98.37921	0.062579993	83.055514	0.064631956	81.791158	
	0.062035073	-98.944994	0.9890352	-3.7354252	0.064631956	81.791158	0.061093045	82.736583	
	
0.165273663794043	0.063893412	82.218641	0.066054601	81.751879	0.98610275	-3.8131155	0.063549828	-98.800401	
	0.066054601	81.751879	0.061967996	81.649898	0.063564534	-98.877331	0.98792539	-3.8164992	
	0.98610275	-3.8131155	0.063564534	-98.877331	0.064231508	82.733471	0.06587099	81.40301	
	0.063549828	-98.800401	0.98792539	-3.8164992	0.06587099	81.40301	0.06344291	82.186691	
	
0.169091587932473	0.065725651	82.129485	0.067753608	81.26026	0.9864664	-3.8860718	0.064987468	-98.602573	
	0.067753608	81.26026	0.063887638	82.295709	0.064795992	-99.041816	0.98778559	-3.9115086	
	0.9864664	-3.8860718	0.064795992	-99.041816	0.067037568	82.042814	0.067689969	81.399329	
	0.064987468	-98.602573	0.98778559	-3.9115086	0.067689969	81.399329	0.065626083	82.340772	
	
0.172997708486424	0.066823326	81.467022	0.069121018	81.006264	0.98691555	-3.9873371	0.066362069	-99.03751	
	0.069121018	81.006264	0.063629348	82.060698	0.066359947	-99.088994	0.98710708	-4.0069458	
	0.98691555	-3.9873371	0.066359947	-99.088994	0.068121533	81.576684	0.069070338	81.047147	
	0.066362069	-99.03751	0.98710708	-4.0069458	0.069070338	81.047147	0.066471382	82.605277	
	
0.176994062847797	0.0684301	82.080826	0.070371412	81.287773	0.98624076	-4.0540676	0.067952824	-99.309243	
	0.070371412	81.287773	0.066544875	81.50802	0.067837702	-99.363408	0.9870494	-4.0506176	
	0.98624076	-4.0540676	0.067837702	-99.363408	0.069861509	81.959367	0.070809993	81.057774	
	0.067952824	-99.309243	0.9870494	-4.0506176	0.070809993	81.057774	0.067134413	82.710058	
	
0.181082735473506	0.070127098	80.974952	0.071987992	81.021656	0.98578117	-4.1569801	0.069475752	-99.3079	
	0.071987992	81.021656	0.067777806	80.005624	0.069216683	-99.32824	0.98627557	-4.169083	
	0.98578117	-4.1569801	0.069216683	-99.32824	0.070096304	82.165697	0.072255678	80.814113	
	0.069475752	-99.3079	0.98627557	-4.169083	0.072255678	80.814113	0.069982287	81.989082	
	
0.185265858972714	0.071052153	81.398088	0.073600874	80.733762	0.98576279	-4.2522874	0.070757256	-99.786563	
	0.073600874	80.733762	0.070034679	81.143335	0.070938647	-99.466139	0.98663218	-4.255129	
	0.98576279	-4.2522874	0.070938647	-99.466139	0.071657653	82.204046	0.073767889	80.474112	
	0.070757256	-99.786563	0.98663218	-4.255129	0.073767889	80.474112	0.069864894	81.808031	
	
0.18954561521918	0.07270062	80.67611	0.075610932	80.661085	0.98514415	-4.3633714	0.072898215	-99.926779	
	0.075610932	80.661085	0.069951105	81.180775	0.072396023	-99.685391	0.98626307	-4.3120204	
	0.98514415	-4.3633714	0.072396023	-99.685391	0.073414671	81.917859	0.075363809	80.351705	
	0.072898215	-99.926779	0.98626307	-4.3120204	0.075363809	80.351705	0.071243394	82.447834	
	
0.193924236489297	0.074809544	80.339848	0.0772286	80.469283	0.98385334	-4.4756335	0.074072995	-99.969667	
	0.0772286	80.469283	0.072153663	80.029967	0.074161424	-99.830989	0.98557671	-4.3994376	
	0.98385334	-4.4756335	0.074161424	-99.830989	0.075636096	81.731373	0.077014548	80.487233	
	0.074072995	-99.969667	0.98557671	-4.3994376	0.077014548	80.487233	0.074224452	81.529012	
	
0.19840400662643	0.076022694	80.874564	0.078875862	80.186454	0.98472028	-4.5610975	0.075840431	-100.23034	
	0.078875862	80.186454	0.074582733	81.034143	0.075350707	-100.31003	0.98573227	-4.5385319	
	0.98472028	-4.5610975	0.075350707	-100.31003	0.077282414	80.865844	0.079178208	80.233366	
	0.075840431	-100.23034	0.98573227	-4.5385319	0.079178208	80.233366	0.075683405	81.277045	
	
0.202987262232139	0.078369329	80.393326	0.080204954	79.798274	0.98361194	-4.6469152	0.077466717	-100.43395	
	0.080204954	79.798274	0.07655207	79.818802	0.077217278	-100.37781	0.98472328	-4.6290326	
	0.98361194	-4.6469152	0.077217278	-100.37781	0.078405042	80.829276	0.080274786	79.985997	
	0.077466717	-100.43395	0.98472328	-4.6290326	0.080274786	79.985997	0.077885903	80.829934	
	
0.207676393884933	0.079315021	79.978738	0.082486254	79.759321	0.9830121	-4.7535421	0.079284165	-100.71111	
	0.082486254	79.759321	0.078389197	79.526125	0.079147575	-100.65625	0.98460387	-4.7333745	
	0.9830121	-4.7535421	0.079147575	-100.65625	0.080048683	81.117709	0.082337269	79.87356	
	0.079284165	-100.71111	0.98460387	-4.7333745	0.082337269	79.87356	0.080103062	81.295798	
	
0.212473847387164	0.081658835	79.38451	0.084200147	79.564936	0.98251289	-4.8805824	0.080867679	-100.86528	
	0.084200147	79.564936	0.078678244	79.534484	0.080698209	-100.53305	0.98366151	-4.8240953	
	0.98251289	-4.8805824	0.080698209	-100.53305	0.082643524	80.096042	0.0842861	79.492907	
	0.080867679	-100.86528	0.98366151	-4.8240953	0.0842861	79.492907	0.081072878	80.038069	
	
0.217382125040737	0.083177377	79.542786	0.085864524	79.395886	0.98198379	-5.0005537	0.08276465	-101.06124	
	0.085864524	79.395886	0.081624395	79.554079	0.082803535	-101.02992	0.98397794	-4.9425958	
	0.98198379	-5.0005537	0.082803535	-101.02992	0.08266267	80.585607	0.086345293	79.22868	
	0.08276465	-101.06124	0.98397794	-4.9425958	0.086345293	79.22868	0.082599318	80.420644	
	
0.222403786952283	0.085277098	79.064853	0.087907805	79.320964	0.98184338	-5.1160512	0.084582488	-101.23744	
	0.087907805	79.320964	0.083574571	79.368687	0.084517711	-101.26736	0.98321984	-5.0433362	
	0.98184338	-5.1160512	0.084517711	-101.26736	0.086379854	79.702984	0.088335296	78.826746	
	0.084582488	-101.23744	0.98321984	-5.0433362	0.088335296	78.826746	0.084661553	79.962387	
	
0.227541452368483	0.087543589	79.064543	0.089822113	79.036263	0.98213841	-5.1995546	0.086243943	-101.43265	
	0.089822113	79.036263	0.086356612	79.151192	0.086167976	-101.25158	0.98301234	-5.1879454	
	0.98213841	-5.1995546	0.086167976	-101.25158	0.087369846	79.334193	0.090082347	78.960431	
	0.086243943	-101.43265	0.98301234	-5.1879454	0.090082347	78.960431	0.085868919	80.458107	
	
0.232797801042241	0.088992663	78.701396	0.091816719	78.885655	0.98044318	-5.3066793	0.088311093	-101.87905	
	0.091816719	78.885655	0.086528492	79.493281	0.088275906	-101.56138	0.98208833	-5.2932213	
	0.98044318	-5.3066793	0.088275906	-101.56138	0.089376723	79.138182	0.092011957	78.696694	
	0.088311093	-101.87905	0.98208833	-5.2932213	0.092011957	78.696694	0.088991886	79.269682	
	
0.238175574630416	0.090474174	78.452006	0.094086703	78.435235	0.98040427	-5.433066	0.090369131	-101.82832	
	0.094086703	78.435235	0.089399484	78.88841	0.090265489	-101.92706	0.98154862	-5.411209	
	0.98040427	-5.433066	0.090265489	-101.92706	0.092069176	78.641497	0.09390332	78.483826	
	0.090369131	-101.82832	0.98154862	-5.411209	0.09390332	78.483826	0.090208533	79.174718	
	
0.24367757812384	0.09336702	78.564322	0.096016045	78.214026	0.97915967	-5.5475653	0.092293009	-102.29406	
	0.096016045	78.214026	0.090258009	78.579611	0.09201577	-102.19053	0.9814197	-5.5273971	
	0.97915967	-5.5475653	0.09201577	-102.19053	0.093770556	78.593606	0.095944362	78.068164	
	0.092293009	-102.29406	0.9814197	-5.5273971	0.095944362	78.068164	0.091397331	79.017803	
	
0.249306681310373	0.095166346	77.822739	0.097939932	78.038889	0.97851106	-5.6766957	0.094076322	-102.51672	
	0.097939932	78.038889	0.092869351	77.607964	0.093807762	-102.57714	0.97997029	-5.6602053	
	0.97851106	-5.6766957	0.093807762	-102.57714	0.0965278	78.761731	0.098368786	77.800195	
	0.094076322	-102.51672	0.97997029	-5.6602053	0.098368786	77.800195	0.094150528	78.501828	
	
0.255065820271756	0.09722451	77.981161	0.10019711	77.859799	0.97850806	-5.7884827	0.096462039	-102.59952	
	0.10019711	77.859799	0.095112965	77.934013	0.096255966	-102.66351	0.97968403	-5.7568406	
	0.97850806	-5.7884827	0.096255966	-102.66351	0.0969344	78.104058	0.10026223	77.687342	
	0.096462039	-102.59952	0.97968403	-5.7568406	0.10026223	77.687342	0.096817473	78.782507	
	
0.260957998915036	0.099063092	77.247916	0.10232331	77.701916	0.97710408	-5.929003	0.09834306	-103.04334	
	0.10232331	77.701916	0.097431611	77.20444	0.098411538	-102.97119	0.97854196	-5.9184477	
	0.97710408	-5.929003	0.098411538	-102.97119	0.099908701	77.724247	0.10257539	77.403897	
	0.09834306	-103.04334	0.97854196	-5.9184477	0.10257539	77.403897	0.098163619	77.858674	
	
0.266986290539378	0.10156327	76.864371	0.1046523	77.27347	0.97701077	-6.036742	0.10072425	-103.42527	
	0.1046523	77.27347	0.099458086	77.520045	0.10064995	-103.1455	0.97818913	-6.0374894	
	0.97701077	-6.036742	0.10064995	-103.1455	0.10225364	77.442564	0.1047576	76.998475	
	0.10072425	-103.42527	0.97818913	-6.0374894	0.1047576	76.998475	0.10058309	77.488459	
	
0.273153839439064	0.10329157	76.939077	0.10703403	77.110834	0.9764477	-6.179965	0.1031	-103.74775	
	0.10703403	77.110834	0.10131854	77.076803	0.10264007	-103.39273	0.97730598	-6.1581345	
	0.9764477	-6.179965	0.10264007	-103.39273	0.10368184	77.37883	0.10708172	76.900139	
	0.1031	-103.74775	0.97730598	-6.1581345	0.10708172	76.900139	0.10324604	77.326877	
	
0.279463862543524	0.10553209	76.044196	0.10926695	77.000506	0.97556448	-6.3284838	0.10510974	-103.73766	
	0.10926695	77.000506	0.10410073	76.765405	0.10526156	-103.84613	0.97584548	-6.3114142	
	0.97556448	-6.3284838	0.10526156	-103.84613	0.10661045	76.734938	0.10923127	76.553579	
	0.10510974	-103.73766	0.97584548	-6.3114142	0.10923127	76.553579	0.10484831	77.097486	
	
0.285919651095252	0.10866501	76.086567	0.1118872	76.45882	0.97404014	-6.4690364	0.10742774	-104.13742	
	0.1118872	76.45882	0.1061491	76.642691	0.10717576	-104.06016	0.97561271	-6.4461562	
	0.97404014	-6.4690364	0.10717576	-104.06016	0.10924554	76.607218	0.11177232	76.355573	
	0.10742774	-104.13742	0.97561271	-6.4461562	0.11177232	76.355573	0.10771377	76.518272	
	
0.292524572366485	0.11048283	75.637465	0.11382	76.142377	0.97381463	-6.6051443	0.10984437	-104.4595	
	0.11382	76.142377	0.11008303	76.499319	0.10948331	-104.40837	0.975096	-6.5766168	
	0.97381463	-6.6051443	0.10948331	-104.40837	0.11252719	76.387319	0.1143992	75.972794	
	0.10984437	-104.4595	0.975096	-6.5766168	0.1143992	75.972794	0.11173539	77.176026	
	
0.299282071415539	0.11317602	75.904943	0.1165951	76.026117	0.97214584	-6.721939	0.11200914	-104.91216	
	0.1165951	76.026117	0.11078629	76.010438	0.11192866	-104.81116	0.97322355	-6.7236702	
	0.97214584	-6.721939	0.11192866	-104.81116	0.1150365	76.036277	0.11646241	75.630729	
	0.11200914	-104.91216	0.97322355	-6.7236702	0.11646241	75.630729	0.11386195	76.466507	
	
0.30619567288371	0.11583832	75.369995	0.11883684	75.553685	0.97039645	-6.861915	0.11423581	-104.99424	
	0.11883684	75.553685	0.11220747	75.193154	0.11434838	-104.90981	0.97239123	-6.8118648	
	0.97039645	-6.861915	0.11434838	-104.90981	0.11747181	76.181641	0.11889144	75.279504	
	0.11423581	-104.99424	0.97239123	-6.8118648	0.11889144	75.279504	0.11560732	75.738794	
	
0.313268982833699	0.11777765	75.48086	0.12163006	75.390061	0.97073458	-7.021256	0.11706301	-105.26655	
	0.12163006	75.390061	0.11526876	75.539458	0.11711301	-105.32949	0.97252145	-6.9757982	
	0.97073458	-7.021256	0.11711301	-105.32949	0.11911167	75.805526	0.12160263	75.207041	
	0.11706301	-105.26655	0.97252145	-6.9757982	0.12160263	75.207041	0.11743997	75.980151	
	
0.320505690630487	0.1191991	75.094785	0.1244797	75.299561	0.97025923	-7.1373718	0.11933834	-105.48183	
	0.1244797	75.299561	0.11725294	74.870176	0.11938097	-105.32471	0.97200016	-7.1525722	
	0.97025923	-7.1373718	0.11938097	-105.32471	0.12128434	75.205172	0.12430478	75.077843	
	0.11933834	-105.48183	0.97200016	-7.1525722	0.12430478	75.077843	0.11843463	75.689479	
	
0.327909570865677	0.1225858	74.751127	0.12695446	74.849908	0.9694514	-7.3077852	0.12226011	-105.8281	
