# MHz S MA R 50

0.1	0.046236454	84.145741	0.048880854	83.84545	0.99031531	-2.8101733	0.046937531	-96.462368	
	0.048880854	83.84545	0.045052928	85.080634	0.047129947	-96.157252	0.99138298	-2.7738735	
	0.99031531	-2.8101733	0.047129947	-96.157252	0.048938962	85.33633	0.048843991	83.735094	
	0.046937531	-96.462368	0.99138298	-2.7738735	0.048843991	83.735094	0.04676386	84.190633	
	
0.102310062021247	0.048536537	84.282051	0.050048306	83.544526	0.99040437	-2.8685076	0.048030885	-96.644378	
	0.050048306	83.544526	0.046923862	84.577253	0.048093677	-96.517321	0.99087826	-2.8842025	
	0.99040437	-2.8685076	0.048093677	-96.517321	0.049356117	85.174193	0.050048579	83.454303	
	0.048030885	-96.644378	0.99087826	-2.8842025	0.050048579	83.454303	0.04900211	83.91231	
	
0.104673487907914	0.050428554	84.108254	0.051006854	83.549461	0.9904447	-2.9280237	0.049455274	-96.771513	
	0.051006854	83.549461	0.048328743	83.486232	0.049324089	-96.52342	0.99140808	-2.9268381	
	0.9904447	-2.9280237	0.049324089	-96.52342	0.050886979	84.92175	0.051386388	83.427088	
	0.049455274	-96.771513	0.99140808	-2.9268381	0.051386388	83.427088	0.049086289	85.930937	
	
0.107091510398389	0.050420712	83.968881	0.052312597	83.289243	0.98940725	-3.0173007	0.050396984	-96.649376	
	0.052312597	83.289243	0.04886281	83.266368	0.050442152	-96.803508	0.99043955	-3.0087838	
	0.98940725	-3.0173007	0.050442152	-96.803508	0.051636861	85.059892	0.052628204	82.990997	
	0.050396984	-96.649376	0.99043955	-3.0087838	0.052628204	82.990997	0.050669872	84.352962	
	
0.109565390708082	0.052733738	85.138415	0.053735503	83.507974	0.99007955	-3.0630118	0.051773677	-97.210323	
	0.053735503	83.507974	0.050146124	83.870653	0.051496427	-97.126072	0.99062081	-3.0777756	
	0.99007955	-3.0630118	0.051496427	-97.126072	0.052643576	84.76406	0.053785495	83.27904	
	0.051773677	-97.210323	0.99062081	-3.0777756	0.053785495	83.27904	0.052156328	84.566148	
	
0.112096419187261	0.053528079	85.357187	0.054912128	83.177332	0.98953285	-3.1212549	0.052714679	-97.391221	
	0.054912128	83.177332	0.050921682	84.401935	0.052907015	-96.877422	0.99070415	-3.1625774	
	0.98953285	-3.1212549	0.052907015	-96.877422	0.052841049	86.019094	0.054890509	83.123257	
	0.052714679	-97.391221	0.99070415	-3.1625774	0.054890509	83.123257	0.053245897	85.943619	
	
0.114685915994083	0.054063746	83.636882	0.056078594	82.883176	0.98939462	-3.1973575	0.053889415	-97.278077	
	0.056078594	82.883176	0.05223408	83.235661	0.054297297	-97.225578	0.99017153	-3.2368167	
	0.98939462	-3.1973575	0.054297297	-97.225578	0.05435033	85.922064	0.056364023	82.630809	
	0.053889415	-97.278077	0.99017153	-3.2368167	0.056364023	82.630809	0.054430025	84.434002	
	
0.117335231783182	0.05457268	83.0868	0.057285505	83.079082	0.98905188	-3.2942481	0.054891621	-97.430573	
	0.057285505	83.079082	0.053837113	82.651745	0.055280878	-97.61719	0.99009722	-3.2876414	
	0.98905188	-3.2942481	0.055280878	-97.61719	0.055681282	84.868039	0.057202021	82.709822	
	0.054891621	-97.430573	0.99009722	-3.2876414	0.057202021	82.709822	0.054752702	84.571408	
	
0.120045748410147	0.056972346	82.757142	0.058458714	82.595922	0.98942587	-3.3452064	0.05657155	-97.886296	
	0.058458714	82.595922	0.054444226	83.780609	0.056225731	-97.518495	0.98930567	-3.3308117	
	0.98942587	-3.3452064	0.056225731	-97.518495	0.05674748	83.449471	0.058350747	82.779537	
	0.05657155	-97.886296	0.98930567	-3.3308117	0.058350747	82.779537	0.055420981	83.501009	
	
0.122818879652292	0.057899245	83.653329	0.059745888	82.65027	0.98909265	-3.4139001	0.057809848	-97.663278	
	0.059745888	82.65027	0.055951287	83.388396	0.057982641	-97.370136	0.98950367	-3.4262553	
	0.98909265	-3.4139001	0.057982641	-97.370136	0.058748271	84.383231	0.060029856	82.589974	
	0.057809848	-97.663278	0.98950367	-3.4262553	0.060029856	82.589974	0.057333905	84.168415	
	
0.125656071946061	0.059711681	83.391323	0.061418755	82.520038	0.98887607	-3.5297261	0.058793612	-97.713653	
	0.061418755	82.520038	0.057254384	83.490311	0.058935295	-97.992025	0.98971164	-3.4810751	
	0.98887607	-3.5297261	0.058935295	-97.992025	0.059667675	83.118011	0.061310917	82.212873	
	0.058793612	-97.713653	0.98971164	-3.4810751	0.061310917	82.212873	0.059136937	83.841725	
	
0.128558805141477	0.060711006	82.799978	0.062603968	82.582769	0.98784828	-3.5835644	0.060384075	-98.241583	
	0.062603968	82.582769	0.058962188	82.530887	0.060372164	-97.63827	0.9895154	-3.5813919	
	0.98784828	-3.5835644	0.060372164	-97.63827	0.060583715	84.21894	0.062491678	82.519113	
	0.060384075	-98.241583	0.9895154	-3.5813919	0.062491678	82.519113	0.059894356	84.027707	
	
0.131528593274019	0.061828952	82.560675	0.064103729	82.243052	0.98812495	-3.6750121	0.061624667	-98.405769	
	0.064103729	82.243052	0.059017727	82.986462	0.061726648	-98.191037	0.9891338	-3.6809729	
	0.98812495	-3.6750121	0.061726648	-98.191037	0.0633497	83.670491	0.063967841	81.853563	
	0.061624667	-98.405769	0.9891338	-3.6809729	0.063967841	81.853563	0.060721692	84.036942	
	
0.134566985354323	0.062956447	81.993035	0.065821361	82.002566	0.9871898	-3.7616714	0.063119197	-98.62133	
	0.065821361	82.002566	0.06152165	82.351402	0.063161187	-98.518567	0.98883486	-3.7624859	
	0.9871898	-3.7616714	0.063161187	-98.518567	0.063663652	82.640731	0.065668777	82.020514	
	0.063119197	-98.62133	0.98883486	-3.7624859	0.065668777	82.020514	0.063898035	84.400684	
	
0.13767556617613	0.06460409	81.844852	0.066979614	81.654025	0.98727534	-3.8349463	0.064127244	-98.399695	
	0.066979614	81.654025	0.062691677	82.316124	0.064256072	-98.743618	0.98848091	-3.8116201	
	0.98727534	-3.8349463	0.064256072	-98.743618	0.06514466	82.821912	0.066903618	81.605179	
	0.064127244	-98.399695	0.98848091	-3.8116201	0.066903618	81.605179	0.064608719	83.619991	
	
0.140855957142902	0.065262645	81.72565	0.068387962	81.583287	0.98741479	-3.9586516	0.065687627	-98.783379	
	0.068387962	81.583287	0.064779398	80.804678	0.06575251	-98.660599	0.98737668	-3.9285117	
	0.98741479	-3.9586516	0.06575251	-98.660599	0.067109975	82.066001	0.068527835	81.676925	
	0.065687627	-98.783379	0.98737668	-3.9285117	0.068527835	81.676925	0.067023031	82.857367	
	
0.144109817113524	0.067501768	81.216265	0.069577677	81.404955	0.98617386	-4.0003819	0.067500942	-98.951894	
	0.069577677	81.404955	0.065504895	81.224175	0.067470914	-99.01008	0.98701862	-3.9986853	
	0.98617386	-4.0003819	0.067470914	-99.01008	0.068353174	82.297666	0.069701395	81.344344	
	0.067500942	-98.951894	0.98701862	-3.9986853	0.069701395	81.344344	0.067997976	82.181679	
	
0.147438843267552	0.068862679	81.689837	0.071189372	81.431226	0.98606623	-4.089677	0.068884646	-99.082011	
	0.071189372	81.431226	0.066844676	81.696218	0.068810019	-99.121497	0.98698509	-4.140007	
	0.98606623	-4.089677	0.068810019	-99.121497	0.069467129	83.069873	0.071317271	81.11559	
	0.068884646	-99.082011	0.98698509	-4.140007	0.071317271	81.11559	0.069169165	82.152394	
	
0.150844771990442	0.070888736	80.515724	0.073066727	80.809067	0.98582047	-4.1589909	0.070503342	-99.361552	
	0.073066727	80.809067	0.069184772	81.043993	0.070164851	-99.2695	0.9868154	-4.1962997	
	0.98582047	-4.1589909	0.070164851	-99.2695	0.071293429	81.281087	0.073022732	80.993287	
	0.070503342	-99.361552	0.9868154	-4.1962997	0.073022732	80.993287	0.069426439	82.440862	
	
0.154329379779229	0.072350333	80.605978	0.074510621	80.989811	0.98532696	-4.263703	0.071863837	-99.526624	
	0.074510621	80.989811	0.071367757	80.880475	0.071953574	-99.543318	0.98621806	-4.2603624	
	0.98532696	-4.263703	0.071953574	-99.543318	0.073297854	81.75793	0.074808607	80.667514	
	0.071863837	-99.526624	0.98621806	-4.2603624	0.074808607	80.667514	0.072713369	81.449543	
	
0.157894484169135	0.073936	80.902639	0.076464935	80.555996	0.98564543	-4.3709857	0.073685689	-99.825962	
	0.076464935	80.555996	0.072515655	80.776736	0.073478964	-99.744309	0.98648252	-4.4085437	
	0.98564543	-4.3709857	0.073478964	-99.744309	0.074503517	82.246905	0.076711125	80.425472	
	0.073685689	-99.825962	0.98648252	-4.4085437	0.076711125	80.425472	0.07381266	82.311026	
	
0.16154194468157	0.075933621	81.240048	0.078180049	80.474334	0.98409064	-4.476795	0.07525603	-100.08771	
	0.078180049	80.474334	0.073524176	81.068007	0.075092728	-99.904005	0.98622854	-4.5214149	
	0.98409064	-4.476795	0.075092728	-99.904005	0.074982851	81.053018	0.078179721	80.489373	
	0.07525603	-100.08771	0.98622854	-4.5214149	0.078179721	80.489373	0.074474487	81.187523	
	
0.165273663794043	0.077140602	80.785847	0.079901301	80.341686	0.98422445	-4.5844192	0.076902823	-100.25003	
	0.079901301	80.341686	0.075599088	79.94689	0.076847801	-100.10187	0.98521654	-4.601482	
	0.98422445	-4.5844192	0.076847801	-100.10187	0.077422248	81.140269	0.08006973	80.083828	
	0.076902823	-100.25003	0.98521654	-4.601482	0.08006973	80.083828	0.077045042	81.199683	
	
0.169091587932473	0.079187843	80.645729	0.081720089	79.963922	0.98402857	-4.6806563	0.078289819	-100.3809	
	0.081720089	79.963922	0.077702783	80.759199	0.078683605	-100.4787	0.98480915	-4.7266891	
	0.98402857	-4.6806563	0.078683605	-100.4787	0.080195289	80.422403	0.081686382	79.849752	
	0.078289819	-100.3809	0.98480915	-4.7266891	0.081686382	79.849752	0.078850115	80.783815	
	
0.172997708486424	0.08031099	80.031388	0.083455592	80.071722	0.98352357	-4.7796606	0.080308456	-100.68376	
	0.083455592	80.071722	0.077942317	79.927535	0.080228628	-100.57558	0.98375049	-4.831265	
	0.98352357	-4.7796606	0.080228628	-100.57558	0.082403153	79.936625	0.083280439	79.793391	
	0.080308456	-100.68376	0.98375049	-4.831265	0.083280439	79.793391	0.08034495	80.860205	
	
0.176994062847797	0.082651777	80.086159	0.085815588	79.558917	0.98352583	-4.8869212	0.082344518	-100.72243	
	0.085815588	79.558917	0.080959459	79.511029	0.082267956	-100.56902	0.98363429	-4.916198	
	0.98352583	-4.8869212	0.082267956	-100.56902	0.083655274	80.424298	0.085356155	79.53701	
	0.082344518	-100.72243	0.98363429	-4.916198	0.085356155	79.53701	0.081341721	80.951586	
	
0.181082735473506	0.084557971	79.532739	0.087244233	79.377115	0.9820532	-4.999404	0.083966393	-100.99038	
	0.087244233	79.377115	0.082715089	78.736283	0.084084572	-101.09678	0.98296221	-5.0307592	
	0.9820532	-4.999404	0.084084572	-101.09678	0.084702544	80.358637	0.087086619	79.411467	
	0.083966393	-100.99038	0.98296221	-5.0307592	0.087086619	79.411467	0.084521785	80.187695	
	
0.185265858972714	0.085442524	79.828595	0.089234909	79.274462	0.98238176	-5.1136309	0.085778793	-101.20798	
	0.089234909	79.274462	0.0847503	79.345742	0.085977785	-101.12535	0.98249694	-5.0988746	
	0.98238176	-5.1136309	0.085977785	-101.12535	0.086087464	80.425648	0.089201866	79.136894	
	0.085778793	-101.20798	0.98249694	-5.0988746	0.089201866	79.136894	0.085518047	79.992011	
	
0.18954561521918	0.087770063	79.108268	0.091123056	78.824114	0.98137924	-5.252541	0.087840411	-101.33754	
	0.091123056	78.824114	0.085647047	79.164391	0.087718917	-101.43813	0.98293287	-5.224151	
	0.98137924	-5.252541	0.087718917	-101.43813	0.088469782	79.830527	0.091560615	78.962036	
	0.087840411	-101.33754	0.98293287	-5.224151	0.091560615	78.962036	0.086443425	80.348635	
	
0.193924236489297	0.090256734	78.71987	0.092786594	78.911229	0.98045891	-5.3839068	0.089709227	-101.72117	
	0.092786594	78.911229	0.087907259	78.235333	0.089848518	-101.60423	0.98178496	-5.339289	
	0.98045891	-5.3839068	0.089848518	-101.60423	0.090452318	79.772579	0.093340321	78.64193	
	0.089709227	-101.72117	0.98178496	-5.339289	0.093340321	78.64193	0.089767202	79.804373	
	
0.19840400662643	0.092020203	79.211817	0.095120686	78.616447	0.98068502	-5.4880289	0.091961368	-102.10155	
	0.095120686	78.616447	0.090664887	79.028616	0.091667762	-101.83251	0.98182516	-5.5005211	
	0.98068502	-5.4880289	0.091667762	-101.83251	0.092660975	79.16253	0.095595464	78.401418	
	0.091961368	-102.10155	0.98182516	-5.5005211	0.095595464	78.401418	0.091439058	79.399574	
	
0.202987262232139	0.094125209	78.447555	0.097517955	78.268349	0.97969904	-5.5839886	0.093669411	-102.29286	
	0.097517955	78.268349	0.093007693	78.193354	0.093593324	-102.14042	0.98066903	-5.5965615	
	0.97969904	-5.5839886	0.093593324	-102.14042	0.094610498	78.849584	0.097404447	78.254246	
	0.093669411	-102.29286	0.98066903	-5.5965615	0.097404447	78.254246	0.093949647	78.9467	
	
0.207676393884933	0.095617656	78.069684	0.099791001	78.007104	0.97894508	-5.7335078	0.095862712	-102.54666	
	0.099791001	78.007104	0.094966544	77.933632	0.095927976	-102.39779	0.97995614	-5.7154863	
	0.97894508	-5.7335078	0.095927976	-102.39779	0.095984264	78.842866	0.099482497	77.993117	
	0.095862712	-102.54666	0.97995614	-5.7154863	0.099482497	77.993117	0.096590364	78.785094	
	
0.212473847387164	0.098237008	77.474539	0.10129369	77.811451	0.97761544	-5.8434055	0.097833623	-102.93402	
	0.10129369	77.811451	0.09574163	77.572677	0.097425967	-102.66459	0.97888837	-5.819257	
	0.97761544	-5.8434055	0.097425967	-102.66459	0.098900443	77.909301	0.10177593	77.678031	
	0.097833623	-102.93402	0.97888837	-5.819257	0.10177593	77.678031	0.097777645	77.851018	
	
0.217382125040737	0.10015636	77.773292	0.10393361	77.60661	0.97765259	-5.9616505	0.10010011	-102.97792	
	0.10393361	77.60661	0.098787192	77.425407	0.099946624	-102.8063	0.97888028	-5.9657541	
	0.97765259	-5.9616505	0.099946624	-102.8063	0.10015051	78.321369	0.10396578	77.403599	
	0.10010011	-102.97792	0.97888028	-5.9657541	0.10396578	77.403599	0.10000151	78.234443	
	
0.222403786952283	0.10271353	77.071226	0.10609892	77.168283	0.97682541	-6.1365412	0.10194694	-103.36856	
	0.10609892	77.168283	0.10135533	77.293089	0.10215643	-103.35756	0.97777367	-6.0894791	
	0.97682541	-6.1365412	0.10215643	-103.35756	0.10338052	77.839338	0.10630318	77.033238	
	0.10194694	-103.36856	0.97777367	-6.0894791	0.10630318	77.033238	0.10271022	78.00904	
	
0.227541452368483	0.10518725	76.866151	0.10833892	77.143819	0.97647361	-6.2297273	0.10429283	-103.44797	
	0.10833892	77.143819	0.10341831	76.851941	0.10405468	-103.59511	0.97731115	-6.2635904	
	0.97647361	-6.2297273	0.10405468	-103.59511	0.10457455	76.912655	0.10871056	76.700914	
	0.10429283	-103.44797	0.97731115	-6.2635904	0.10871056	76.700914	0.10422922	77.935399	
	
0.232797801042241	0.10660971	76.557348	0.11073621	76.834754	0.97513839	-6.3935729	0.10623862	-103.78581	
	0.11073621	76.834754	0.10523346	77.150373	0.10661897	-103.71271	0.97629041	-6.3519575	
	0.97513839	-6.3935729	0.10661897	-103.71271	0.10781087	76.927618	0.11087172	76.657768	
	0.10623862	-103.78581	0.97629041	-6.3519575	0.11087172	76.657768	0.10765512	76.902638	
	
0.238175574630416	0.10900706	76.248109	0.11340397	76.398091	0.97457546	-6.4988706	0.10880604	-104.02018	
	0.11340397	76.398091	0.10812764	76.420722	0.10879157	-104.10581	0.97559673	-6.5099063	
	0.97457546	-6.4988706	0.10879157	-104.10581	0.11016621	76.558891	0.11315188	76.379021	
	0.10880604	-104.02018	0.97559673	-6.5099063	0.11315188	76.379021	0.10893752	76.824427	
	
0.24367757812384	0.11195855	76.1163	0.11610009	76.039726	0.97294128	-6.6636297	0.11132589	-104.42134	
	0.11610009	76.039726	0.10971015	76.091986	0.11119628	-104.37618	0.97506836	-6.6586741	
	0.97294128	-6.6636297	0.11119628	-104.37618	0.11258685	76.200939	0.11569563	75.883869	
	0.11132589	-104.42134	0.97506836	-6.6586741	0.11569563	75.883869	0.11055693	76.62381	
	
0.249306681310373	0.1143173	75.777811	0.11822763	75.971472	0.97241893	-6.8279189	0.11373636	-104.75054	
	0.11822763	75.971472	0.11274083	75.454642	0.11366996	-104.6852	0.97347555	-6.781595	
	0.97241893	-6.8279189	0.11366996	-104.6852	0.11543827	76.135232	0.11809776	75.817633	
	0.11373636	-104.75054	0.97347555	-6.781595	0.11809776	75.817633	0.11390671	76.259363	
	
0.255065820271756	0.11655444	75.620111	0.12091927	75.563707	0.9719179	-6.922797	0.11629829	-104.95971	
	0.12091927	75.563707	0.11516231	75.53696	0.11600795	-104.86783	0.97285269	-6.9247172	
	0.9719179	-6.922797	0.11600795	-104.86783	0.1170185	75.820714	0.12086614	75.297361	
	0.11629829	-104.95971	0.97285269	-6.9247172	0.12086614	75.297361	0.11608622	76.417393	
	
0.260957998915036	0.11890063	74.941318	0.12316769	75.396361	0.97030077	-7.0990005	0.1183751	-105.41486	
	0.12316769	75.396361	0.11801918	74.761502	0.11830878	-105.2554	0.97152928	-7.0905205	
	0.97030077	-7.0990005	0.11830878	-105.2554	0.11974631	75.597298	0.12311849	75.262427	
	0.1183751	-105.41486	0.97152928	-7.0905205	0.12311849	75.262427	0.11775934	75.477654	
	
0.266986290539378	0.12113496	74.542452	0.12612195	74.983908	0.96951899	-7.2184589	0.12104434	-105.79995	
	0.12612195	74.983908	0.12001599	74.906015	0.12117112	-105.76307	0.97072836	-7.2439704	
	0.96951899	-7.2184589	0.12117112	-105.76307	0.1225475	75.061363	0.12572683	74.862357	
	0.12104434	-105.79995	0.97072836	-7.2439704	0.12572683	74.862357	0.12125579	74.935222	
	
0.273153839439064	0.12435879	74.540386	0.12880521	74.684038	0.96886129	-7.3790802	0.12360716	-106.00069	
	0.12880521	74.684038	0.12238239	74.407222	0.12393437	-105.94553	0.96963708	-7.3928063	
	0.96886129	-7.3790802	0.12393437	-105.94553	0.12424177	75.032639	0.128552	74.635528	
	0.12360716	-106.00069	0.96963708	-7.3928063	0.128552	74.635528	0.12419925	74.78794	
	
0.279463862543524	0.12672188	73.565628	0.13116316	74.433593	0.96772492	-7.5390555	0.12610896	-106.20471	
	0.13116316	74.433593	0.12522636	74.129624	0.12600106	-106.20962	0.96815808	-7.5615139	
	0.96772492	-7.5390555	0.12600106	-106.20962	0.12737986	74.224784	0.13144004	74.306413	
	0.12610896	-106.20471	0.96815808	-7.5615139	0.13144004	74.306413	0.12636507	74.391541	
	
0.285919651095252	0.13013925	73.658444	0.13399694	73.98003	0.96630357	-7.7009837	0.12903013	-106.66211	
	0.13399694	73.98003	0.12820229	73.974122	0.12889221	-106.72046	0.96682234	-7.7161508	
	0.96630357	-7.7009837	0.12889221	-106.72046	0.13075647	73.981949	0.13401305	73.775587	
	0.12903013	-106.66211	0.96682234	-7.7161508	0.13401305	73.775587	0.12942056	73.952843	
	
0.292524572366485	0.13220689	73.118677	0.13705628	73.735115	0.96511624	-7.890551	0.1316642	-107.18874	
	0.13705628	73.735115	0.13235059	73.366869	0.13176404	-107.15442	0.96620537	-7.888135	
	0.96511624	-7.890551	0.13176404	-107.15442	0.13446469	73.749477	0.1373812	73.467816	
	0.1316642	-107.18874	0.96620537	-7.888135	0.1373812	73.467816	0.13379234	74.281478	
	
0.299282071415539	0.13531006	73.119633	0.13996336	73.398483	0.96336685	-8.0187885	0.1343616	-107.4253	
	0.13996336	73.398483	0.13355871	72.965169	0.13459035	-107.47322	0.96385827	-8.0419754	
	0.96336685	-8.0187885	0.13459035	-107.47322	0.13712262	73.388992	0.13978099	73.006608	
	0.1343616	-107.4253	0.96385827	-8.0419754	0.13978099	73.006608	0.13657078	73.277506	
	
0.30619567288371	0.13840915	72.801082	0.14241897	73.130108	0.96159965	-8.2079559	0.13711969	-107.79388	
	0.14241897	73.130108	0.13583991	72.276589	0.13702257	-107.76776	0.96320345	-8.1576996	
	0.96159965	-8.2079559	0.13702257	-107.76776	0.14017648	72.893946	0.14292439	72.666608	
	0.13711969	-107.79388	0.96320345	-8.1576996	0.14292439	72.666608	0.13873683	73.158487	
	
0.313268982833699	0.14089618	72.622459	0.14577556	72.725454	0.96127656	-8.3638536	0.14010565	-108.12815	
	0.14577556	72.725454	0.13885949	72.380117	0.1401597	-108.08935	0.96236142	-8.3452946	
	0.96127656	-8.3638536	0.1401597	-108.08935	0.14223642	72.755711	0.14589743	72.393052	
	0.14010565	-108.12815	0.96236142	-8.3452946	0.14589743	72.393052	0.14109118	72.796094	
	
0.320505690630487	0.14285527	72.075323	0.14904319	72.429822	0.95983149	-8.5031641	0.14329535	-108.37091	
	0.14904319	72.429822	0.14106817	71.801334	0.14309769	-108.46321	0.96148634	-8.5087699	
	0.95983149	-8.5031641	0.14309769	-108.46321	0.14419653	72.183592	0.14884188	72.273524	
	0.14329535	-108.37091	0.96148634	-8.5087699	0.14884188	72.273524	0.14271878	72.684367	
	
0.327909570865677	0.14600765	71.791603	0.1525156	72.023486	0.95878458	-8.7073886	0.14671137	-108.83217	
	0.1525156	72.023486	0.14378413	71.71436	0.14642902	-108.65216	0.96012139	-8.7461086	
