# MHz S MA R 50

0.1	0.055533021	80.551714	0.056355151	83.080914	0.98817344	-3.3552024	0.053836349	-97.137347	
	0.056355151	83.080914	0.052803108	82.823983	0.054218177	-97.668237	0.98992622	-3.2581918	
	0.98817344	-3.3552024	0.054218177	-97.668237	0.055951319	82.846308	0.056408057	82.84296	
	0.053836349	-97.137347	0.98992622	-3.2581918	0.056408057	82.84296	0.054665549	84.005451	
	
0.102310062021247	0.057286432	80.649977	0.057486307	82.757058	0.98705628	-3.3968323	0.055806591	-97.690461	
	0.057486307	82.757058	0.052534875	83.029135	0.055552544	-97.41306	0.98964828	-3.3036771	
	0.98705628	-3.3968323	0.055552544	-97.41306	0.059193597	81.171988	0.057561328	82.839216	
	0.055806591	-97.690461	0.98964828	-3.3036771	0.057561328	82.839216	0.055846985	85.378977	
	
0.104673487907914	0.058556203	81.824804	0.058842386	82.75205	0.98663231	-3.4915138	0.057027487	-97.717492	
	0.058842386	82.75205	0.054152417	82.590186	0.05687024	-97.834878	0.9890942	-3.4104329	
	0.98663231	-3.4915138	0.05687024	-97.834878	0.059935356	82.673803	0.059181132	82.394526	
	0.057027487	-97.717492	0.9890942	-3.4104329	0.059181132	82.394526	0.057233191	83.309895	
	
0.107091510398389	0.059412667	81.392545	0.060164095	82.639279	0.98665159	-3.5997098	0.05791364	-97.724133	
	0.060164095	82.639279	0.055980943	81.595642	0.058327729	-97.809342	0.98868498	-3.4864038	
	0.98665159	-3.5997098	0.058327729	-97.809342	0.061459171	81.993063	0.060337347	82.255211	
	0.05791364	-97.724133	0.98868498	-3.4864038	0.060337347	82.255211	0.058904293	83.528986	
	
0.109565390708082	0.061710386	80.427485	0.061503003	82.334293	0.98600109	-3.6310184	0.059312785	-98.304215	
	0.061503003	82.334293	0.057239502	82.653718	0.059101363	-97.676188	0.98902741	-3.5334451	
	0.98600109	-3.6310184	0.059101363	-97.676188	0.062851006	81.906983	0.061714592	82.168041	
	0.059312785	-98.304215	0.98902741	-3.5334451	0.061714592	82.168041	0.059564255	83.069034	
	
0.112096419187261	0.063030514	80.735168	0.063000935	82.274985	0.98598383	-3.7199459	0.060616747	-98.144242	
	0.063000935	82.274985	0.058629952	82.351855	0.060805753	-97.919743	0.98884071	-3.5887956	
	0.98598383	-3.7199459	0.060805753	-97.919743	0.063649505	80.968229	0.063032391	81.832428	
	0.060616747	-98.144242	0.98884071	-3.5887956	0.063032391	81.832428	0.060593874	83.401994	
	
0.114685915994083	0.064606939	81.200752	0.064354435	82.30734	0.98507389	-3.8020497	0.062012243	-98.22748	
	0.064354435	82.30734	0.059872529	81.191067	0.062307416	-98.305254	0.98857904	-3.6547204	
	0.98507389	-3.8020497	0.062307416	-98.305254	0.065433954	80.895825	0.06472996	82.064165	
	0.062012243	-98.22748	0.98857904	-3.6547204	0.06472996	82.064165	0.061952944	83.956135	
	
0.117335231783182	0.065529469	79.880296	0.065803717	81.900608	0.98541166	-3.8958929	0.063513924	-98.384819	
	0.065803717	81.900608	0.061859623	81.800503	0.063587821	-98.485507	0.98757303	-3.7919758	
	0.98541166	-3.8958929	0.063587821	-98.485507	0.06731625	80.360527	0.065968423	81.618144	
	0.063513924	-98.384819	0.98757303	-3.7919758	0.065968423	81.618144	0.064001153	83.003707	
	
0.120045748410147	0.067411689	79.937676	0.067390625	81.835207	0.98476323	-3.9855034	0.065279303	-98.480846	
	0.067390625	81.835207	0.063263387	81.284231	0.065003411	-98.604751	0.98766065	-3.8465016	
	0.98476323	-3.9855034	0.065003411	-98.604751	0.0685643	81.966851	0.067283927	81.478207	
	0.065279303	-98.480846	0.98766065	-3.8465016	0.067283927	81.478207	0.064769163	82.320459	
	
0.122818879652292	0.068655819	79.04321	0.068780616	81.458015	0.98373542	-4.0204016	0.066097823	-99.016863	
	0.068780616	81.458015	0.063994906	81.423651	0.066157192	-98.375058	0.98718463	-3.982351	
	0.98373542	-4.0204016	0.066157192	-98.375058	0.069114636	80.648565	0.068795326	81.546292	
	0.066097823	-99.016863	0.98718463	-3.982351	0.068795326	81.546292	0.066568646	81.959101	
	
0.125656071946061	0.070343596	79.550341	0.070156815	81.258619	0.98402981	-4.1554878	0.067866299	-98.879632	
	0.070156815	81.258619	0.065262043	80.97633	0.067801921	-98.866241	0.98704621	-4.0586464	
	0.98402981	-4.1554878	0.067801921	-98.866241	0.070377822	80.882906	0.070394628	81.32742	
	0.067866299	-98.879632	0.98704621	-4.0586464	0.070394628	81.32742	0.068103241	82.257627	
	
0.128558805141477	0.071379919	79.903413	0.071859355	81.214915	0.98409593	-4.2523506	0.069584325	-99.120221	
	0.071859355	81.214915	0.067359686	81.210412	0.069504099	-98.966969	0.98715529	-4.1429471	
	0.98409593	-4.2523506	0.069504099	-98.966969	0.072188787	80.581828	0.072128833	81.189537	
	0.069584325	-99.120221	0.98715529	-4.1429471	0.072128833	81.189537	0.069183458	82.12669	
	
0.131528593274019	0.073291675	79.108753	0.073315394	80.859156	0.98406854	-4.3249179	0.070961469	-99.482834	
	0.073315394	80.859156	0.069153408	81.468693	0.070732495	-99.469277	0.98638371	-4.2237465	
	0.98406854	-4.3249179	0.070732495	-99.469277	0.073232198	79.857403	0.073607266	81.023891	
	0.070961469	-99.482834	0.98638371	-4.2237465	0.073607266	81.023891	0.071415731	81.501743	
	
0.134566985354323	0.074396695	78.809993	0.075226409	80.854868	0.9829299	-4.3934537	0.072306862	-99.460579	
	0.075226409	80.854868	0.071365277	80.074353	0.072563888	-99.41989	0.98566913	-4.322339	
	0.9829299	-4.3934537	0.072563888	-99.41989	0.075564594	80.098867	0.074916775	80.989491	
	0.072306862	-99.460579	0.98566913	-4.322339	0.074916775	80.989491	0.073584028	81.625152	
	
0.13767556617613	0.076144279	78.811005	0.076757362	80.599086	0.98260073	-4.5240199	0.073941851	-99.754772	
	0.076757362	80.599086	0.072497474	79.971688	0.073977924	-99.608516	0.98543345	-4.4485279	
	0.98260073	-4.5240199	0.073977924	-99.608516	0.076567706	78.984512	0.076831858	80.642593	
	0.073941851	-99.754772	0.98543345	-4.4485279	0.076831858	80.642593	0.074911223	81.876778	
	
0.140855957142902	0.078818956	78.384371	0.07873035	80.413791	0.98249315	-4.6173419	0.07553133	-99.96304	
	0.07873035	80.413791	0.074239226	80.47036	0.075710723	-100.0886	0.98559002	-4.5267622	
	0.98249315	-4.6173419	0.075710723	-100.0886	0.076808705	78.956974	0.078545996	80.319954	
	0.07553133	-99.96304	0.98559002	-4.5267622	0.078545996	80.319954	0.076291595	81.971146	
	
0.144109817113524	0.079778451	78.767749	0.080336628	80.61019	0.98173721	-4.7213488	0.077452613	-100.23809	
	0.080336628	80.61019	0.075973166	79.968347	0.077135787	-100.19631	0.98505229	-4.6210682	
	0.98173721	-4.7213488	0.077135787	-100.19631	0.0811395	79.216651	0.080317135	80.210107	
	0.077452613	-100.23809	0.98505229	-4.6210682	0.080317135	80.210107	0.076589037	81.172891	
	
0.147438843267552	0.080711178	78.320873	0.081990573	80.078477	0.98147188	-4.825929	0.079256581	-100.41852	
	0.081990573	80.078477	0.078138084	79.950036	0.078921589	-100.48234	0.98485994	-4.7617472	
	0.98147188	-4.825929	0.078921589	-100.48234	0.082101289	78.623825	0.081845455	80.085083	
	0.079256581	-100.41852	0.98485994	-4.7617472	0.081845455	80.085083	0.07953954	81.458304	
	
0.150844771990442	0.083473952	77.825692	0.083925697	79.978339	0.98066814	-4.9125556	0.080883469	-100.40245	
	0.083925697	79.978339	0.079058512	80.004363	0.080915864	-100.41275	0.98413954	-4.8411953	
	0.98066814	-4.9125556	0.080915864	-100.41275	0.08378356	78.447962	0.083886496	79.801942	
	0.080883469	-100.40245	0.98413954	-4.8411953	0.083886496	79.801942	0.081417669	80.987987	
	
0.154329379779229	0.08552462	77.957197	0.085641776	79.664413	0.9805779	-4.9870165	0.082690972	-100.81499	
	0.085641776	79.664413	0.080128058	80.063686	0.082477959	-100.54813	0.9839096	-4.9288151	
	0.9805779	-4.9870165	0.082477959	-100.54813	0.086024137	78.375948	0.085553673	79.519514	
	0.082690972	-100.81499	0.9839096	-4.9288151	0.085553673	79.519514	0.083458435	80.786762	
	
0.157894484169135	0.087114324	77.69566	0.087734543	79.538127	0.98004129	-5.1344259	0.084447278	-100.88146	
	0.087734543	79.538127	0.083495734	79.253002	0.084544021	-100.85828	0.98280346	-5.0556384	
	0.98004129	-5.1344259	0.084544021	-100.85828	0.088539727	78.214651	0.087664374	79.386982	
	0.084447278	-100.88146	0.98280346	-5.0556384	0.087664374	79.386982	0.08504278	80.320247	
	
0.16154194468157	0.089134256	77.16539	0.089202708	79.339246	0.97864428	-5.2491878	0.086213494	-101.1047	
	0.089202708	79.339246	0.084467407	78.805279	0.086413866	-100.9662	0.98284059	-5.1804702	
	0.97864428	-5.2491878	0.086413866	-100.9662	0.089802554	78.231885	0.089540231	79.272047	
	0.086213494	-101.1047	0.98284059	-5.1804702	0.089540231	79.272047	0.086240624	80.031151	
	
0.165273663794043	0.090543999	77.067999	0.091646443	78.977357	0.97814962	-5.3485587	0.088474595	-101.29587	
	0.091646443	78.977357	0.086380075	78.849177	0.088575695	-101.39412	0.98236857	-5.30428	
	0.97814962	-5.3485587	0.088575695	-101.39412	0.09154478	77.446514	0.091466554	78.851345	
	0.088474595	-101.29587	0.98236857	-5.30428	0.091466554	78.851345	0.088196135	79.685665	
	
0.169091587932473	0.092258788	76.773769	0.093383478	78.820649	0.97741127	-5.4737418	0.09046532	-101.75019	
	0.093383478	78.820649	0.088162367	77.810742	0.090310365	-101.56807	0.98134234	-5.4091307	
	0.97741127	-5.4737418	0.090310365	-101.56807	0.092217148	77.74207	0.093593473	78.832074	
	0.09046532	-101.75019	0.98134234	-5.4091307	0.093593473	78.832074	0.090402847	79.690646	
	
0.172997708486424	0.094244107	76.548887	0.095661242	78.645702	0.977508	-5.5606253	0.092250192	-101.88641	
	0.095661242	78.645702	0.090290169	78.177635	0.092374677	-101.67856	0.98068129	-5.4876141	
	0.977508	-5.5606253	0.092374677	-101.67856	0.095966519	77.227775	0.09600486	78.533259	
	0.092250192	-101.88641	0.98068129	-5.4876141	0.09600486	78.533259	0.093234703	79.231694	
	
0.176994062847797	0.097367218	76.759333	0.097737271	78.320784	0.97660857	-5.7074673	0.094027006	-102.15684	
	0.097737271	78.320784	0.093172276	77.825646	0.094326738	-102.08362	0.97979812	-5.638748	
	0.97660857	-5.7074673	0.094326738	-102.08362	0.09699248	76.920225	0.09773547	78.248945	
	0.094027006	-102.15684	0.97979812	-5.638748	0.09773547	78.248945	0.094376549	78.47885	
	
0.181082735473506	0.099259761	76.057017	0.099890983	78.275766	0.97566183	-5.8311532	0.096097759	-102.57679	
	0.099890983	78.275766	0.09525468	76.994126	0.096503568	-102.25436	0.97966375	-5.7394894	
	0.97566183	-5.8311532	0.096503568	-102.25436	0.098626637	77.266524	0.10008175	78.132705	
	0.096097759	-102.57679	0.97966375	-5.7394894	0.10008175	78.132705	0.096012155	79.12837	
	
0.185265858972714	0.10060257	76.133272	0.10218269	77.947273	0.97552299	-5.9398334	0.098446745	-102.75234	
	0.10218269	77.947273	0.096677109	77.719637	0.098525583	-102.42727	0.97893502	-5.9068623	
	0.97552299	-5.9398334	0.098525583	-102.42727	0.10048813	76.660913	0.10231908	77.915166	
	0.098446745	-102.75234	0.97893502	-5.9068623	0.10231908	77.915166	0.0996712	78.247418	
	
0.18954561521918	0.10333616	75.063799	0.1040964	77.605434	0.97454471	-6.0985299	0.10065214	-102.79348	
	0.1040964	77.605434	0.098604697	77.22283	0.10077584	-102.79041	0.97846913	-6.0048061	
	0.97454471	-6.0985299	0.10077584	-102.79041	0.10276032	76.81691	0.10447646	77.661541	
	0.10065214	-102.79348	0.97846913	-6.0048061	0.10447646	77.661541	0.099735967	77.762304	
	
0.193924236489297	0.10545642	75.491131	0.10680261	77.356356	0.97409226	-6.2095226	0.10286919	-103.14014	
	0.10680261	77.356356	0.10109027	77.089649	0.10290248	-103.01251	0.97706597	-6.1094768	
	0.97409226	-6.2095226	0.10290248	-103.01251	0.10592015	76.097911	0.10682967	77.154474	
	0.10286919	-103.14014	0.97706597	-6.1094768	0.10682967	77.154474	0.10301878	77.846566	
	
0.19840400662643	0.10618512	75.431884	0.10877259	77.226461	0.97253407	-6.3376415	0.10521273	-103.46327	
	0.10877259	77.226461	0.1035887	76.199848	0.10491423	-103.43806	0.97685347	-6.3373966	
	0.97253407	-6.3376415	0.10491423	-103.43806	0.10778358	75.465239	0.10914737	76.801185	
	0.10521273	-103.46327	0.97685347	-6.3373966	0.10914737	76.801185	0.10596631	77.941459	
	
0.202987262232139	0.10885533	74.946297	0.1112585	76.770361	0.97257433	-6.4889681	0.10737378	-103.69415	
	0.1112585	76.770361	0.10617364	76.30915	0.10726936	-103.73271	0.97585781	-6.4135657	
	0.97257433	-6.4889681	0.10726936	-103.73271	0.11005456	75.379312	0.11177561	76.907308	
	0.10737378	-103.69415	0.97585781	-6.4135657	0.11177561	76.907308	0.10685722	77.398674	
	
0.207676393884933	0.11268022	74.326695	0.11360517	76.502273	0.97166595	-6.6202162	0.10988457	-104.12562	
	0.11360517	76.502273	0.10914921	76.165624	0.10974422	-104.06735	0.97609419	-6.581773	
	0.97166595	-6.6202162	0.10974422	-104.06735	0.11316728	75.612085	0.1141333	76.308272	
	0.10988457	-104.12562	0.97609419	-6.581773	0.1141333	76.308272	0.10953242	77.471934	
	
0.212473847387164	0.11436197	74.340478	0.1160644	76.217914	0.96999033	-6.76793	0.1117703	-104.14806	
	0.1160644	76.217914	0.11061525	75.391483	0.11182463	-104.28683	0.97403789	-6.6818087	
	0.96999033	-6.76793	0.11182463	-104.28683	0.11522581	74.635729	0.11611262	76.105724	
	0.1117703	-104.14806	0.97403789	-6.6818087	0.11611262	76.105724	0.11246049	76.712791	
	
0.217382125040737	0.11711696	74.248042	0.11914778	75.919641	0.96871376	-6.9065814	0.11443411	-104.84458	
	0.11914778	75.919641	0.11344007	75.267031	0.11419244	-104.55945	0.97335106	-6.8560221	
	0.96871376	-6.9065814	0.11419244	-104.55945	0.11728074	74.784971	0.11896316	75.714272	
	0.11443411	-104.84458	0.97335106	-6.8560221	0.11896316	75.714272	0.1146967	76.180617	
	
0.222403786952283	0.11865021	73.605962	0.12123739	75.586074	0.9679623	-7.0596622	0.11668466	-104.84375	
	0.12123739	75.586074	0.11619058	74.938333	0.11675964	-104.7633	0.9720493	-6.9854919	
	0.9679623	-7.0596622	0.11675964	-104.7633	0.11922519	74.470906	0.12143109	75.540751	
	0.11668466	-104.84375	0.9720493	-6.9854919	0.12143109	75.540751	0.11770145	75.885518	
	
0.227541452368483	0.12228809	73.266273	0.1237886	75.318976	0.96750196	-7.1922592	0.11944682	-105.20266	
	0.1237886	75.318976	0.11817038	74.303231	0.11918745	-105.13839	0.97071833	-7.1089201	
	0.96750196	-7.1922592	0.11918745	-105.13839	0.1221898	73.874397	0.12391313	75.218464	
	0.11944682	-105.20266	0.97071833	-7.1089201	0.12391313	75.218464	0.11995974	75.561517	
	
0.232797801042241	0.12441824	73.157321	0.12652358	75.106232	0.96647165	-7.3380765	0.12193923	-105.54201	
	0.12652358	75.106232	0.12142371	74.535858	0.12182429	-105.67199	0.97043324	-7.2989089	
	0.96647165	-7.3380765	0.12182429	-105.67199	0.12501135	73.836971	0.12658162	74.902033	
	0.12193923	-105.54201	0.97043324	-7.2989089	0.12658162	74.902033	0.12265018	75.228431	
	
0.238175574630416	0.12644615	72.840295	0.12901196	74.699121	0.96539397	-7.50743	0.12448816	-105.85843	
	0.12901196	74.699121	0.12391416	74.1493	0.12431443	-105.91042	0.96910285	-7.463166	
	0.96539397	-7.50743	0.12431443	-105.91042	0.12797059	73.092922	0.12910791	74.551835	
	0.12448816	-105.85843	0.96910285	-7.463166	0.12910791	74.551835	0.12588987	74.869716	
	
0.24367757812384	0.13016225	72.824859	0.13163675	74.412145	0.96345996	-7.6606255	0.12745624	-106.26089	
	0.13163675	74.412145	0.12566015	73.420374	0.12696671	-106.16593	0.96823227	-7.6143851	
	0.96345996	-7.6606255	0.12696671	-106.16593	0.12973464	73.339214	0.13232078	74.241473	
	0.12745624	-106.26089	0.96823227	-7.6143851	0.13232078	74.241473	0.12804594	74.859218	
	
0.249306681310373	0.13264883	72.053583	0.13466545	74.053563	0.96334679	-7.799346	0.13000284	-106.64953	
	0.13466545	74.053563	0.12855775	73.557719	0.12974373	-106.55966	0.96712992	-7.7473404	
	0.96334679	-7.799346	0.12974373	-106.55966	0.13322003	72.815447	0.13501423	73.959976	
	0.13000284	-106.64953	0.96712992	-7.7473404	0.13501423	73.959976	0.12952815	74.058725	
	
0.255065820271756	0.13447157	72.173745	0.1377282	73.880376	0.9627515	-7.9722101	0.13285208	-106.82556	
	0.1377282	73.880376	0.13155406	73.568114	0.13294901	-106.77845	0.96622789	-7.9187516	
	0.9627515	-7.9722101	0.13294901	-106.77845	0.13534633	72.439425	0.13782499	73.578785	
	0.13285208	-106.82556	0.96622789	-7.9187516	0.13782499	73.578785	0.13324216	73.973668	
	
0.260957998915036	0.13723255	71.728493	0.14060221	73.432209	0.96098774	-8.1892947	0.13545786	-107.22573	
	0.14060221	73.432209	0.13543511	72.527321	0.13543914	-107.36471	0.96444258	-8.1002748	
	0.96098774	-8.1892947	0.13543914	-107.36471	0.13899166	72.371171	0.14085305	73.392186	
	0.13545786	-107.22573	0.96444258	-8.1002748	0.14085305	73.392186	0.13563827	73.52193	
	
0.266986290539378	0.14056496	71.347322	0.14349935	73.023966	0.95908633	-8.3050067	0.13838385	-107.49025	
	0.14349935	73.023966	0.13802275	72.324818	0.13828118	-107.62587	0.96365815	-8.3144682	
	0.95908633	-8.3050067	0.13828118	-107.62587	0.14149376	71.658781	0.14386138	72.898604	
	0.13838385	-107.49025	0.96365815	-8.3144682	0.14386138	72.898604	0.13846521	73.298345	
	
0.273153839439064	0.14336456	70.927358	0.14630869	72.6653	0.95786605	-8.466166	0.14123797	-108.04979	
	0.14630869	72.6653	0.14076191	72.14337	0.14101364	-108.14115	0.96214021	-8.4226237	
	0.95786605	-8.466166	0.14101364	-108.14115	0.14408038	70.940068	0.14648945	72.6081	
	0.14123797	-108.04979	0.96214021	-8.4226237	0.14648945	72.6081	0.14148658	72.737307	
	
0.279463862543524	0.1463779	70.702968	0.14894089	72.261667	0.95495733	-8.6600919	0.14394676	-108.38023	
	0.14894089	72.261667	0.14235383	71.248998	0.14402623	-108.19217	0.96003534	-8.6450239	
	0.95495733	-8.6600919	0.14402623	-108.19217	0.1457861	71.189803	0.14970813	72.286378	
	0.14394676	-108.38023	0.96003534	-8.6450239	0.14970813	72.286378	0.1457528	72.310324	
	
0.285919651095252	0.1497102	70.307937	0.15252145	72.082881	0.95486287	-8.8298737	0.1472559	-108.80227	
	0.15252145	72.082881	0.14628909	71.098705	0.14697284	-108.68551	0.95891164	-8.7793251	
	0.95486287	-8.8298737	0.14697284	-108.68551	0.15048054	70.455838	0.15276846	71.890157	
	0.1472559	-108.80227	0.95891164	-8.7793251	0.15276846	71.890157	0.1482844	71.876911	
	
0.292524572366485	0.15356415	70.08829	0.15563555	71.52926	0.95282022	-8.9958779	0.15013526	-109.09983	
	0.15563555	71.52926	0.14932786	70.787663	0.15006377	-109.14294	0.95726218	-8.9726498	
	0.95282022	-8.9958779	0.15006377	-109.14294	0.15341725	70.321359	0.15561076	71.369789	
	0.15013526	-109.09983	0.95726218	-8.9726498	0.15561076	71.369789	0.15167487	71.352729	
	
0.299282071415539	0.1561278	69.57885	0.15845247	71.177137	0.95119898	-9.2196524	0.15287866	-109.75762	
	0.15845247	71.177137	0.15299053	70.410646	0.1530934	-109.53654	0.9555462	-9.1315924	
	0.95119898	-9.2196524	0.1530934	-109.53654	0.15797031	70.074029	0.15904857	71.105999	
	0.15287866	-109.75762	0.9555462	-9.1315924	0.15904857	71.105999	0.15572682	71.08134	
	
0.30619567288371	0.15891444	69.335657	0.16233723	70.821653	0.95038054	-9.3720883	0.15627473	-110.12649	
	0.16233723	70.821653	0.15634111	69.908654	0.15605027	-109.88827	0.95397741	-9.2957266	
	0.95038054	-9.3720883	0.15605027	-109.88827	0.16119527	69.434315	0.16223628	70.661691	
	0.15627473	-110.12649	0.95397741	-9.2957266	0.16223628	70.661691	0.15844051	70.770833	
	
0.313268982833699	0.1622518	68.653051	0.16584615	70.545809	0.94890115	-9.5553031	0.15954415	-110.39181	
	0.16584615	70.545809	0.15846848	69.985354	0.15996519	-110.32109	0.95302378	-9.473773	
	0.94890115	-9.5553031	0.15996519	-110.32109	0.16415112	69.477884	0.1660642	70.468113	
	0.15954415	-110.39181	0.95302378	-9.473773	0.1660642	70.468113	0.16034398	70.369899	
	
0.320505690630487	0.16476922	68.570143	0.16934546	70.092067	0.94751603	-9.7186926	0.16324098	-110.68807	
	0.16934546	70.092067	0.16055126	69.321376	0.16317411	-110.58837	0.95137756	-9.6819344	
	0.94751603	-9.7186926	0.16317411	-110.58837	0.16586365	68.935575	0.1694295	70.099649	
	0.16324098	-110.68807	0.95137756	-9.6819344	0.1694295	70.099649	0.16338038	70.015316	
	
0.327909570865677	0.16745028	68.243934	0.17247567	69.820189	0.94491464	-9.9348417	0.16620675	-111.02929	
	0.17247567	69.820189	0.16378233	69.072905	0.16678177	-110.99782	0.94995326	-9.8835827	
	0.94491464	-9.9348417	0.16678177	-110.99782	0.16814226	68.681331	0.17274787	69.679064	
