# MHz S MA R 50

0.1	0.34909194	46.077274	0.33313306	44.579212	0.79295874	-18.595375	0.33223135	-135.76369	
	0.33313306	44.579212	0.35400514	46.20407	0.33252148	-135.81377	0.79219266	-19.045757	
	0.79295874	-18.595375	0.33252148	-135.81377	0.35009618	46.238287	0.33393179	44.43155	
	0.33223135	-135.76369	0.79219266	-19.045757	0.33393179	44.43155	0.35480932	46.012827	
	
0.102310062021247	0.35390439	45.567503	0.33737142	43.832911	0.78797278	-18.755274	0.33664218	-136.50285	
	0.33737142	43.832911	0.35864793	45.555247	0.33636389	-136.49787	0.78638542	-19.171293	
	0.78797278	-18.755274	0.33636389	-136.49787	0.35356936	45.68293	0.33756666	43.734045	
	0.33664218	-136.50285	0.78638542	-19.171293	0.33756666	43.734045	0.35960193	45.523592	
	
0.104673487907914	0.3580339	44.864733	0.34130812	43.097924	0.78255249	-18.914063	0.34067191	-137.17683	
	0.34130812	43.097924	0.36280458	44.825912	0.33977049	-137.14752	0.78142222	-19.331342	
	0.78255249	-18.914063	0.33977049	-137.14752	0.35774335	45.029332	0.34148591	43.041527	
	0.34067191	-137.17683	0.78142222	-19.331342	0.34148591	43.041527	0.36363424	45.042123	
	
0.107091510398389	0.36194991	44.338752	0.34539421	42.510548	0.77825563	-19.081189	0.3440468	-137.83483	
	0.34539421	42.510548	0.36696362	44.301263	0.34419432	-137.7522	0.77644656	-19.483822	
	0.77825563	-19.081189	0.34419432	-137.7522	0.36219191	44.414073	0.34519545	42.362313	
	0.3440468	-137.83483	0.77644656	-19.483822	0.34519545	42.362313	0.36786642	44.499805	
	
0.109565390708082	0.36625936	43.852949	0.34913635	41.852629	0.77249571	-19.210108	0.34792573	-138.56851	
	0.34913635	41.852629	0.37116046	43.607649	0.34759749	-138.40466	0.77088719	-19.615523	
	0.77249571	-19.210108	0.34759749	-138.40466	0.36534746	43.809515	0.34874726	41.672318	
	0.34792573	-138.56851	0.77088719	-19.615523	0.34874726	41.672318	0.37194852	43.877149	
	
0.112096419187261	0.36985037	43.270968	0.35289583	41.129215	0.76722692	-19.337321	0.35225034	-139.19793	
	0.35289583	41.129215	0.37563209	43.147749	0.35226703	-139.09429	0.76538673	-19.798367	
	0.76722692	-19.337321	0.35226703	-139.09429	0.36918088	43.330795	0.35348807	41.012033	
	0.35225034	-139.19793	0.76538673	-19.798367	0.35348807	41.012033	0.37603361	43.288115	
	
0.114685915994083	0.37367185	42.478467	0.35656714	40.506099	0.76238448	-19.442161	0.35589749	-139.87324	
	0.35656714	40.506099	0.37888209	42.46709	0.35556641	-139.82688	0.76032422	-19.903437	
	0.76238448	-19.442161	0.35556641	-139.82688	0.37332197	42.731008	0.35693051	40.309801	
	0.35589749	-139.87324	0.76032422	-19.903437	0.35693051	40.309801	0.3800525	42.661787	
	
0.117335231783182	0.37644013	41.981303	0.3595363	39.823337	0.75723739	-19.586372	0.35872637	-140.41974	
	0.3595363	39.823337	0.38324858	41.892004	0.35868717	-140.46953	0.75551081	-20.069918	
	0.75723739	-19.586372	0.35868717	-140.46953	0.37701048	42.117743	0.35991521	39.744571	
	0.35872637	-140.41974	0.75551081	-20.069918	0.35991521	39.744571	0.3829223	42.180035	
	
0.120045748410147	0.38122357	41.357541	0.36267862	39.14318	0.7519284	-19.656851	0.36232674	-141.17776	
	0.36267862	39.14318	0.38583365	41.283396	0.36195152	-141.17124	0.74932209	-20.128066	
	0.7519284	-19.656851	0.36195152	-141.17124	0.38049299	41.392512	0.36303068	39.110929	
	0.36232674	-141.17776	0.74932209	-20.128066	0.36303068	39.110929	0.38754406	41.315764	
	
0.122818879652292	0.38498042	40.82383	0.36682663	38.47079	0.74686513	-19.774666	0.36594051	-141.80493	
	0.36682663	38.47079	0.39044533	40.755591	0.36620839	-141.74461	0.74447785	-20.257617	
	0.74686513	-19.774666	0.36620839	-141.74461	0.38495238	40.949996	0.36759829	38.393237	
	0.36594051	-141.80493	0.74447785	-20.257617	0.36759829	38.393237	0.39118112	40.857713	
	
0.125656071946061	0.38896009	40.143919	0.37072429	37.837744	0.7416347	-19.910029	0.36950513	-142.55199	
	0.37072429	37.837744	0.39389289	40.180417	0.3693041	-142.44331	0.73921132	-20.36103	
	0.7416347	-19.910029	0.3693041	-142.44331	0.38822942	40.236755	0.3707777	37.797287	
	0.36950513	-142.55199	0.73921132	-20.36103	0.3707777	37.797287	0.39562554	40.22551	
	
0.128558805141477	0.39239536	39.629434	0.37380666	37.105476	0.73636073	-20.012977	0.37285516	-143.15132	
	0.37380666	37.105476	0.39781851	39.557562	0.37282586	-143.06357	0.73400903	-20.514411	
	0.73636073	-20.012977	0.37282586	-143.06357	0.39160505	39.620036	0.37412806	37.140938	
	0.37285516	-143.15132	0.73400903	-20.514411	0.37412806	37.140938	0.39775451	39.759028	
	
0.131528593274019	0.39567371	38.994213	0.37718604	36.556928	0.73116014	-20.052631	0.37647991	-143.77479	
	0.37718604	36.556928	0.40130002	39.061318	0.37591853	-143.74988	0.72881815	-20.595558	
	0.73116014	-20.052631	0.37591853	-143.74988	0.3958311	39.052981	0.37778772	36.457566	
	0.37647991	-143.77479	0.72881815	-20.595558	0.37778772	36.457566	0.40150653	39.200575	
	
0.134566985354323	0.39920105	38.373493	0.38004495	35.881456	0.72579616	-20.135136	0.37942759	-144.46634	
	0.38004495	35.881456	0.40474493	38.452122	0.37893786	-144.41997	0.72305954	-20.650042	
	0.72579616	-20.135136	0.37893786	-144.41997	0.39916205	38.515649	0.38046762	35.700588	
	0.37942759	-144.46634	0.72305954	-20.650042	0.38046762	35.700588	0.40571326	38.584937	
	
0.13767556617613	0.40282803	37.838424	0.38316241	35.268749	0.72085328	-20.204249	0.38187002	-145.22649	
	0.38316241	35.268749	0.4083445	37.822025	0.38255967	-145.106	0.71803949	-20.6747	
	0.72085328	-20.204249	0.38255967	-145.106	0.40246033	37.943073	0.38413937	35.056214	
	0.38187002	-145.22649	0.71803949	-20.6747	0.38413937	35.056214	0.40899585	37.984936	
	
0.140855957142902	0.40529064	37.305481	0.3865767	34.669562	0.71619389	-20.261025	0.38529567	-145.83915	
	0.3865767	34.669562	0.41223567	37.188567	0.38502752	-145.72513	0.71252201	-20.772381	
	0.71619389	-20.261025	0.38502752	-145.72513	0.40549983	37.35387	0.38664489	34.370164	
	0.38529567	-145.83915	0.71252201	-20.772381	0.38664489	34.370164	0.41298781	37.33691	
	
0.144109817113524	0.40945886	36.615618	0.38943816	33.937234	0.71042048	-20.314616	0.3884358	-146.44391	
	0.38943816	33.937234	0.4149111	36.693213	0.38768928	-146.40022	0.70717051	-20.824381	
	0.71042048	-20.314616	0.38768928	-146.40022	0.40870314	36.762774	0.39002221	33.78417	
	0.3884358	-146.44391	0.70717051	-20.824381	0.39002221	33.78417	0.41634095	36.764565	
	
0.147438843267552	0.41239841	36.210396	0.39274976	33.235785	0.70531808	-20.367133	0.39189928	-147.05442	
	0.39274976	33.235785	0.41840553	36.056446	0.39124833	-147.07238	0.70200989	-20.89724	
	0.70531808	-20.367133	0.39124833	-147.07238	0.41215336	36.33838	0.39253538	33.19873	
	0.39189928	-147.05442	0.70200989	-20.89724	0.39253538	33.19873	0.41930481	36.248384	
	
0.150844771990442	0.4157689	35.488379	0.39505372	32.667892	0.70057414	-20.393994	0.39455761	-147.71126	
	0.39505372	32.667892	0.42183329	35.567665	0.39362516	-147.66695	0.69675033	-20.914473	
	0.70057414	-20.393994	0.39362516	-147.66695	0.41503744	35.607735	0.39555062	32.531113	
	0.39455761	-147.71126	0.69675033	-20.914473	0.39555062	32.531113	0.42201494	35.703339	
	
0.154329379779229	0.41876735	34.995352	0.39750813	32.006373	0.6950627	-20.417147	0.39671409	-148.41055	
	0.39750813	32.006373	0.42501851	34.945429	0.39702339	-148.38928	0.69193128	-20.932446	
	0.6950627	-20.417147	0.39702339	-148.38928	0.41865045	35.141613	0.39852806	31.903376	
	0.39671409	-148.41055	0.69193128	-20.932446	0.39852806	31.903376	0.42516186	35.089066	
	
0.157894484169135	0.42186184	34.509919	0.40123625	31.390749	0.69083746	-20.430435	0.40021971	-149.02002	
	0.40123625	31.390749	0.42803159	34.430197	0.39984013	-148.99236	0.68714614	-21.00442	
	0.69083746	-20.430435	0.39984013	-148.99236	0.42149723	34.691179	0.4015081	31.210327	
	0.40021971	-149.02002	0.68714614	-21.00442	0.4015081	31.210327	0.4286481	34.590022	
	
0.16154194468157	0.42424873	33.934498	0.40494683	30.764225	0.68486434	-20.437822	0.40275195	-149.62346	
	0.40494683	30.764225	0.43117044	33.958077	0.40230925	-149.57472	0.68235004	-21.095276	
	0.68486434	-20.437822	0.40230925	-149.57472	0.42434638	34.067454	0.40415562	30.754682	
	0.40275195	-149.62346	0.68235004	-21.095276	0.40415562	30.754682	0.43147106	33.914975	
	
0.165273663794043	0.4269454	33.481212	0.40660027	30.128616	0.68014615	-20.460589	0.4052142	-150.29777	
	0.40660027	30.128616	0.43423338	33.375571	0.40507539	-150.22919	0.67705637	-21.001359	
	0.68014615	-20.460589	0.40507539	-150.22919	0.42700553	33.484017	0.40663371	30.027816	
	0.4052142	-150.29777	0.67705637	-21.001359	0.40663371	30.027816	0.43461484	33.490074	
	
0.169091587932473	0.43060898	32.981065	0.4092649	29.525939	0.67572546	-20.456893	0.40722898	-150.90397	
	0.4092649	29.525939	0.43743365	32.953658	0.40777008	-150.90178	0.67184757	-21.029452	
	0.67572546	-20.456893	0.40777008	-150.90178	0.4308124	32.966217	0.40902425	29.432267	
	0.40722898	-150.90397	0.67184757	-21.029452	0.40902425	29.432267	0.43708297	32.973014	
	
0.172997708486424	0.4329312	32.358412	0.41160585	28.941522	0.67127829	-20.469268	0.4104263	-151.56537	
	0.41160585	28.941522	0.43946402	32.351965	0.41000417	-151.40626	0.6670702	-21.064093	
	0.67127829	-20.469268	0.41000417	-151.40626	0.43310651	32.440688	0.41181225	28.807438	
	0.4104263	-151.56537	0.6670702	-21.064093	0.41181225	28.807438	0.43966685	32.382426	
	
0.176994062847797	0.43591866	31.872286	0.41418771	28.292693	0.66611375	-20.430358	0.41310964	-152.17904	
	0.41418771	28.292693	0.44272362	31.877259	0.41257253	-152.07366	0.66204361	-20.970248	
	0.66611375	-20.430358	0.41257253	-152.07366	0.43558417	32.004161	0.41444164	28.136931	
	0.41310964	-152.17904	0.66204361	-20.970248	0.41444164	28.136931	0.44205285	31.988282	
	
0.181082735473506	0.43813433	31.412078	0.41614417	27.713987	0.66179894	-20.421196	0.41508636	-152.75852	
	0.41614417	27.713987	0.44509955	31.30009	0.41485808	-152.6942	0.65753429	-20.978224	
	0.66179894	-20.421196	0.41485808	-152.6942	0.43755175	31.452049	0.41661221	27.563531	
	0.41508636	-152.75852	0.65753429	-20.978224	0.41661221	27.563531	0.44581424	31.440287	
	
0.185265858972714	0.44077223	30.915027	0.41863033	27.080584	0.65684728	-20.408258	0.41753217	-153.34623	
	0.41863033	27.080584	0.44794841	30.766439	0.41762395	-153.30418	0.65326562	-20.983281	
	0.65684728	-20.408258	0.41762395	-153.30418	0.44056827	30.927558	0.41915809	26.984868	
	0.41753217	-153.34623	0.65326562	-20.983281	0.41915809	26.984868	0.44775275	30.94698	
	
0.18954561521918	0.44333118	30.373973	0.420956	26.612559	0.65253094	-20.379011	0.42015354	-153.99275	
	0.420956	26.612559	0.45080861	30.35816	0.41960207	-153.93361	0.64813536	-20.916284	
	0.65253094	-20.379011	0.41960207	-153.93361	0.44283772	30.46303	0.42172238	26.429232	
	0.42015354	-153.99275	0.64813536	-20.916284	0.42172238	26.429232	0.45001616	30.478896	
	
0.193924236489297	0.4464411	29.871524	0.42273311	25.932169	0.6478884	-20.35501	0.42155806	-154.53082	
	0.42273311	25.932169	0.45240116	29.816411	0.42198445	-154.52355	0.64402499	-20.872399	
	0.6478884	-20.35501	0.42198445	-154.52355	0.44525543	29.956192	0.42346179	25.817633	
	0.42155806	-154.53082	0.64402499	-20.872399	0.42346179	25.817633	0.45343672	29.895518	
	
0.19840400662643	0.4473636	29.449243	0.42492521	25.29815	0.64357066	-20.293286	0.42439624	-155.16796	
	0.42492521	25.29815	0.45533312	29.397818	0.423786	-155.14575	0.63936018	-20.862918	
	0.64357066	-20.293286	0.423786	-155.14575	0.44729958	29.465511	0.42608948	25.167941	
	0.42439624	-155.16796	0.63936018	-20.862918	0.42608948	25.167941	0.45616158	29.346033	
	
0.202987262232139	0.45042227	28.923582	0.42703203	24.708054	0.63947767	-20.228004	0.42613712	-155.77722	
	0.42703203	24.708054	0.45823422	28.889346	0.42583014	-155.75136	0.63457425	-20.806355	
	0.63947767	-20.228004	0.42583014	-155.75136	0.4502045	28.958513	0.42763386	24.670733	
	0.42613712	-155.77722	0.63457425	-20.806355	0.42763386	24.670733	0.45839062	28.923112	
	
0.207676393884933	0.45228209	28.482047	0.4293088	24.184984	0.6350798	-20.177861	0.4280426	-156.41352	
	0.4293088	24.184984	0.46014392	28.346181	0.42775941	-156.34935	0.63043427	-20.734021	
	0.6350798	-20.177861	0.42775941	-156.34935	0.45201764	28.549013	0.42940315	24.032122	
	0.4280426	-156.41352	0.63043427	-20.734021	0.42940315	24.032122	0.46061485	28.510758	
	
0.212473847387164	0.45486323	28.015942	0.43110265	23.605709	0.63141663	-20.103317	0.42954052	-156.91977	
	0.43110265	23.605709	0.46196236	27.87984	0.42950611	-156.88405	0.62640027	-20.667909	
	0.63141663	-20.103317	0.42950611	-156.88405	0.45451236	28.072253	0.43135608	23.518703	
	0.42954052	-156.91977	0.62640027	-20.667909	0.43135608	23.518703	0.46240776	28.084399	
	
0.217382125040737	0.45664743	27.613584	0.43277569	23.028881	0.62739931	-20.061088	0.43205642	-157.49889	
	0.43277569	23.028881	0.46478253	27.456668	0.43130201	-157.44213	0.62224086	-20.594213	
	0.62739931	-20.061088	0.43130201	-157.44213	0.45617352	27.650417	0.43385652	22.931486	
	0.43205642	-157.49889	0.62224086	-20.594213	0.43385652	22.931486	0.46459868	27.58701	
	
0.222403786952283	0.45937329	27.137366	0.43444273	22.464785	0.62353839	-19.970858	0.43352689	-158.05726	
	0.43444273	22.464785	0.46677585	27.01129	0.432864	-158.05048	0.61831872	-20.52561	
	0.62353839	-19.970858	0.432864	-158.05048	0.45849992	27.190647	0.43486035	22.294655	
	0.43352689	-158.05726	0.61831872	-20.52561	0.43486035	22.294655	0.4660648	27.104891	
	
0.227541452368483	0.46159101	26.695794	0.43615797	21.901205	0.61928436	-19.887926	0.43551931	-158.61639	
	0.43615797	21.901205	0.46933042	26.650203	0.43472195	-158.51158	0.61426229	-20.483355	
	0.61928436	-19.887926	0.43472195	-158.51158	0.45997087	26.710283	0.43671879	21.839778	
	0.43551931	-158.61639	0.61426229	-20.483355	0.43671879	21.839778	0.46887265	26.703022	
	
0.232797801042241	0.46311066	26.283094	0.43786741	21.379258	0.61560291	-19.791788	0.43642715	-159.15491	
	0.43786741	21.379258	0.47077768	26.199742	0.43684221	-159.12144	0.61037445	-20.407388	
	0.61560291	-19.791788	0.43684221	-159.12144	0.46244004	26.370614	0.43845332	21.233947	
	0.43642715	-159.15491	0.61037445	-20.407388	0.43845332	21.233947	0.47098019	26.276636	
	
0.238175574630416	0.46492061	25.866	0.43934079	20.844775	0.6119414	-19.699503	0.43859711	-159.67276	
	0.43934079	20.844775	0.47218124	25.709681	0.43786385	-159.67017	0.60628819	-20.296509	
	0.6119414	-19.699503	0.43786385	-159.67017	0.46449255	25.873718	0.43981115	20.710336	
	0.43859711	-159.67276	0.60628819	-20.296509	0.43981115	20.710336	0.47254859	25.83753	
	
0.24367757812384	0.4669861	25.425918	0.44116737	20.319393	0.6085136	-19.658172	0.43986861	-160.24456	
	0.44116737	20.319393	0.47388265	25.262122	0.43949813	-160.19386	0.60273543	-20.222834	
	0.6085136	-19.658172	0.43949813	-160.19386	0.46598844	25.479158	0.44095949	20.157408	
	0.43986861	-160.24456	0.60273543	-20.222834	0.44095949	20.157408	0.47417134	25.480244	
	
0.249306681310373	0.46892386	25.006846	0.44263097	19.840243	0.60460787	-19.568461	0.44122404	-160.74993	
	0.44263097	19.840243	0.47648856	24.931551	0.44108582	-160.77705	0.59885981	-20.124109	
	0.60460787	-19.568461	0.44108582	-160.77705	0.46911962	25.151236	0.44267192	19.692323	
	0.44122404	-160.74993	0.59885981	-20.124109	0.44267192	19.692323	0.476656	25.062563	
	
0.255065820271756	0.46983549	24.706803	0.44390795	19.283363	0.60109834	-19.478809	0.44283572	-161.31467	
	0.44390795	19.283363	0.47861822	24.536214	0.44231268	-161.2965	0.59565087	-20.014183	
	0.60109834	-19.478809	0.44231268	-161.2965	0.4692005	24.69947	0.44462983	19.141372	
	0.44283572	-161.31467	0.59565087	-20.014183	0.44462983	19.141372	0.47795085	24.684332	
	
0.260957998915036	0.4718864	24.187655	0.44500774	18.785482	0.59751659	-19.372937	0.44361562	-161.87006	
	0.44500774	18.785482	0.47999198	24.147805	0.44372261	-161.8436	0.59197787	-19.93664	
	0.59751659	-19.372937	0.44372261	-161.8436	0.47140168	24.316597	0.44557832	18.644221	
	0.44361562	-161.87006	0.59197787	-19.93664	0.44557832	18.644221	0.47973473	24.256952	
	
0.266986290539378	0.4731734	23.878131	0.44652	18.230848	0.59482751	-19.256979	0.44484486	-162.4118	
	0.44652	18.230848	0.48113192	23.819671	0.44530386	-162.36943	0.58887402	-19.859495	
	0.59482751	-19.256979	0.44530386	-162.36943	0.47349785	23.877255	0.44661645	18.147609	
	0.44484486	-162.4118	0.58887402	-19.859495	0.44661645	18.147609	0.4811517	23.896904	
	
0.273153839439064	0.47524867	23.55589	0.44781189	17.722188	0.59177161	-19.177541	0.44663605	-162.91327	
	0.44781189	17.722188	0.48274939	23.382367	0.44666367	-162.83159	0.58519872	-19.713441	
	0.59177161	-19.177541	0.44666367	-162.83159	0.47468235	23.561738	0.44779697	17.657133	
	0.44663605	-162.91327	0.58519872	-19.713441	0.44779697	17.657133	0.4830152	23.52237	
	
0.279463862543524	0.47652821	23.047627	0.44870232	17.245878	0.5887715	-19.09687	0.44689909	-163.34179	
	0.44870232	17.245878	0.48556484	23.024654	0.4475879	-163.40283	0.58140233	-19.653294	
	0.5887715	-19.09687	0.4475879	-163.40283	0.47645682	23.162913	0.44865887	17.137968	
	0.44689909	-163.34179	0.58140233	-19.653294	0.44865887	17.137968	0.48460769	23.136047	
	
0.285919651095252	0.47844971	22.826365	0.45008434	16.726988	0.58512367	-18.970745	0.448588	-163.89387	
	0.45008434	16.726988	0.48584483	22.711007	0.44853681	-163.88646	0.57901674	-19.509387	
	0.58512367	-18.970745	0.44853681	-163.88646	0.47807797	22.850608	0.4500509	16.620462	
	0.448588	-163.89387	0.57901674	-19.509387	0.4500509	16.620462	0.48616227	22.804448	
	
0.292524572366485	0.48017827	22.433473	0.45110504	16.278714	0.58201901	-18.872236	0.44928032	-164.44888	
	0.45110504	16.278714	0.48818024	22.385267	0.44957645	-164.44513	0.57568551	-19.425821	
	0.58201901	-18.872236	0.44957645	-164.44513	0.48022635	22.582015	0.45126963	16.085739	
	0.44928032	-164.44888	0.57568551	-19.425821	0.45126963	16.085739	0.48853623	22.510734	
	
0.299282071415539	0.48143683	22.175706	0.45151124	15.824699	0.57925595	-18.741956	0.45058374	-164.97272	
	0.45151124	15.824699	0.4886687	22.098272	0.45013592	-164.88391	0.57302425	-19.294234	
	0.57925595	-18.741956	0.45013592	-164.88391	0.48097748	22.275722	0.45189927	15.538544	
	0.45058374	-164.97272	0.57302425	-19.294234	0.45189927	15.538544	0.48955871	22.167733	
	
0.30619567288371	0.48310693	21.843466	0.45260036	15.302226	0.57647642	-18.655495	0.45137044	-165.43481	
	0.45260036	15.302226	0.49048624	21.735026	0.45100291	-165.35744	0.57061377	-19.174843	
	0.57647642	-18.655495	0.45100291	-165.35744	0.48195975	21.942603	0.45266615	15.136751	
	0.45137044	-165.43481	0.57061377	-19.174843	0.45266615	15.136751	0.49083019	21.821355	
	
0.313268982833699	0.48434016	21.525845	0.45411754	14.900833	0.57357402	-18.557396	0.45283288	-165.87789	
	0.45411754	14.900833	0.49142622	21.332278	0.45293813	-165.85061	0.5674759	-19.073225	
	0.57357402	-18.557396	0.45293813	-165.85061	0.48426679	21.579494	0.45459648	14.727131	
	0.45283288	-165.87789	0.5674759	-19.073225	0.45459648	14.727131	0.49226674	21.535113	
	
0.320505690630487	0.48488694	21.156153	0.45512488	14.453812	0.57090641	-18.412012	0.45432896	-166.28021	
	0.45512488	14.453812	0.49351244	20.974561	0.45366869	-166.29905	0.5643919	-18.996007	
	0.57090641	-18.412012	0.45366869	-166.29905	0.48507981	21.202313	0.45581776	14.257902	
	0.45432896	-166.28021	0.5643919	-18.996007	0.45581776	14.257902	0.49403069	21.096584	
	
0.327909570865677	0.48647256	20.818716	0.45630293	13.928864	0.56788129	-18.336317	0.45534663	-166.79547	
	0.45630293	13.928864	0.49403778	20.608797	0.45462638	-166.7026	0.56151322	-18.866396	
	0.56788129	-18.336317	0.45462638	-166.7026	0.48549142	20.885928	0.45649152	13.868789	
	0.45534663	-166.79547	0.56151322	-18.866396	0.45649152	13.868789	0.49410272	20.809526	
	
0.335484485326279	0.48771927	20.503513	0.45678263	13.561216	0.56571082	-18.241381	0.45553466	-167.27764	
	0.45678263	13.561216	0.49576297	20.384779	0.45556404	-167.13582	0.55900353	-18.71629	
