# MHz S MA R 50

0.1	0.31899845	48.560299	0.31894481	49.717581	0.82005561	-17.274065	0.31664823	-130.73785	
	0.31894481	49.717581	0.31793936	48.748005	0.31722433	-130.7969	0.82113232	-17.247128	
	0.82005561	-17.274065	0.31722433	-130.7969	0.3214872	48.800205	0.31988554	49.539369	
	0.31664823	-130.73785	0.82113232	-17.247128	0.31988554	49.539369	0.31877645	48.684461	
	
0.102310062021247	0.32421596	48.007617	0.32336052	49.075773	0.81472295	-17.451302	0.32110084	-131.5045	
	0.32336052	49.075773	0.32194025	48.003556	0.32072665	-131.45157	0.81557692	-17.424594	
	0.81472295	-17.451302	0.32072665	-131.45157	0.32466447	48.154205	0.32371123	48.998608	
	0.32110084	-131.5045	0.81557692	-17.424594	0.32371123	48.998608	0.32366037	48.103091	
	
0.104673487907914	0.32905737	47.381967	0.32781236	48.42457	0.80939088	-17.630197	0.32579103	-132.15335	
	0.32781236	48.42457	0.32644076	47.284757	0.32485898	-132.08444	0.81102478	-17.600512	
	0.80939088	-17.630197	0.32485898	-132.08444	0.32884322	47.51385	0.32814925	48.308	
	0.32579103	-132.15335	0.81102478	-17.600512	0.32814925	48.308	0.32739767	47.552701	
	
0.107091510398389	0.3333368	46.77392	0.33212882	47.807828	0.80468321	-17.817888	0.32896664	-132.70608	
	0.33212882	47.807828	0.33050447	46.70697	0.329296	-132.72201	0.80637556	-17.750301	
	0.80468321	-17.817888	0.329296	-132.72201	0.33327925	46.928605	0.33206534	47.653486	
	0.32896664	-132.70608	0.80637556	-17.750301	0.33206534	47.653486	0.33157756	46.890971	
	
0.109565390708082	0.33744416	46.273232	0.33648203	47.10192	0.79948772	-17.958314	0.33334595	-133.47445	
	0.33648203	47.10192	0.33514536	46.034962	0.33337682	-133.34139	0.80103722	-17.912994	
	0.79948772	-17.958314	0.33337682	-133.34139	0.33670069	46.332228	0.3359801	46.993667	
	0.33334595	-133.47445	0.80103722	-17.912994	0.3359801	46.993667	0.3355972	46.291081	
	
0.112096419187261	0.34162609	45.632353	0.34073805	46.505566	0.79416588	-18.122308	0.33784557	-134.04957	
	0.34073805	46.505566	0.33918362	45.563347	0.33782278	-133.93812	0.79575352	-18.103582	
	0.79416588	-18.122308	0.33782278	-133.93812	0.34055865	45.740693	0.34100955	46.414013	
	0.33784557	-134.04957	0.79575352	-18.103582	0.34100955	46.414013	0.3398696	45.660301	
	
0.114685915994083	0.34506023	44.853278	0.34431018	45.830236	0.78947441	-18.256694	0.3416988	-134.70268	
	0.34431018	45.830236	0.34276162	44.74259	0.34187559	-134.67344	0.79070278	-18.214424	
	0.78947441	-18.256694	0.34187559	-134.67344	0.34460363	45.0737	0.3450197	45.719294	
	0.3416988	-134.70268	0.79070278	-18.214424	0.3450197	45.719294	0.34399374	44.967809	
	
0.117335231783182	0.34889114	44.217721	0.34812306	45.232225	0.78392046	-18.420838	0.34547058	-135.27837	
	0.34812306	45.232225	0.34699602	44.188046	0.34508313	-135.34037	0.78567677	-18.397684	
	0.78392046	-18.420838	0.34508313	-135.34037	0.34876576	44.412766	0.34869646	45.153372	
	0.34547058	-135.27837	0.78567677	-18.397684	0.34869646	45.153372	0.34757426	44.44425	
	
0.120045748410147	0.35305065	43.55513	0.35200219	44.558083	0.77915677	-18.499107	0.34937556	-135.98176	
	0.35200219	44.558083	0.35024206	43.628617	0.34882516	-136.00874	0.78016969	-18.464136	
	0.77915677	-18.499107	0.34882516	-136.00874	0.35294104	43.762713	0.35167512	44.577135	
	0.34937556	-135.98176	0.78016969	-18.464136	0.35167512	44.577135	0.35173515	43.701717	
	
0.122818879652292	0.35699443	43.03923	0.35624382	43.975072	0.77383584	-18.663947	0.35348595	-136.61194	
	0.35624382	43.975072	0.3544118	43.003715	0.35347855	-136.54005	0.774997	-18.619384	
	0.77383584	-18.663947	0.35347855	-136.54005	0.35760576	43.114665	0.35695521	43.858227	
	0.35348595	-136.61194	0.774997	-18.619384	0.35695521	43.858227	0.35586178	43.075465	
	
0.125656071946061	0.36111463	42.3346	0.36048306	43.353118	0.76843275	-18.7946	0.35719042	-137.30046	
	0.36048306	43.353118	0.35821459	42.363468	0.35710657	-137.22789	0.76957227	-18.751418	
	0.76843275	-18.7946	0.35710657	-137.22789	0.36121479	42.375025	0.36062099	43.315207	
	0.35719042	-137.30046	0.76957227	-18.751418	0.36062099	43.315207	0.3598813	42.406328	
	
0.128558805141477	0.36456535	41.71705	0.36379926	42.691923	0.76280136	-18.909969	0.36099478	-137.88144	
	0.36379926	42.691923	0.36271665	41.718175	0.36042044	-137.83599	0.76453031	-18.869024	
	0.76280136	-18.909969	0.36042044	-137.83599	0.36467962	41.856224	0.36419344	42.680083	
	0.36099478	-137.88144	0.76453031	-18.869024	0.36419344	42.680083	0.36300726	41.816692	
	
0.131528593274019	0.36842915	41.066174	0.36818246	42.043967	0.75754106	-19.003527	0.36495683	-138.50142	
	0.36818246	42.043967	0.3660221	41.133281	0.3645918	-138.56597	0.75863767	-18.954761	
	0.75754106	-19.003527	0.3645918	-138.56597	0.368163	41.152571	0.36821475	41.977634	
	0.36495683	-138.50142	0.75863767	-18.954761	0.36821475	41.977634	0.36635667	41.288022	
	
0.134566985354323	0.3723695	40.324678	0.3713211	41.417416	0.75211025	-19.079107	0.36833912	-139.24267	
	0.3713211	41.417416	0.37036866	40.391425	0.3683679	-139.16478	0.75363637	-19.068535	
	0.75211025	-19.079107	0.3683679	-139.16478	0.37290059	40.495349	0.37169824	41.304532	
	0.36833912	-139.24267	0.75363637	-19.068535	0.37169824	41.304532	0.37088715	40.609535	
	
0.13767556617613	0.37554047	39.803669	0.37471561	40.870309	0.74681992	-19.19081	0.37149906	-139.89723	
	0.37471561	40.870309	0.37375222	39.753617	0.37232213	-139.82339	0.74838716	-19.145353	
	0.74681992	-19.19081	0.37232213	-139.82339	0.37554065	39.908584	0.37552673	40.636831	
	0.37149906	-139.89723	0.74838716	-19.145353	0.37552673	40.636831	0.37443339	39.857671	
	
0.140855957142902	0.37845817	39.103692	0.37854388	40.242626	0.74175742	-19.232703	0.37535144	-140.60053	
	0.37854388	40.242626	0.37764448	39.001643	0.37525837	-140.42365	0.74264186	-19.252102	
	0.74175742	-19.232703	0.37525837	-140.42365	0.37948228	39.203412	0.37881219	39.991321	
	0.37535144	-140.60053	0.74264186	-19.252102	0.37881219	39.991321	0.37856754	39.227995	
	
0.144109817113524	0.3831525	38.449864	0.38196196	39.584587	0.73591273	-19.316308	0.37894527	-141.11437	
	0.38196196	39.584587	0.38096465	38.502392	0.37857432	-141.11524	0.73745326	-19.281953	
	0.73591273	-19.316308	0.37857432	-141.11524	0.38275424	38.605831	0.38219386	39.445067	
	0.37894527	-141.11437	0.73745326	-19.281953	0.38219386	39.445067	0.38209483	38.710766	
	
0.147438843267552	0.38658043	37.865314	0.38581909	38.895146	0.73041788	-19.392322	0.38240392	-141.71742	
	0.38581909	38.895146	0.38409791	37.871113	0.38227451	-141.7409	0.73186311	-19.392655	
	0.73041788	-19.392322	0.38227451	-141.7409	0.38611613	38.06362	0.38594662	38.807718	
	0.38240392	-141.71742	0.73186311	-19.392655	0.38594662	38.807718	0.38516759	38.063969	
	
0.150844771990442	0.39028482	37.158801	0.38882188	38.299795	0.72526335	-19.423458	0.385776	-142.39374	
	0.38882188	38.299795	0.38796384	37.18645	0.38526024	-142.381	0.726585	-19.387883	
	0.72526335	-19.423458	0.38526024	-142.381	0.38970806	37.276184	0.3890189	38.235454	
	0.385776	-142.39374	0.726585	-19.387883	0.3890189	38.235454	0.38845197	37.406862	
	
0.154329379779229	0.39341421	36.536425	0.39209641	37.713697	0.71980044	-19.46288	0.38876525	-143.08452	
	0.39209641	37.713697	0.39142194	36.583563	0.38918702	-143.05692	0.72095254	-19.440398	
	0.71980044	-19.46288	0.38918702	-143.05692	0.39350041	36.795524	0.39256836	37.603574	
	0.38876525	-143.08452	0.72095254	-19.440398	0.39256836	37.603574	0.39195647	36.743688	
	
0.157894484169135	0.39677689	36.040654	0.39572542	37.05769	0.71476696	-19.500805	0.39255487	-143.65999	
	0.39572542	37.05769	0.39508291	36.00822	0.3928141	-143.62299	0.7164061	-19.507883	
	0.71476696	-19.500805	0.3928141	-143.62299	0.39656678	36.128761	0.39617246	36.928034	
	0.39255487	-143.65999	0.7164061	-19.507883	0.39617246	36.928034	0.39523472	36.184596	
	
0.16154194468157	0.40032438	35.389728	0.39979133	36.492645	0.70872235	-19.576873	0.39573405	-144.30478	
	0.39979133	36.492645	0.39800796	35.495905	0.39552839	-144.23553	0.71146993	-19.591431	
	0.70872235	-19.576873	0.39552839	-144.23553	0.39923538	35.520457	0.39953568	36.469135	
	0.39573405	-144.30478	0.71146993	-19.591431	0.39953568	36.469135	0.39841752	35.434196	
	
0.165273663794043	0.40320007	34.794901	0.40263712	35.861985	0.7038939	-19.593993	0.39892494	-144.94072	
	0.40263712	35.861985	0.40151141	34.768963	0.39860525	-144.83795	0.70552789	-19.576144	
	0.7038939	-19.593993	0.39860525	-144.83795	0.40284371	34.879291	0.40230073	35.78071	
	0.39892494	-144.94072	0.70552789	-19.576144	0.40230073	35.78071	0.4013905	34.965304	
	
0.169091587932473	0.40609778	34.287391	0.40510174	35.226633	0.69844243	-19.578067	0.40169078	-145.52548	
	0.40510174	35.226633	0.40436175	34.198761	0.4015042	-145.52991	0.70021172	-19.571055	
	0.69844243	-19.578067	0.4015042	-145.52991	0.40623907	34.285848	0.40535219	35.161617	
	0.40169078	-145.52548	0.70021172	-19.571055	0.40535219	35.161617	0.40501719	34.274634	
	
0.172997708486424	0.40933552	33.559432	0.40841931	34.712158	0.69372949	-19.594559	0.40442413	-146.14608	
	0.40841931	34.712158	0.40707378	33.485227	0.40441438	-146.05468	0.69478728	-19.597059	
	0.69372949	-19.594559	0.40441438	-146.05468	0.40926185	33.611413	0.40834315	34.561816	
	0.40442413	-146.14608	0.69478728	-19.597059	0.40834315	34.561816	0.40748237	33.718996	
	
0.176994062847797	0.41221154	32.998933	0.41146066	34.036119	0.68833103	-19.570708	0.40830861	-146.80099	
	0.41146066	34.036119	0.41066484	32.943315	0.40764984	-146.68547	0.68972104	-19.563668	
	0.68833103	-19.570708	0.40764984	-146.68547	0.41271207	33.127339	0.41183044	33.973627	
	0.40830861	-146.80099	0.68972104	-19.563668	0.41183044	33.973627	0.41023395	33.079852	
	
0.181082735473506	0.41497796	32.429001	0.41398704	33.507684	0.68331659	-19.568472	0.41065345	-147.38458	
	0.41398704	33.507684	0.41322795	32.364394	0.4102614	-147.32109	0.68488288	-19.540589	
	0.68331659	-19.568472	0.4102614	-147.32109	0.41439225	32.468174	0.41463702	33.320346	
	0.41065345	-147.38458	0.68488288	-19.540589	0.41463702	33.320346	0.41376337	32.588109	
	
0.185265858972714	0.41762342	31.825698	0.41711545	32.90029	0.67803751	-19.55812	0.41310832	-147.94439	
	0.41711545	32.90029	0.41582275	31.776022	0.41376623	-147.87774	0.67984237	-19.534648	
	0.67803751	-19.55812	0.41376623	-147.87774	0.41756621	31.900075	0.41734183	32.843608	
	0.41310832	-147.94439	0.67984237	-19.534648	0.41734183	32.843608	0.41621695	31.932512	
	
0.18954561521918	0.4203877	31.223349	0.42012128	32.407882	0.6730692	-19.524926	0.41651727	-148.55378	
	0.42012128	32.407882	0.41903194	31.235074	0.4162562	-148.45518	0.67511219	-19.499873	
	0.6730692	-19.524926	0.4162562	-148.45518	0.42023314	31.311325	0.42048406	32.245344	
	0.41651727	-148.55378	0.67511219	-19.499873	0.42048406	32.245344	0.41832196	31.374893	
	
0.193924236489297	0.42370709	30.611388	0.42191378	31.756778	0.66805492	-19.475174	0.41843363	-149.12687	
	0.42191378	31.756778	0.4213469	30.5774	0.41928664	-149.07113	0.66982256	-19.449545	
	0.66805492	-19.475174	0.41928664	-149.07113	0.4232802	30.736933	0.42296789	31.6199	
	0.41843363	-149.12687	0.66982256	-19.449545	0.42296789	31.6199	0.42158031	30.748399	
	
0.19840400662643	0.42530409	30.050036	0.42503425	31.15858	0.66329253	-19.412446	0.42209868	-149.76398	
	0.42503425	31.15858	0.42369178	30.066326	0.42163458	-149.7303	0.6644672	-19.407482	
	0.66329253	-19.412446	0.42163458	-149.7303	0.42567283	30.076188	0.42610125	31.071711	
	0.42209868	-149.76398	0.6644672	-19.407482	0.42610125	31.071711	0.42415933	30.096883	
	
0.202987262232139	0.42852615	29.535983	0.42744728	30.638411	0.65854931	-19.338559	0.42404996	-150.30315	
	0.42744728	30.638411	0.42769214	29.578668	0.42371096	-150.27671	0.66006662	-19.366489	
	0.65854931	-19.338559	0.42371096	-150.27671	0.42815636	29.492485	0.42795705	30.567107	
	0.42404996	-150.30315	0.66006662	-19.366489	0.42795705	30.567107	0.42716232	29.605146	
	
0.207676393884933	0.43039624	28.886383	0.43046603	30.056533	0.65370626	-19.299813	0.42640966	-150.92251	
	0.43046603	30.056533	0.42924092	28.953283	0.42642581	-150.85678	0.65527463	-19.27309	
	0.65370626	-19.299813	0.42642581	-150.85678	0.43031006	28.959321	0.43018543	29.942196	
	0.42640966	-150.92251	0.65527463	-19.27309	0.43018543	29.942196	0.42945376	29.130774	
	
0.212473847387164	0.43332649	28.332362	0.43227964	29.561979	0.64919665	-19.18378	0.42831124	-151.47436	
	0.43227964	29.561979	0.43184147	28.338458	0.42835523	-151.39957	0.65079479	-19.185201	
	0.64919665	-19.18378	0.42835523	-151.39957	0.43305847	28.411671	0.43255636	29.45118	
	0.42831124	-151.47436	0.65079479	-19.185201	0.43255636	29.45118	0.43172744	28.524405	
	
0.217382125040737	0.43553852	27.870104	0.43461438	28.979491	0.64466782	-19.143303	0.43138129	-152.02014	
	0.43461438	28.979491	0.43396039	27.897055	0.43078772	-151.97712	0.64644268	-19.094396	
	0.64466782	-19.143303	0.43078772	-151.97712	0.43466419	27.884919	0.43555636	28.865171	
	0.43138129	-152.02014	0.64644268	-19.094396	0.43555636	28.865171	0.4341768	27.88962	
	
0.222403786952283	0.43809545	27.25613	0.43706966	28.434705	0.64030571	-19.046112	0.4334713	-152.55515	
	0.43706966	28.434705	0.43621942	27.280801	0.43315729	-152.5387	0.64176697	-18.980154	
	0.64030571	-19.046112	0.43315729	-152.5387	0.43759813	27.388895	0.43735076	28.275482	
	0.4334713	-152.55515	0.64176697	-18.980154	0.43735076	28.275482	0.4364506	27.404509	
	
0.227541452368483	0.44020139	26.716641	0.43909612	27.960737	0.63546499	-18.934386	0.43545409	-153.09345	
	0.43909612	27.960737	0.43890793	26.729333	0.43489261	-153.04288	0.63731543	-19.004303	
	0.63546499	-18.934386	0.43489261	-153.04288	0.43985065	26.741974	0.43960628	27.810814	
	0.43545409	-153.09345	0.63731543	-19.004303	0.43960628	27.810814	0.43893986	26.853539	
	
0.232797801042241	0.4420467	26.203985	0.441981	27.415419	0.63095882	-18.815996	0.43722935	-153.69038	
	0.441981	27.415419	0.4409303	26.212825	0.43800406	-153.57993	0.63291179	-18.850127	
	0.63095882	-18.815996	0.43800406	-153.57993	0.44205108	26.219333	0.44164732	27.259359	
	0.43722935	-153.69038	0.63291179	-18.850127	0.44164732	27.259359	0.44041227	26.295168	
	
0.238175574630416	0.44443222	25.612997	0.44381532	26.904187	0.62708574	-18.713656	0.43986391	-154.17056	
	0.44381532	26.904187	0.44222849	25.636918	0.43935134	-154.14996	0.62836895	-18.712805	
	0.62708574	-18.713656	0.43935134	-154.14996	0.4443557	25.691989	0.44361381	26.759611	
	0.43986391	-154.17056	0.62836895	-18.712805	0.44361381	26.759611	0.44271831	25.775653	
	
0.24367757812384	0.44685259	25.150755	0.44548717	26.385503	0.62289946	-18.587572	0.44165438	-154.67728	
	0.44548717	26.385503	0.44440812	25.028016	0.44131487	-154.63705	0.62455931	-18.625605	
	0.62289946	-18.587572	0.44131487	-154.63705	0.44604333	25.23438	0.4455674	26.246427	
	0.44165438	-154.67728	0.62455931	-18.625605	0.4455674	26.246427	0.44457157	25.30187	
	
0.249306681310373	0.44867823	24.582202	0.4475716	25.868086	0.61796937	-18.48325	0.44337049	-155.22823	
	0.4475716	25.868086	0.44685072	24.639718	0.44359896	-155.26339	0.62018427	-18.469014	
	0.61796937	-18.48325	0.44359896	-155.26339	0.44834464	24.770185	0.44758679	25.734643	
	0.44337049	-155.22823	0.62018427	-18.469014	0.44758679	25.734643	0.4464918	24.759831	
	
0.255065820271756	0.44995776	24.140245	0.44977617	25.360277	0.61424853	-18.36181	0.44553029	-155.71844	
	0.44977617	25.360277	0.44906925	24.164014	0.44512272	-155.70436	0.61616425	-18.346999	
	0.61424853	-18.36181	0.44512272	-155.70436	0.44964442	24.176137	0.45017704	25.259636	
	0.44553029	-155.71844	0.61616425	-18.346999	0.45017704	25.259636	0.44791896	24.273727	
	
0.260957998915036	0.45212721	23.579056	0.45097905	24.977249	0.6104529	-18.206308	0.44720971	-156.27829	
	0.45097905	24.977249	0.45061728	23.646116	0.4469875	-156.23155	0.61232594	-18.235462	
	0.6104529	-18.206308	0.4469875	-156.23155	0.45187659	23.67554	0.45131811	24.835104	
	0.44720971	-156.27829	0.61232594	-18.235462	0.45131811	24.835104	0.45001761	23.780019	
	
0.266986290539378	0.45360552	23.111246	0.45268378	24.413599	0.60726964	-18.047115	0.44844135	-156.75641	
	0.45268378	24.413599	0.45180412	23.148972	0.44893426	-156.72627	0.6082593	-18.076788	
	0.60726964	-18.047115	0.44893426	-156.72627	0.45367764	23.182203	0.45316485	24.342455	
	0.44844135	-156.75641	0.6082593	-18.076788	0.45316485	24.342455	0.4519967	23.286565	
	
0.273153839439064	0.45560532	22.690178	0.45477589	23.960608	0.60333568	-17.90155	0.45073015	-157.25569	
	0.45477589	23.960608	0.45349637	22.604965	0.45108881	-157.20787	0.60484454	-17.926102	
	0.60333568	-17.90155	0.45108881	-157.20787	0.45526505	22.663718	0.45483827	23.908158	
	0.45073015	-157.25569	0.60484454	-17.926102	0.45483827	23.908158	0.45419835	22.774088	
	
0.279463862543524	0.45722526	22.152803	0.45607865	23.549734	0.59960191	-17.772791	0.45210017	-157.67434	
	0.45607865	23.549734	0.45646786	22.184002	0.45176161	-157.70475	0.60097689	-17.802764	
	0.59960191	-17.772791	0.45176161	-157.70475	0.45698451	22.23227	0.45606328	23.455194	
	0.45210017	-157.67434	0.60097689	-17.802764	0.45606328	23.455194	0.45576483	22.354713	
	
0.285919651095252	0.45878518	21.712048	0.45776522	23.047002	0.59590803	-17.597582	0.45367535	-158.27254	
	0.45776522	23.047002	0.45650287	21.767414	0.45363921	-158.21176	0.59772861	-17.581446	
	0.59590803	-17.597582	0.45363921	-158.21176	0.45825854	21.763459	0.45804276	22.932004	
	0.45367535	-158.27254	0.59772861	-17.581446	0.45804276	22.932004	0.4571966	21.804249	
	
0.292524572366485	0.46055371	21.249421	0.45955427	22.642858	0.59223577	-17.450605	0.45495332	-158.77912	
	0.45955427	22.642858	0.45975191	21.315692	0.45550719	-158.76601	0.59406445	-17.424583	
	0.59223577	-17.450605	0.45550719	-158.76601	0.4604367	21.356767	0.45958228	22.450084	
	0.45495332	-158.77912	0.59406445	-17.424583	0.45958228	22.450084	0.45876105	21.472353	
	
0.299282071415539	0.46156852	20.824105	0.46065396	22.157489	0.58906603	-17.262056	0.45641403	-159.23427	
	0.46065396	22.157489	0.45916893	20.842481	0.4560862	-159.1461	0.59084886	-17.258942	
	0.58906603	-17.262056	0.4560862	-159.1461	0.46169195	20.933057	0.46038695	21.933319	
	0.45641403	-159.23427	0.59084886	-17.258942	0.46038695	21.933319	0.45945759	21.000376	
	
0.30619567288371	0.46315726	20.381189	0.46178911	21.719403	0.58568444	-17.069664	0.45737094	-159.64984	
	0.46178911	21.719403	0.4615079	20.445142	0.45739568	-159.56323	0.58795558	-17.059996	
	0.58568444	-17.069664	0.45739568	-159.56323	0.4626045	20.4655	0.46198672	21.585355	
	0.45737094	-159.64984	0.58795558	-17.059996	0.46198672	21.585355	0.46117869	20.498359	
	
0.313268982833699	0.46466629	19.909932	0.46390993	21.354684	0.58234941	-16.911907	0.45952583	-160.09268	
	0.46390993	21.354684	0.46246781	19.862695	0.45964346	-160.07242	0.58463431	-16.913977	
	0.58234941	-16.911907	0.45964346	-160.07242	0.46460172	19.968141	0.46380782	21.217257	
	0.45952583	-160.09268	0.58463431	-16.913977	0.46380782	21.217257	0.46223543	20.028484	
	
0.320505690630487	0.46517155	19.442448	0.46556128	20.997897	0.57924384	-16.705583	0.46140197	-160.47917	
	0.46556128	20.997897	0.46428897	19.420736	0.46082745	-160.42497	0.58126539	-16.762924	
	0.57924384	-16.705583	0.46082745	-160.42497	0.46609208	19.42457	0.46546054	20.808103	
	0.46140197	-160.47917	0.58126539	-16.762924	0.46546054	20.808103	0.46386168	19.524003	
	
0.327909570865677	0.46658358	18.955368	0.46689417	20.593563	0.57597968	-16.498902	0.46270859	-160.94726	
	0.46689417	20.593563	0.46519791	19.007935	0.4624352	-160.83172	0.57779696	-16.573905	
	0.57597968	-16.498902	0.4624352	-160.83172	0.46628244	19.000932	0.4668332	20.402764	
	0.46270859	-160.94726	0.57779696	-16.573905	0.4668332	20.402764	0.46435697	19.084641	
	
0.335484485326279	0.46804355	18.501778	0.46857188	20.148848	0.57307675	-16.353569	0.46376639	-161.3369	
	0.46857188	20.148848	0.46614188	18.495899	0.46383333	-161.26072	0.57510527	-16.356218	
