# MHz S MA R 50

0.1	0.46866263	21.736018	0.45174121	22.034652	0.58678569	-17.701619	0.44965392	-158.61393	
	0.45174121	22.034652	0.4605968	21.718101	0.45019932	-158.66463	0.59347931	-17.272443	
	0.58678569	-17.701619	0.45019932	-158.66463	0.46925912	21.812093	0.45185463	21.856885	
	0.44965392	-158.61393	0.59347931	-17.272443	0.45185463	21.856885	0.45992907	21.713847	
	
0.102310062021247	0.47037174	21.366391	0.45275915	21.527215	0.58283966	-17.528898	0.45145217	-159.20319	
	0.45275915	21.527215	0.46161152	21.263226	0.45102024	-159.15475	0.58996761	-17.08793	
	0.58283966	-17.528898	0.45102024	-159.15475	0.46956588	21.38642	0.45315423	21.439995	
	0.45145217	-159.20319	0.58996761	-17.08793	0.45315423	21.439995	0.46249364	21.315269	
	
0.104673487907914	0.47209137	20.896809	0.4546272	21.055611	0.57970945	-17.389894	0.45311283	-159.62002	
	0.4546272	21.055611	0.46363562	20.830003	0.452507	-159.57979	0.58707275	-16.920975	
	0.57970945	-17.389894	0.452507	-159.57979	0.47145176	21.012573	0.45465935	20.964069	
	0.45311283	-159.62002	0.58707275	-16.920975	0.45465935	20.964069	0.46297994	20.990292	
	
0.107091510398389	0.47323324	20.497047	0.45595868	20.62238	0.57655995	-17.218416	0.45420218	-160.07011	
	0.45595868	20.62238	0.46533454	20.397229	0.45425292	-160.06072	0.5837877	-16.820037	
	0.57655995	-17.218416	0.45425292	-160.06072	0.47315039	20.56432	0.45560646	20.505229	
	0.45420218	-160.07011	0.5837877	-16.820037	0.45560646	20.505229	0.46454561	20.554279	
	
0.109565390708082	0.47492634	20.149895	0.45766146	20.220764	0.57353951	-17.077049	0.45590165	-160.54368	
	0.45766146	20.220764	0.46638936	19.956961	0.45534735	-160.52299	0.58090427	-16.609468	
	0.57353951	-17.077049	0.45534735	-160.52299	0.47455396	20.181898	0.45721525	20.114112	
	0.45590165	-160.54368	0.58090427	-16.609468	0.45721525	20.114112	0.46599498	20.266814	
	
0.112096419187261	0.47643059	19.753669	0.45922086	19.725337	0.57022152	-16.914276	0.45736173	-160.95285	
	0.45922086	19.725337	0.46755996	19.599129	0.45722911	-160.86726	0.57742214	-16.4463	
	0.57022152	-16.914276	0.45722911	-160.86726	0.47506487	19.778559	0.45916417	19.637329	
	0.45736173	-160.95285	0.57742214	-16.4463	0.45916417	19.637329	0.46720521	19.759594	
	
0.114685915994083	0.47766803	19.26266	0.45995086	19.350563	0.56777846	-16.657468	0.45860316	-161.37571	
	0.45995086	19.350563	0.468697	19.215254	0.45821185	-161.36628	0.57458279	-16.272849	
	0.56777846	-16.657468	0.45821185	-161.36628	0.47661493	19.345599	0.46011073	19.222424	
	0.45860316	-161.37571	0.57458279	-16.272849	0.46011073	19.222424	0.46852366	19.351051	
	
0.117335231783182	0.47851142	18.883711	0.46065628	18.958079	0.5647024	-16.555601	0.45932736	-161.73261	
	0.46065628	18.958079	0.47000379	18.804117	0.45925795	-161.83941	0.57218324	-16.136326	
	0.5647024	-16.555601	0.45925795	-161.83941	0.47776724	18.986547	0.46115398	18.88367	
	0.45932736	-161.73261	0.57218324	-16.136326	0.46115398	18.88367	0.46952877	19.003918	
	
0.120045748410147	0.47996549	18.520785	0.46218345	18.546895	0.5623986	-16.351774	0.46089109	-162.2308	
	0.46218345	18.546895	0.4703822	18.473599	0.46040288	-162.23623	0.56919044	-15.90983	
	0.5623986	-16.351774	0.46040288	-162.23623	0.4793987	18.57357	0.4624634	18.513782	
	0.46089109	-162.2308	0.56919044	-15.90983	0.4624634	18.513782	0.47120875	18.472276	
	
0.122818879652292	0.48102484	18.178571	0.46318023	18.134098	0.55928194	-16.149377	0.46172908	-162.60241	
	0.46318023	18.134098	0.47173243	18.109641	0.46168559	-162.60907	0.56677427	-15.758161	
	0.55928194	-16.149377	0.46168559	-162.60907	0.48057527	18.198252	0.46378646	18.041246	
	0.46172908	-162.60241	0.56677427	-15.758161	0.46378646	18.041246	0.4724712	18.193938	
	
0.125656071946061	0.48204036	17.796158	0.46499093	17.770357	0.55670413	-15.986321	0.46280416	-163.03081	
	0.46499093	17.770357	0.47322083	17.79448	0.4625645	-163.03515	0.56400909	-15.571988	
	0.55670413	-15.986321	0.4625645	-163.03515	0.48175829	17.808967	0.46487119	17.736931	
	0.46280416	-163.03081	0.56400909	-15.571988	0.46487119	17.736931	0.47412512	17.799308	
	
0.128558805141477	0.4826131	17.472392	0.46521616	17.376522	0.55359909	-15.815744	0.46350954	-163.41826	
	0.46521616	17.376522	0.47472737	17.384822	0.46384073	-163.44132	0.56184522	-15.413579	
	0.55359909	-15.815744	0.46384073	-163.44132	0.4831042	17.418706	0.46612717	17.36018	
	0.46350954	-163.41826	0.56184522	-15.413579	0.46612717	17.36018	0.47404216	17.523106	
	
0.131528593274019	0.48404911	17.074513	0.46683235	17.014464	0.5514822	-15.63129	0.46516713	-163.75905	
	0.46683235	17.014464	0.47577072	17.022227	0.46477781	-163.80202	0.55901209	-15.242832	
	0.5514822	-15.63129	0.46477781	-163.80202	0.48325553	17.075905	0.46670289	16.894325	
	0.46516713	-163.75905	0.55901209	-15.242832	0.46670289	16.894325	0.4749605	17.158246	
	
0.134566985354323	0.48542758	16.726732	0.46692811	16.606732	0.54928755	-15.422543	0.4656498	-164.17695	
	0.46692811	16.606732	0.47657217	16.688193	0.46532816	-164.19102	0.5568141	-15.066231	
	0.54928755	-15.422543	0.46532816	-164.19102	0.48511219	16.758641	0.46760818	16.535231	
	0.4656498	-164.17695	0.5568141	-15.066231	0.46760818	16.535231	0.47583259	16.845341	
	
0.13767556617613	0.48665523	16.389021	0.46823529	16.3233	0.54718565	-15.278351	0.4662036	-164.62969	
	0.46823529	16.3233	0.47756401	16.320007	0.46652455	-164.60172	0.55460647	-14.850353	
	0.54718565	-15.278351	0.46652455	-164.60172	0.48598467	16.384109	0.46922818	16.177834	
	0.4662036	-164.62969	0.55460647	-14.850353	0.46922818	16.177834	0.47699042	16.454512	
	
0.140855957142902	0.48661143	16.036841	0.46915873	15.989406	0.54536782	-15.076664	0.46702171	-165.01344	
	0.46915873	15.989406	0.47903698	15.887848	0.4668969	-164.98446	0.5522808	-14.663037	
	0.54536782	-15.076664	0.4668969	-164.98446	0.48652559	16.022808	0.469436	15.787903	
	0.46702171	-165.01344	0.5522808	-14.663037	0.469436	15.787903	0.47842923	16.179746	
	
0.144109817113524	0.48820788	15.705013	0.46996253	15.589759	0.54260745	-14.85696	0.46827104	-165.30309	
	0.46996253	15.589759	0.48009462	15.665637	0.4679827	-165.36724	0.55039433	-14.52477	
	0.54260745	-14.85696	0.4679827	-165.36724	0.48731022	15.775179	0.47033389	15.461692	
	0.46827104	-165.30309	0.55039433	-14.52477	0.47033389	15.461692	0.47917945	15.782915	
	
0.147438843267552	0.48896621	15.404223	0.47079586	15.234614	0.54012185	-14.725926	0.46842588	-165.70123	
	0.47079586	15.234614	0.47999428	15.356694	0.46899799	-165.71793	0.54813142	-14.37638	
	0.54012185	-14.725926	0.46899799	-165.71793	0.48838186	15.442205	0.47109234	15.123687	
	0.46842588	-165.70123	0.54813142	-14.37638	0.47109234	15.123687	0.47964391	15.509711	
	
0.150844771990442	0.49058548	15.053105	0.47144522	14.878202	0.53859675	-14.486283	0.47007457	-166.05262	
	0.47144522	14.878202	0.48120797	15.054947	0.46933817	-166.05721	0.54637366	-14.085117	
	0.53859675	-14.486283	0.46933817	-166.05721	0.48925126	15.057107	0.47197861	14.800126	
	0.47007457	-166.05262	0.54637366	-14.085117	0.47197861	14.800126	0.48078828	15.157928	
	
0.154329379779229	0.49090727	14.748084	0.47208711	14.525627	0.53666108	-14.278653	0.47042913	-166.3933	
	0.47208711	14.525627	0.48140265	14.704245	0.47063162	-166.48674	0.54466197	-13.939075	
	0.53666108	-14.278653	0.47063162	-166.48674	0.4904622	14.820291	0.47269535	14.463718	
	0.47042913	-166.3933	0.54466197	-13.939075	0.47269535	14.463718	0.4818253	14.842604	
	
0.157894484169135	0.49187381	14.493681	0.47297427	14.204795	0.53493008	-14.116067	0.47136319	-166.75187	
	0.47297427	14.204795	0.48222734	14.376033	0.47142128	-166.8047	0.5429007	-13.787024	
	0.53493008	-14.116067	0.47142128	-166.8047	0.49081098	14.547977	0.47324595	14.077986	
	0.47136319	-166.75187	0.5429007	-13.787024	0.47324595	14.077986	0.4816918	14.570193	
	
0.16154194468157	0.49224105	14.157232	0.47443366	13.934881	0.53200271	-13.915468	0.47143428	-167.07689	
	0.47443366	13.934881	0.48374524	14.206994	0.47171138	-167.06945	0.54116246	-13.707181	
	0.53200271	-13.915468	0.47171138	-167.06945	0.49168233	14.191768	0.47428588	13.923383	
	0.47143428	-167.07689	0.54116246	-13.707181	0.47428588	13.923383	0.48249738	14.243665	
	
0.165273663794043	0.49263677	13.954399	0.4749922	13.615736	0.53093474	-13.80045	0.47283834	-167.46593	
	0.4749922	13.615736	0.48439563	13.809053	0.47248622	-167.46906	0.53940897	-13.463613	
	0.53093474	-13.80045	0.47248622	-167.46906	0.49189043	13.886822	0.47473448	13.483938	
	0.47283834	-167.46593	0.53940897	-13.463613	0.47473448	13.483938	0.48373695	14.044109	
	
0.169091587932473	0.49338195	13.631372	0.47509993	13.283453	0.52933557	-13.609022	0.47316688	-167.74887	
	0.47509993	13.283453	0.48500388	13.608794	0.47339433	-167.82703	0.53736352	-13.299402	
	0.52933557	-13.609022	0.47339433	-167.82703	0.49293808	13.553715	0.47516403	13.184562	
	0.47316688	-167.74887	0.53736352	-13.299402	0.47516403	13.184562	0.48474879	13.73741	
	
0.172997708486424	0.49401992	13.324244	0.47578572	13.003539	0.52820944	-13.376939	0.4740688	-168.06454	
	0.47578572	13.003539	0.48571653	13.178661	0.47349539	-168.09608	0.5355667	-13.14789	
	0.52820944	-13.376939	0.47349539	-168.09608	0.49400616	13.353216	0.47592041	12.880176	
	0.4740688	-168.06454	0.5355667	-13.14789	0.47592041	12.880176	0.48463538	13.492182	
	
0.176994062847797	0.4947793	13.074775	0.47652938	12.649989	0.52621355	-13.19288	0.47469693	-168.44296	
	0.47652938	12.649989	0.48629953	13.025581	0.47440649	-168.46371	0.53446539	-12.915984	
	0.52621355	-13.19288	0.47440649	-168.46371	0.49445153	12.991584	0.47694275	12.54972	
	0.47469693	-168.44296	0.53446539	-12.915984	0.47694275	12.54972	0.48525969	13.140819	
	
0.181082735473506	0.49535907	12.859405	0.47636285	12.412533	0.52458741	-13.059216	0.47514487	-168.70198	
	0.47636285	12.412533	0.48693169	12.744955	0.47476048	-168.73951	0.53305839	-12.804413	
	0.52458741	-13.059216	0.47476048	-168.73951	0.49426179	12.771022	0.47722277	12.269969	
	0.47514487	-168.70198	0.53305839	-12.804413	0.47722277	12.269969	0.48659101	12.958545	
	
0.185265858972714	0.49572506	12.525773	0.47751161	12.092578	0.52295787	-12.901417	0.47579329	-169.00821	
	0.47751161	12.092578	0.48743648	12.558766	0.47584564	-169.00256	0.53158506	-12.623009	
	0.52295787	-12.901417	0.47584564	-169.00256	0.49514934	12.531194	0.47781676	12.011558	
	0.47579329	-169.00821	0.53158506	-12.623009	0.47781676	12.011558	0.4860464	12.714181	
	
0.18954561521918	0.4967336	12.253324	0.47815067	11.925742	0.52183068	-12.705765	0.47678212	-169.29269	
	0.47815067	11.925742	0.48832133	12.154794	0.47613926	-169.38634	0.52968403	-12.422576	
	0.52183068	-12.705765	0.47613926	-169.38634	0.49567267	12.304648	0.47887982	11.76772	
	0.47678212	-169.29269	0.52968403	-12.422576	0.47887982	11.76772	0.48687374	12.493516	
	
0.193924236489297	0.49770893	12.077492	0.47809483	11.56191	0.52043837	-12.567128	0.47654191	-169.62389	
	0.47809483	11.56191	0.48872848	11.942259	0.47702618	-169.66093	0.52879998	-12.262165	
	0.52043837	-12.567128	0.47702618	-169.66093	0.49628076	11.98306	0.47903979	11.423381	
	0.47654191	-169.62389	0.52879998	-12.262165	0.47903979	11.423381	0.48778971	12.141236	
	
0.19840400662643	0.49780751	11.827903	0.47912992	11.265502	0.51896457	-12.407385	0.47776032	-169.94221	
	0.47912992	11.265502	0.48870507	11.755458	0.47747541	-169.97655	0.52756392	-12.084571	
	0.51896457	-12.407385	0.47747541	-169.97655	0.4964438	11.765107	0.47995103	11.173106	
	0.47776032	-169.94221	0.52756392	-12.084571	0.47995103	11.173106	0.48799644	11.848288	
	
0.202987262232139	0.49804095	11.584937	0.47934488	10.989294	0.51787146	-12.226412	0.47769118	-170.21727	
	0.47934488	10.989294	0.49005952	11.529348	0.47735504	-170.29671	0.52611962	-11.95227	
	0.51787146	-12.226412	0.47735504	-170.29671	0.49746285	11.49898	0.47991942	10.925567	
	0.47769118	-170.21727	0.52611962	-11.95227	0.47991942	10.925567	0.4894018	11.687792	
	
0.207676393884933	0.49826033	11.320528	0.4798456	10.7225	0.51661849	-12.085153	0.47785181	-170.5402	
	0.4798456	10.7225	0.4901246	11.212165	0.4778218	-170.57166	0.52516259	-11.800418	
	0.51661849	-12.085153	0.4778218	-170.57166	0.49739308	11.283194	0.48018763	10.68795	
	0.47785181	-170.5402	0.52516259	-11.800418	0.48018763	10.68795	0.48998505	11.518873	
	
0.212473847387164	0.49922226	11.162057	0.48014135	10.484835	0.51566617	-11.914597	0.47816007	-170.83202	
	0.48014135	10.484835	0.49039794	11.014226	0.47788235	-170.84465	0.52388102	-11.649213	
	0.51566617	-11.914597	0.47788235	-170.84465	0.49828409	11.053766	0.48046968	10.420672	
	0.47816007	-170.83202	0.52388102	-11.649213	0.48046968	10.420672	0.48960744	11.235662	
	
0.217382125040737	0.49973384	10.967545	0.48050374	10.248469	0.51496429	-11.769765	0.47924179	-171.09574	
	0.48050374	10.248469	0.49145688	10.844072	0.47850133	-171.10905	0.52276699	-11.496795	
	0.51496429	-11.769765	0.47850133	-171.10905	0.49836543	10.813334	0.48128656	10.129871	
	0.47924179	-171.09574	0.52276699	-11.496795	0.48128656	10.129871	0.48984039	11.009353	
	
0.222403786952283	0.50055198	10.687129	0.4809327	9.9662357	0.51346451	-11.640331	0.47897839	-171.34654	
	0.4809327	9.9662357	0.4914839	10.544954	0.47888007	-171.40189	0.52199301	-11.347564	
	0.51346451	-11.640331	0.47888007	-171.40189	0.49919154	10.651231	0.4813742	9.8280298	
	0.47897839	-171.34654	0.52199301	-11.347564	0.4813742	9.8280298	0.49001748	10.763809	
	
0.227541452368483	0.50062359	10.406631	0.48139329	9.7569481	0.51225038	-11.43015	0.47980121	-171.6838	
	0.48139329	9.7569481	0.49248406	10.413597	0.47890656	-171.64708	0.52067038	-11.26124	
	0.51225038	-11.43015	0.47890656	-171.64708	0.49929065	10.339309	0.48173567	9.6772412	
	0.47980121	-171.6838	0.52067038	-11.26124	0.48173567	9.6772412	0.49140975	10.53945	
	
0.232797801042241	0.50053922	10.260725	0.48188017	9.5092297	0.51117328	-11.297732	0.47953083	-171.9037	
	0.48188017	9.5092297	0.49205569	10.187635	0.48001022	-171.95713	0.51966322	-11.099331	
	0.51117328	-11.297732	0.48001022	-171.95713	0.49990043	10.154764	0.48213661	9.3892408	
	0.47953083	-171.9037	0.51966322	-11.099331	0.48213661	9.3892408	0.49139888	10.399282	
	
0.238175574630416	0.50170874	9.9996169	0.48209228	9.2981982	0.51039277	-11.204019	0.48039482	-172.14885	
	0.48209228	9.2981982	0.49174244	9.9341802	0.47964991	-172.18916	0.51866548	-10.922776	
	0.51039277	-11.204019	0.47964991	-172.18916	0.50075813	10.026964	0.48249849	9.1990304	
	0.48039482	-172.14885	0.51866548	-10.922776	0.48249849	9.1990304	0.49175842	10.136369	
	
0.24367757812384	0.50164531	9.8728276	0.4820538	9.0014425	0.50965833	-11.045318	0.48079748	-172.38703	
	0.4820538	9.0014425	0.49250161	9.7188715	0.48035558	-172.4543	0.51781903	-10.841076	
	0.50965833	-11.045318	0.48035558	-172.4543	0.50043495	9.8476116	0.48261102	8.9101719	
	0.48079748	-172.38703	0.51781903	-10.841076	0.48261102	8.9101719	0.49273825	9.9750314	
	
0.249306681310373	0.50225471	9.5895011	0.48261789	8.8333563	0.50814309	-10.897051	0.48071432	-172.66899	
	0.48261789	8.8333563	0.49316188	9.5817318	0.4803309	-172.7391	0.51676926	-10.697558	
	0.50814309	-10.897051	0.4803309	-172.7391	0.50116085	9.6210482	0.48304484	8.6777718	
	0.48071432	-172.66899	0.51676926	-10.697558	0.48304484	8.6777718	0.49226048	9.7219066	
	
0.255065820271756	0.5023064	9.4460557	0.48321077	8.5601402	0.50747806	-10.772633	0.48144188	-172.88144	
	0.48321077	8.5601402	0.49376502	9.4162265	0.48063676	-172.94621	0.51597967	-10.533875	
	0.50747806	-10.772633	0.48063676	-172.94621	0.50081993	9.4170354	0.48391661	8.4477344	
	0.48144188	-172.88144	0.51597967	-10.533875	0.48391661	8.4477344	0.49251772	9.5779761	
	
0.260957998915036	0.50230077	9.2154476	0.48305404	8.4499642	0.50653462	-10.65912	0.48135265	-173.18821	
	0.48305404	8.4499642	0.49424557	9.2146731	0.48130264	-173.26902	0.51543132	-10.454663	
	0.50653462	-10.65912	0.48130264	-173.26902	0.50164939	9.189869	0.48351161	8.2614503	
	0.48135265	-173.18821	0.51543132	-10.454663	0.48351161	8.2614503	0.49293416	9.3392179	
	
0.266986290539378	0.50304695	9.0478831	0.48315229	8.1344663	0.50638132	-10.473717	0.48110971	-173.43206	
	0.48315229	8.1344663	0.49372826	9.055726	0.48166982	-173.49564	0.51430266	-10.342146	
	0.50638132	-10.473717	0.48166982	-173.49564	0.50217798	8.9997549	0.48385272	8.0570019	
	0.48110971	-173.43206	0.51430266	-10.342146	0.48385272	8.0570019	0.49375972	9.2613801	
	
0.273153839439064	0.50347565	8.9175357	0.48385439	7.9388171	0.50538221	-10.379896	0.48224079	-173.69503	
	0.48385439	7.9388171	0.49443556	8.8594734	0.4821433	-173.7307	0.51401485	-10.21468	
	0.50538221	-10.379896	0.4821433	-173.7307	0.50251523	8.7763335	0.48406988	7.844133	
	0.48224079	-173.69503	0.51401485	-10.21468	0.48406988	7.844133	0.49342572	9.0558036	
	
0.279463862543524	0.50373381	8.6970378	0.48374887	7.7243023	0.50475694	-10.308279	0.48171888	-173.86731	
	0.48374887	7.7243023	0.49560991	8.6120276	0.48165533	-174.00297	0.51206608	-10.11141	
	0.50475694	-10.308279	0.48165533	-174.00297	0.50291291	8.6213288	0.48443734	7.6399358	
	0.48171888	-173.86731	0.51206608	-10.11141	0.48443734	7.6399358	0.49439586	8.8435884	
	
0.285919651095252	0.50383005	8.5978188	0.48432066	7.5294472	0.50384871	-10.191262	0.48207301	-174.1703	
	0.48432066	7.5294472	0.49482256	8.5652409	0.48204531	-174.24835	0.51267171	-10.043166	
	0.50384871	-10.191262	0.48204531	-174.24835	0.50291923	8.5597857	0.48417154	7.4319907	
	0.48207301	-174.1703	0.51267171	-10.043166	0.48417154	7.4319907	0.49446701	8.7294396	
	
0.292524572366485	0.50473284	8.3940892	0.48438577	7.3964981	0.50333049	-10.074423	0.48247564	-174.47448	
	0.48438577	7.3964981	0.49518694	8.4038686	0.4826636	-174.5978	0.51133839	-9.9201683	
	0.50333049	-10.074423	0.4826636	-174.5978	0.50343176	8.3774503	0.48499019	7.1330779	
	0.48247564	-174.47448	0.51133839	-9.9201683	0.48499019	7.1330779	0.49515974	8.6045784	
	
0.299282071415539	0.50442147	8.2864283	0.48401217	7.1173896	0.50249654	-9.9555421	0.48254953	-174.67411	
	0.48401217	7.1173896	0.49519612	8.2418816	0.48203888	-174.72446	0.51129797	-9.8498178	
	0.50249654	-9.9555421	0.48203888	-174.72446	0.50354696	8.2451258	0.48470263	6.9186535	
	0.48254953	-174.67411	0.51129797	-9.8498178	0.48470263	6.9186535	0.4947058	8.5132501	
	
0.30619567288371	0.50526065	8.1262339	0.48416717	7.019036	0.50187536	-9.8442757	0.48267783	-174.85106	
	0.48416717	7.019036	0.49601346	8.054659	0.48221741	-174.88569	0.51107479	-9.7125703	
	0.50187536	-9.8442757	0.48221741	-174.88569	0.50369578	8.0987089	0.48494135	6.816933	
	0.48267783	-174.85106	0.51107479	-9.7125703	0.48494135	6.816933	0.49507451	8.3409704	
	
0.313268982833699	0.50543218	7.9121917	0.48452973	6.8020295	0.50087259	-9.7487149	0.48310159	-175.06648	
	0.48452973	6.8020295	0.49532081	7.8196789	0.48301395	-175.1972	0.50993767	-9.6108661	
	0.50087259	-9.7487149	0.48301395	-175.1972	0.50392746	7.8207419	0.4855671	6.6426143	
	0.48310159	-175.06648	0.50993767	-9.6108661	0.4855671	6.6426143	0.49487107	8.1530861	
	
0.320505690630487	0.50490353	7.6805876	0.48541102	6.6270332	0.50050123	-9.6245114	0.48379561	-175.27211	
	0.48541102	6.6270332	0.49637376	7.6786998	0.48314032	-175.38787	0.50949373	-9.5351168	
	0.50050123	-9.6245114	0.48314032	-175.38787	0.50436357	7.6510499	0.48598773	6.4603379	
	0.48379561	-175.27211	0.50949373	-9.5351168	0.48598773	6.4603379	0.49559506	7.9277008	
	
0.327909570865677	0.5051719	7.5630818	0.48554697	6.4598149	0.50028047	-9.5282482	0.48368442	-175.49584	
	0.48554697	6.4598149	0.49599493	7.4985254	0.48368417	-175.57873	0.50881573	-9.4090183	
	0.50028047	-9.5282482	0.48368417	-175.57873	0.50359625	7.4836921	0.48611763	6.3219413	
	0.48368442	-175.49584	0.50881573	-9.4090183	0.48611763	6.3219413	0.49476488	7.7596781	
	
0.335484485326279	0.50544801	7.3916482	0.48576117	6.2874537	0.49947267	-9.4411014	0.48421466	-175.7366	
	0.48576117	6.2874537	0.49715745	7.387375	0.48389073	-175.75662	0.50828742	-9.3204334	
