# MHz S MA R 50

0.1	0.027565679	88.234933	0.030353266	86.20395	0.99323622	-1.741522	0.028757889	-94.31784	
	0.030353266	86.20395	0.026768507	87.340122	0.029120361	-94.539859	0.99379921	-1.7296311	
	0.99323622	-1.741522	0.029120361	-94.539859	0.030536754	89.143924	0.030750388	86.034366	
	0.028757889	-94.31784	0.99379921	-1.7296311	0.030750388	86.034366	0.028224252	87.716734	
	
0.102310062021247	0.02996866	88.667427	0.031161659	85.905371	0.99359479	-1.7562144	0.029528696	-94.552493	
	0.031161659	85.905371	0.028125083	87.181408	0.029381434	-94.168624	0.99372369	-1.787651	
	0.99359479	-1.7562144	0.029381434	-94.168624	0.030877134	90.056847	0.03113453	85.16808	
	0.029528696	-94.552493	0.99372369	-1.787651	0.03113453	85.16808	0.029958803	88.096176	
	
0.104673487907914	0.030480224	87.515472	0.032016038	85.613171	0.99360836	-1.8284181	0.030222429	-94.445552	
	0.032016038	85.613171	0.029203862	85.594223	0.030206028	-94.592798	0.99406701	-1.8440907	
	0.99360836	-1.8284181	0.030206028	-94.592798	0.031126823	89.56414	0.032162645	85.386084	
	0.030222429	-94.445552	0.99406701	-1.8440907	0.032162645	85.386084	0.02965344	90.312005	
	
0.107091510398389	0.030679856	87.470481	0.032522969	85.889386	0.99351494	-1.8659056	0.031004648	-94.480511	
	0.032522969	85.889386	0.029163725	85.923355	0.030980869	-94.399998	0.99330835	-1.8690031	
	0.99351494	-1.8659056	0.030980869	-94.399998	0.032082104	89.116052	0.032774446	85.440644	
	0.031004648	-94.480511	0.99330835	-1.8690031	0.032774446	85.440644	0.031135079	87.653926	
	
0.109565390708082	0.032619824	90.182551	0.033355009	85.508693	0.99308761	-1.9128157	0.031571187	-94.74725	
	0.033355009	85.508693	0.030000431	86.248704	0.031365716	-94.671023	0.99323534	-1.9264338	
	0.99308761	-1.9128157	0.031365716	-94.671023	0.032292396	89.601915	0.033424597	84.843749	
	0.031571187	-94.74725	0.99323534	-1.9264338	0.033424597	84.843749	0.032625388	88.094876	
	
0.112096419187261	0.032725611	89.608154	0.034292017	85.3092	0.99331553	-1.9195222	0.032316572	-94.854413	
	0.034292017	85.3092	0.031023267	88.066317	0.032331637	-94.740447	0.99377394	-1.9724069	
	0.99331553	-1.9195222	0.032331637	-94.740447	0.03264367	90.855835	0.034476912	85.729894	
	0.032316572	-94.854413	0.99377394	-1.9724069	0.034476912	85.729894	0.032509146	90.369	
	
0.114685915994083	0.033028624	88.249786	0.035013235	84.92256	0.99360085	-1.9565987	0.033207175	-94.920852	
	0.035013235	84.92256	0.031435873	86.410397	0.033362142	-94.861143	0.9935075	-1.9977044	
	0.99360085	-1.9565987	0.033362142	-94.861143	0.033936467	91.231633	0.035068294	85.045299	
	0.033207175	-94.920852	0.9935075	-1.9977044	0.035068294	85.045299	0.033213262	88.729471	
	
0.117335231783182	0.033036159	86.613615	0.035734518	85.360859	0.99317661	-2.0454951	0.033959273	-94.87919	
	0.035734518	85.360859	0.032713646	85.888701	0.033943781	-95.001204	0.9936185	-2.0667177	
	0.99317661	-2.0454951	0.033943781	-95.001204	0.034320892	89.428458	0.035658469	85.002671	
	0.033959273	-94.87919	0.9936185	-2.0667177	0.035658469	85.002671	0.033425395	89.180528	
	
0.120045748410147	0.034925219	86.547147	0.036678899	85.175336	0.99349026	-2.062524	0.035030989	-94.757941	
	0.036678899	85.175336	0.032544662	86.988563	0.034797879	-95.262402	0.99344538	-2.0615243	
	0.99349026	-2.062524	0.034797879	-95.262402	0.035198873	88.353132	0.036618452	85.210504	
	0.035030989	-94.757941	0.99344538	-2.0615243	0.036618452	85.210504	0.033737178	87.745834	
	
0.122818879652292	0.034915881	87.445853	0.037674565	85.145144	0.99343374	-2.0965006	0.035371956	-95.325968	
	0.037674565	85.145144	0.033605745	86.539476	0.035511237	-94.837825	0.99319462	-2.1355523	
	0.99343374	-2.0965006	0.035511237	-94.837825	0.036540014	89.131708	0.037673052	85.343496	
	0.035371956	-95.325968	0.99319462	-2.1355523	0.037673052	85.343496	0.034778293	88.621815	
	
0.125656071946061	0.036380538	87.682155	0.038204737	84.908769	0.99300552	-2.2098832	0.036030379	-95.513755	
	0.038204737	84.908769	0.03436348	86.71056	0.036159085	-94.933779	0.99307973	-2.1890561	
	0.99300552	-2.2098832	0.036159085	-94.933779	0.036740667	87.833591	0.038559954	84.982792	
	0.036030379	-95.513755	0.99307973	-2.1890561	0.038559954	84.982792	0.036421725	87.589222	
	
0.128558805141477	0.036766364	87.41815	0.039261615	84.84702	0.99232136	-2.2373351	0.037094502	-94.984067	
	0.039261615	84.84702	0.035523624	85.873602	0.036942581	-95.027097	0.99353961	-2.2547115	
	0.99232136	-2.2373351	0.036942581	-95.027097	0.036654657	89.3103	0.039138176	84.844771	
	0.037094502	-94.984067	0.99353961	-2.2547115	0.039138176	84.844771	0.03593105	88.355769	
	
0.131528593274019	0.03716992	86.930868	0.040095039	85.029468	0.99294228	-2.2879067	0.03769688	-94.60144	
	0.040095039	85.029468	0.035541811	87.510792	0.037853432	-95.307741	0.99352856	-2.2892644	
	0.99294228	-2.2879067	0.037853432	-95.307741	0.038998427	87.091321	0.039934549	85.244571	
	0.03769688	-94.60144	0.99352856	-2.2892644	0.039934549	85.244571	0.036590603	88.559656	
	
0.134566985354323	0.038635524	86.232532	0.040981258	84.455706	0.99212402	-2.3334174	0.038718136	-95.653737	
	0.040981258	84.455706	0.037177619	85.61692	0.038833127	-95.382533	0.99284428	-2.3536919	
	0.99212402	-2.3334174	0.038833127	-95.382533	0.039391129	86.656786	0.040877949	84.768384	
	0.038718136	-95.653737	0.99284428	-2.3536919	0.040877949	84.768384	0.039889315	88.676224	
	
0.13767556617613	0.039007638	85.710924	0.041890371	84.903032	0.99235544	-2.4137625	0.03970619	-95.77581	
	0.041890371	84.903032	0.038044418	85.910597	0.039731527	-95.400683	0.99298922	-2.3710844	
	0.99235544	-2.4137625	0.039731527	-95.400683	0.03994079	87.259599	0.04207371	84.189307	
	0.03970619	-95.77581	0.99298922	-2.3710844	0.04207371	84.189307	0.039649928	88.145404	
	
0.140855957142902	0.039883642	86.030458	0.043065057	84.981608	0.99185432	-2.4599244	0.040588469	-95.699456	
	0.043065057	84.981608	0.039343307	83.180173	0.040167335	-95.728743	0.99170734	-2.4622179	
	0.99185432	-2.4599244	0.040167335	-95.728743	0.040932386	86.080449	0.042812149	83.851192	
	0.040588469	-95.699456	0.99170734	-2.4622179	0.042812149	83.851192	0.04153476	86.403874	
	
0.144109817113524	0.041092866	84.763972	0.043536441	84.595559	0.99173166	-2.5006532	0.041459406	-95.771417	
	0.043536441	84.595559	0.039564312	84.796582	0.041289743	-95.874761	0.99214841	-2.4992969	
	0.99173166	-2.5006532	0.041289743	-95.874761	0.042139211	87.159442	0.043884968	84.219334	
	0.041459406	-95.771417	0.99214841	-2.4992969	0.043884968	84.219334	0.042276983	86.992733	
	
0.147438843267552	0.042136756	85.659778	0.044420524	84.007259	0.99144466	-2.5665222	0.042266021	-96.073393	
	0.044420524	84.007259	0.040736851	85.294941	0.042292379	-95.905336	0.99176328	-2.5865748	
	0.99144466	-2.5665222	0.042292379	-95.905336	0.042772451	87.816315	0.044911278	84.15129	
	0.042266021	-96.073393	0.99176328	-2.5865748	0.044911278	84.15129	0.043114179	86.3133	
	
0.150844771990442	0.043069115	83.978621	0.045951527	84.12509	0.99162516	-2.590676	0.043134073	-96.313705	
	0.045951527	84.12509	0.041835754	83.892232	0.043199017	-95.690876	0.99192335	-2.609474	
	0.99162516	-2.590676	0.043199017	-95.690876	0.044217384	85.718073	0.045904398	83.999358	
	0.043134073	-96.313705	0.99192335	-2.609474	0.045904398	83.999358	0.042624268	87.227393	
	
0.154329379779229	0.044295014	84.871808	0.046722651	84.156571	0.99148489	-2.649578	0.044263309	-96.269256	
	0.046722651	84.156571	0.043507874	84.161534	0.044481479	-96.478772	0.99191603	-2.6891936	
	0.99148489	-2.649578	0.044481479	-96.478772	0.045478823	87.061971	0.047074027	84.142475	
	0.044263309	-96.269256	0.99191603	-2.6891936	0.047074027	84.142475	0.044507213	86.152624	
	
0.157894484169135	0.045334537	85.117429	0.047677164	83.912481	0.99146572	-2.7123145	0.045318228	-96.022059	
	0.047677164	83.912481	0.043948681	84.403416	0.045217315	-96.361198	0.99191207	-2.7674951	
	0.99146572	-2.7123145	0.045217315	-96.361198	0.046275655	87.540095	0.047975098	83.988674	
	0.045318228	-96.022059	0.99191207	-2.7674951	0.047975098	83.988674	0.045705847	86.529372	
	
0.16154194468157	0.046743579	85.679561	0.049358447	84.235049	0.99086493	-2.8030973	0.046378912	-96.761922	
	0.049358447	84.235049	0.044667619	85.317947	0.045888392	-96.290198	0.99224213	-2.8670626	
	0.99086493	-2.8030973	0.045888392	-96.290198	0.046239152	86.140069	0.049227665	83.612652	
	0.046378912	-96.761922	0.99224213	-2.8670626	0.049227665	83.612652	0.0454386	85.554716	
	
0.165273663794043	0.047144481	85.332993	0.050162857	83.567313	0.99036468	-2.8848523	0.047351676	-96.631899	
	0.050162857	83.567313	0.045795018	83.449646	0.047335821	-96.256538	0.99110649	-2.9109516	
	0.99036468	-2.8848523	0.047335821	-96.256538	0.047424921	86.238612	0.050141434	83.224269	
	0.047351676	-96.631899	0.99110649	-2.9109516	0.050141434	83.224269	0.047380542	85.200905	
	
0.169091587932473	0.048446513	85.218009	0.051077968	83.754288	0.99097871	-2.9350475	0.048493301	-96.966048	
	0.051077968	83.754288	0.047384248	84.840038	0.048237608	-96.900912	0.99130656	-2.9710896	
	0.99097871	-2.9350475	0.048237608	-96.900912	0.049568185	84.98641	0.051570146	83.141056	
	0.048493301	-96.966048	0.99130656	-2.9710896	0.051570146	83.141056	0.048860246	84.721267	
	
0.172997708486424	0.049143158	84.898588	0.052372315	83.366418	0.99061033	-2.9902644	0.049674844	-96.918088	
	0.052372315	83.366418	0.046704233	83.850278	0.049414048	-96.98632	0.99083013	-3.0525553	
	0.99061033	-2.9902644	0.049414048	-96.98632	0.051091118	85.052744	0.052564178	83.232168	
	0.049674844	-96.918088	0.99083013	-3.0525553	0.052564178	83.232168	0.049834616	85.129013	
	
0.176994062847797	0.050546542	85.352918	0.053627671	83.654757	0.99101612	-3.0574854	0.050874493	-97.14533	
	0.053627671	83.654757	0.049346344	83.749944	0.050655742	-97.177722	0.99062219	-3.0681389	
	0.99101612	-3.0574854	0.050655742	-97.177722	0.052145465	85.314362	0.05376182	83.292834	
	0.050874493	-97.14533	0.99062219	-3.0681389	0.05376182	83.292834	0.050116312	85.753294	
	
0.181082735473506	0.05177059	84.190806	0.054533332	83.333835	0.99049057	-3.1336111	0.051681787	-97.422745	
	0.054533332	83.333835	0.05047645	82.386614	0.05151314	-97.120476	0.99038184	-3.1665917	
	0.99049057	-3.1336111	0.05151314	-97.120476	0.052263314	85.589406	0.054772054	83.166065	
	0.051681787	-97.422745	0.99038184	-3.1665917	0.054772054	83.166065	0.052013279	84.93357	
	
0.185265858972714	0.052070509	84.843354	0.056020524	83.117769	0.99052707	-3.2171273	0.053208074	-97.452938	
	0.056020524	83.117769	0.05169701	84.02318	0.053014834	-96.659391	0.99045745	-3.2479396	
	0.99052707	-3.2171273	0.053014834	-96.659391	0.052966591	85.434519	0.056129848	82.961153	
	0.053208074	-97.452938	0.99045745	-3.2479396	0.056129848	82.961153	0.052456476	84.910344	
	
0.18954561521918	0.053993335	83.656697	0.057195876	82.88149	0.99027778	-3.2934646	0.054357836	-97.495885	
	0.057195876	82.88149	0.051581501	83.074291	0.054279141	-97.228529	0.99065017	-3.2639081	
	0.99027778	-3.2934646	0.054279141	-97.228529	0.054850367	85.677593	0.057706319	83.151872	
	0.054357836	-97.495885	0.99065017	-3.2639081	0.057706319	83.151872	0.05338659	85.395636	
	
0.193924236489297	0.05557089	83.362041	0.058883734	82.769736	0.98964185	-3.3865417	0.055273306	-97.469957	
	0.058883734	82.769736	0.05391094	82.599988	0.055344456	-97.469721	0.99005346	-3.3557058	
	0.98964185	-3.3865417	0.055344456	-97.469721	0.056336002	85.702987	0.058810853	82.854313	
	0.055273306	-97.469957	0.99005346	-3.3557058	0.058810853	82.854313	0.055251489	84.424366	
	
0.19840400662643	0.056106956	84.324946	0.060161491	82.649141	0.98992721	-3.4815424	0.057177724	-97.569461	
	0.060161491	82.649141	0.055371501	83.639146	0.056649647	-97.553375	0.99045991	-3.4806657	
	0.98992721	-3.4815424	0.056649647	-97.553375	0.057732915	84.610009	0.060228585	82.615667	
	0.057177724	-97.569461	0.99045991	-3.4806657	0.060228585	82.615667	0.056354593	84.208369	
	
0.202987262232139	0.058490618	83.517342	0.0614474	82.535193	0.98951701	-3.5026381	0.058188782	-97.764257	
	0.0614474	82.535193	0.05701036	82.549862	0.057597455	-97.795562	0.98942002	-3.5379125	
	0.98951701	-3.5026381	0.057597455	-97.795562	0.058394794	84.31953	0.061460547	82.447427	
	0.058188782	-97.764257	0.98942002	-3.5379125	0.061460547	82.447427	0.058168598	84.043749	
	
0.207676393884933	0.058863392	83.49656	0.062791575	82.330802	0.9892141	-3.5950078	0.059304426	-97.971826	
	0.062791575	82.330802	0.058223415	82.407356	0.05913063	-98.145574	0.98942703	-3.6290353	
	0.9892141	-3.5950078	0.05913063	-98.145574	0.059767616	84.88385	0.062908679	82.199111	
	0.059304426	-97.971826	0.98942703	-3.6290353	0.062908679	82.199111	0.059937652	84.544015	
	
0.212473847387164	0.060861427	82.820181	0.063971556	82.285786	0.98881141	-3.690697	0.060617681	-98.435453	
	0.063971556	82.285786	0.058474015	82.098969	0.060556455	-98.110672	0.98890337	-3.6802324	
	0.98881141	-3.690697	0.060556455	-98.110672	0.061692462	83.675159	0.064168373	82.125404	
	0.060617681	-98.435453	0.98890337	-3.6802324	0.064168373	82.125404	0.060922113	83.590075	
	
0.217382125040737	0.062351217	83.196924	0.065651852	82.088936	0.98896637	-3.776908	0.061607461	-98.606083	
	0.065651852	82.088936	0.061185303	82.50969	0.061838899	-98.296766	0.98928764	-3.7878684	
	0.98896637	-3.776908	0.061838899	-98.296766	0.061770618	84.531945	0.06621162	81.994805	
	0.061607461	-98.606083	0.98928764	-3.7878684	0.06621162	81.994805	0.061926896	83.544178	
	
0.222403786952283	0.063437449	82.06278	0.066970312	81.762925	0.98867677	-3.8748299	0.063181742	-98.871387	
	0.066970312	81.762925	0.062205466	82.334648	0.063144973	-98.609646	0.98879797	-3.8650964	
	0.98867677	-3.8748299	0.063144973	-98.609646	0.064943411	83.479462	0.067329896	81.695912	
	0.063181742	-98.871387	0.98879797	-3.8650964	0.067329896	81.695912	0.063581947	83.279226	
	
0.227541452368483	0.064990613	82.561701	0.068517309	81.581158	0.9881103	-3.9321388	0.064848469	-98.47412	
	0.068517309	81.581158	0.064469002	81.893349	0.064397256	-98.751454	0.98847611	-3.9722341	
	0.9881103	-3.9321388	0.064397256	-98.751454	0.064962753	83.025225	0.068625392	81.734034	
	0.064848469	-98.47412	0.98847611	-3.9722341	0.068625392	81.734034	0.064866195	83.653511	
	
0.232797801042241	0.065843716	81.990857	0.069907844	81.72067	0.98741082	-4.0521565	0.06637507	-98.907973	
	0.069907844	81.72067	0.064969046	82.484398	0.065973044	-98.799273	0.98777198	-4.0365033	
	0.98741082	-4.0521565	0.065973044	-98.799273	0.067021532	82.75728	0.069951682	81.525525	
	0.06637507	-98.907973	0.98777198	-4.0365033	0.069951682	81.525525	0.067290568	82.578452	
	
0.238175574630416	0.067281464	81.963643	0.071908102	81.271016	0.98743244	-4.1178436	0.067617038	-99.192386	
	0.071908102	81.271016	0.066630562	81.855361	0.067781531	-99.004159	0.98765912	-4.14343	
	0.98743244	-4.1178436	0.067781531	-99.004159	0.068993558	82.298409	0.071812991	81.195532	
	0.067617038	-99.192386	0.98765912	-4.14343	0.071812991	81.195532	0.067957049	82.385427	
	
0.24367757812384	0.069481107	82.083746	0.073451028	81.157396	0.98653631	-4.2302215	0.069339479	-99.28396	
	0.073451028	81.157396	0.066878618	81.754838	0.069403149	-99.186952	0.98764256	-4.2426821	
	0.98653631	-4.2302215	0.069403149	-99.186952	0.070542334	82.185811	0.073187099	81.074938	
	0.069339479	-99.28396	0.98764256	-4.2426821	0.073187099	81.074938	0.068707177	82.386505	
	
0.249306681310373	0.071021626	81.495803	0.074850261	81.189333	0.98613066	-4.3369648	0.070783677	-99.396715	
	0.074850261	81.189333	0.069361957	80.347021	0.070717426	-99.473218	0.98649404	-4.3264975	
	0.98613066	-4.3369648	0.070717426	-99.473218	0.072277798	82.322399	0.074824985	80.931512	
	0.070783677	-99.396715	0.98649404	-4.3264975	0.074824985	80.931512	0.071027991	81.925582	
	
0.255065820271756	0.072387578	81.749934	0.076810077	81.017905	0.98625104	-4.4106571	0.072298125	-99.557056	
	0.076810077	81.017905	0.071294315	80.71827	0.072393957	-99.351384	0.98647047	-4.4150626	
	0.98625104	-4.4106571	0.072393957	-99.351384	0.072593401	82.10694	0.076821702	80.684704	
	0.072298125	-99.557056	0.98647047	-4.4150626	0.076821702	80.684704	0.073025225	82.241821	
	
0.260957998915036	0.073823574	81.157795	0.078408341	80.630258	0.98479902	-4.5095233	0.073707659	-100.02039	
	0.078408341	80.630258	0.073330527	80.150196	0.073953547	-99.732474	0.98585126	-4.5297282	
	0.98479902	-4.5095233	0.073953547	-99.732474	0.075036098	81.746857	0.07818521	80.546444	
	0.073707659	-100.02039	0.98585126	-4.5297282	0.07818521	80.546444	0.073143699	81.462812	
	
0.266986290539378	0.075780438	80.461415	0.080090202	80.30008	0.98529633	-4.6021645	0.075751328	-100.2101	
	0.080090202	80.30008	0.074269705	80.797349	0.075660068	-99.960381	0.98547548	-4.6418434	
	0.98529633	-4.6021645	0.075660068	-99.960381	0.076724459	81.364044	0.080245892	80.485619	
	0.075751328	-100.2101	0.98547548	-4.6418434	0.080245892	80.485619	0.075965686	81.388205	
	
0.273153839439064	0.077514462	80.619878	0.081639193	80.2146	0.98518855	-4.7043053	0.077111456	-100.325	
	0.081639193	80.2146	0.075980749	80.236175	0.077625568	-100.09553	0.98503027	-4.7468185	
	0.98518855	-4.7043053	0.077625568	-100.09553	0.077633166	81.263028	0.081923978	80.147407	
	0.077111456	-100.325	0.98503027	-4.7468185	0.081923978	80.147407	0.077742874	81.025813	
	
0.279463862543524	0.078210073	79.812658	0.083485843	80.142795	0.98443254	-4.8433778	0.079046979	-100.68505	
	0.083485843	80.142795	0.078241075	79.730868	0.078729253	-100.2174	0.98415443	-4.8524547	
	0.98443254	-4.8433778	0.078729253	-100.2174	0.079821454	80.379408	0.083626337	79.927441	
	0.079046979	-100.68505	0.98415443	-4.8524547	0.083626337	79.927441	0.078839009	80.736655	
	
0.285919651095252	0.081415527	80.107952	0.085479958	79.679011	0.98378057	-4.9356769	0.080952932	-100.92019	
	0.085479958	79.679011	0.080014186	80.344089	0.080589471	-100.91851	0.98401864	-4.9556739	
	0.98378057	-4.9356769	0.080589471	-100.91851	0.082059703	80.725359	0.085806096	79.850921	
	0.080952932	-100.92019	0.98401864	-4.9556739	0.085806096	79.850921	0.081284921	80.14004	
	
0.292524572366485	0.082995834	79.89073	0.087516546	79.523152	0.98323536	-5.0422994	0.082556426	-101.18964	
	0.087516546	79.523152	0.083361618	79.838544	0.082531366	-101.20569	0.98357316	-5.0536159	
	0.98323536	-5.0422994	0.082531366	-101.20569	0.084363682	80.621276	0.087645042	79.291717	
	0.082556426	-101.18964	0.98357316	-5.0536159	0.087645042	79.291717	0.084997131	80.966844	
	
0.299282071415539	0.084961152	79.948871	0.089410216	79.333446	0.98267847	-5.1195542	0.084272599	-101.55924	
	0.089410216	79.333446	0.083323099	79.509469	0.084293954	-101.29167	0.98272756	-5.1913386	
	0.98267847	-5.1195542	0.084293954	-101.29167	0.086679013	80.170355	0.089247158	79.121431	
	0.084272599	-101.55924	0.98272756	-5.1913386	0.089247158	79.121431	0.086542868	80.176998	
	
0.30619567288371	0.08678824	79.725287	0.09117571	79.135175	0.98116702	-5.2640244	0.08591808	-101.4844	
	0.09117571	79.135175	0.084575514	78.397201	0.086247053	-101.41291	0.98205323	-5.2631379	
	0.98116702	-5.2640244	0.086247053	-101.41291	0.08908905	80.022798	0.09147591	78.852793	
	0.08591808	-101.4844	0.98205323	-5.2631379	0.09147591	78.852793	0.08778018	80.002723	
	
0.313268982833699	0.088480161	79.586422	0.093222501	79.104853	0.98146683	-5.3818583	0.088291711	-101.77843	
	0.093222501	79.104853	0.086906068	79.095925	0.088372243	-101.6852	0.98238825	-5.3755897	
	0.98146683	-5.3818583	0.088372243	-101.6852	0.08982154	80.157677	0.093649805	78.806606	
	0.088291711	-101.77843	0.98238825	-5.3755897	0.093649805	78.806606	0.089408143	79.921434	
	
0.320505690630487	0.089182124	79.219481	0.095411973	78.775675	0.98082767	-5.4845464	0.09017102	-101.80326	
	0.095411973	78.775675	0.088105605	78.253957	0.08997533	-101.64971	0.98192541	-5.4923589	
	0.98082767	-5.4845464	0.08997533	-101.64971	0.090991433	79.470958	0.095341301	78.79052	
