# MHz S MA R 50

0.1	0.17530514	67.954953	0.17728281	68.637	0.94245519	-10.131236	0.17493552	-111.63366	
	0.17728281	68.637	0.17278965	67.950147	0.17531212	-111.70033	0.94393875	-10.041808	
	0.94245519	-10.131236	0.17531212	-111.70033	0.17723295	67.916075	0.17775038	68.558165	
	0.17493552	-111.63366	0.94393875	-10.041808	0.17775038	68.558165	0.1744805	68.10645	
	
0.102310062021247	0.17989598	67.480944	0.18067225	68.153084	0.94001233	-10.298666	0.17837449	-112.2729	
	0.18067225	68.153084	0.17697488	67.405892	0.17831666	-112.17379	0.94102267	-10.238105	
	0.94001233	-10.298666	0.17831666	-112.17379	0.18055901	67.833435	0.18086766	68.135847	
	0.17837449	-112.2729	0.94102267	-10.238105	0.18086766	68.135847	0.17855587	67.320181	
	
0.104673487907914	0.18396936	67.040608	0.18439764	67.76697	0.93830482	-10.52459	0.18197951	-112.71941	
	0.18439764	67.76697	0.18060978	66.843214	0.18167823	-112.68867	0.93966643	-10.43905	
	0.93830482	-10.52459	0.18167823	-112.68867	0.18447604	67.215974	0.18473233	67.603541	
	0.18197951	-112.71941	0.93966643	-10.43905	0.18473233	67.603541	0.18123232	67.492405	
	
0.107091510398389	0.18689883	66.56814	0.18793116	67.257546	0.93632201	-10.742154	0.18536146	-113.07709	
	0.18793116	67.257546	0.18386417	66.3111	0.1854538	-113.06433	0.93722927	-10.637401	
	0.93632201	-10.742154	0.1854538	-113.06433	0.18781764	66.826376	0.18811221	67.20396	
	0.18536146	-113.07709	0.93722927	-10.637401	0.18811221	67.20396	0.18529007	66.820757	
	
0.109565390708082	0.19110714	66.533598	0.1919352	66.778238	0.93367494	-10.919279	0.18922287	-113.73745	
	0.1919352	66.778238	0.18804435	65.926425	0.18915824	-113.54168	0.93486331	-10.84487	
	0.93367494	-10.919279	0.18915824	-113.54168	0.1912693	66.436466	0.19189428	66.670999	
	0.18922287	-113.73745	0.93486331	-10.84487	0.19189428	66.670999	0.18938462	66.301249	
	
0.112096419187261	0.19457223	65.996887	0.19554788	66.383319	0.93141312	-11.125765	0.19325436	-114.1236	
	0.19554788	66.383319	0.19136222	65.732393	0.19295735	-113.99319	0.93271034	-11.072741	
	0.93141312	-11.125765	0.19295735	-113.99319	0.19423905	66.29573	0.19587878	66.131112	
	0.19325436	-114.1236	0.93271034	-11.072741	0.19587878	66.131112	0.19262314	66.304346	
	
0.114685915994083	0.19785052	65.273861	0.19936835	65.987938	0.92914708	-11.328074	0.19668659	-114.53881	
	0.19936835	65.987938	0.19445726	65.154964	0.19672122	-114.54773	0.93051277	-11.248733	
	0.92914708	-11.328074	0.19672122	-114.54773	0.19910944	65.906461	0.19978147	65.793481	
	0.19668659	-114.53881	0.93051277	-11.248733	0.19978147	65.793481	0.19654282	65.598952	
	
0.117335231783182	0.20088555	64.742101	0.20253116	65.440767	0.92669243	-11.556185	0.2000216	-115.0519	
	0.20253116	65.440767	0.19884496	64.640418	0.20000481	-114.97189	0.92815328	-11.475613	
	0.92669243	-11.556185	0.20000481	-114.97189	0.20171784	65.023091	0.20316824	65.316643	
	0.2000216	-115.0519	0.92815328	-11.475613	0.20316824	65.316643	0.19917773	65.014359	
	
0.120045748410147	0.20591137	64.188236	0.20653107	64.902204	0.92477928	-11.732945	0.20372414	-115.45472	
	0.20653107	64.902204	0.20197098	64.404992	0.20373773	-115.57526	0.92539635	-11.62929	
	0.92477928	-11.732945	0.20373773	-115.57526	0.20538792	64.424909	0.20676751	64.910153	
	0.20372414	-115.45472	0.92539635	-11.62929	0.20676751	64.910153	0.20330694	64.478683	
	
0.122818879652292	0.20921654	63.874738	0.21082497	64.418591	0.92211369	-11.947481	0.20809992	-115.95975	
	0.21082497	64.418591	0.2059287	63.820448	0.2077539	-115.99076	0.92283485	-11.869227	
	0.92211369	-11.947481	0.2077539	-115.99076	0.2103292	64.126643	0.21122461	64.405011	
	0.20809992	-115.95975	0.92283485	-11.869227	0.21122461	64.405011	0.20772458	64.078533	
	
0.125656071946061	0.2136274	63.38295	0.21460492	63.990263	0.91895314	-12.173872	0.21174215	-116.5051	
	0.21460492	63.990263	0.20937956	63.295821	0.21167093	-116.45311	0.92006232	-12.084319	
	0.91895314	-12.173872	0.21167093	-116.45311	0.21380172	63.523417	0.21467874	63.988132	
	0.21174215	-116.5051	0.92006232	-12.084319	0.21467874	63.988132	0.21170168	63.524189	
	
0.128558805141477	0.21712029	62.840406	0.21860351	63.470517	0.9162871	-12.369143	0.21563372	-117.00357	
	0.21860351	63.470517	0.21442936	62.741481	0.21563572	-116.92676	0.91783179	-12.307634	
	0.9162871	-12.369143	0.21563572	-116.92676	0.21696773	63.14098	0.21919769	63.507296	
	0.21563372	-117.00357	0.91783179	-12.307634	0.21919769	63.507296	0.21453491	63.088001	
	
0.131528593274019	0.22099852	62.266136	0.22274622	63.045986	0.91332289	-12.576189	0.21988637	-117.39906	
	0.22274622	63.045986	0.21760488	62.532257	0.21939887	-117.50204	0.91465772	-12.492803	
	0.91332289	-12.576189	0.21939887	-117.50204	0.22191152	62.476029	0.22280835	62.816677	
	0.21988637	-117.39906	0.91465772	-12.492803	0.22280835	62.816677	0.21848541	62.950452	
	
0.134566985354323	0.22554801	61.659324	0.22668848	62.477004	0.91037442	-12.792026	0.22366568	-118.02315	
	0.22668848	62.477004	0.22200814	61.801077	0.22335554	-117.91594	0.91167453	-12.745372	
	0.91037442	-12.792026	0.22335554	-117.91594	0.22548675	61.874592	0.22695142	62.333333	
	0.22366568	-118.02315	0.91167453	-12.745372	0.22695142	62.333333	0.22367866	62.126438	
	
0.13767556617613	0.22900704	61.222349	0.23059132	62.080722	0.90747734	-13.014448	0.22729372	-118.59269	
	0.23059132	62.080722	0.22578989	61.310698	0.22764189	-118.39276	0.90867906	-12.904755	
	0.90747734	-13.014448	0.22764189	-118.39276	0.2298751	61.467689	0.23114095	61.803868	
	0.22729372	-118.59269	0.90867906	-12.904755	0.23114095	61.803868	0.22733818	61.610822	
	
0.140855957142902	0.23251086	60.723975	0.23470804	61.509153	0.90421939	-13.233465	0.23145269	-119.24182	
	0.23470804	61.509153	0.23036302	60.432903	0.2310489	-119.16894	0.90472113	-13.174129	
	0.90421939	-13.233465	0.2310489	-119.16894	0.23344447	60.780686	0.23471436	61.133466	
	0.23145269	-119.24182	0.90472113	-13.174129	0.23471436	61.133466	0.23102305	60.812519	
	
0.144109817113524	0.23732708	60.04146	0.23875937	60.974822	0.90063261	-13.43863	0.23529887	-119.65403	
	0.23875937	60.974822	0.23419043	60.114634	0.23526411	-119.67991	0.90200806	-13.359756	
	0.90063261	-13.43863	0.23526411	-119.67991	0.23731353	60.406574	0.23913302	60.79672	
	0.23529887	-119.65403	0.90200806	-13.359756	0.23913302	60.79672	0.23587263	60.355799	
	
0.147438843267552	0.24122122	59.593575	0.24297637	60.335665	0.89741047	-13.681897	0.23943901	-120.16069	
	0.24297637	60.335665	0.23830334	59.575236	0.23982539	-120.14298	0.89839878	-13.603216	
	0.89741047	-13.681897	0.23982539	-120.14298	0.24115665	60.051744	0.24326224	60.25691	
	0.23943901	-120.16069	0.89839878	-13.603216	0.24326224	60.25691	0.23977144	59.902106	
	
0.150844771990442	0.24567753	58.826486	0.24682289	59.858562	0.89384982	-13.859926	0.24379013	-120.75322	
	0.24682289	59.858562	0.24264963	58.822593	0.24327303	-120.69544	0.89487261	-13.781441	
	0.89384982	-13.859926	0.24327303	-120.69544	0.24582704	59.071655	0.24722033	59.775177	
	0.24379013	-120.75322	0.89487261	-13.781441	0.24722033	59.775177	0.24306902	59.43395	
	
0.154329379779229	0.24997978	58.512024	0.2511387	59.241701	0.89056909	-14.080104	0.24757675	-121.27083	
	0.2511387	59.241701	0.24684444	58.413382	0.2479793	-121.39429	0.89203188	-13.997883	
	0.89056909	-14.080104	0.2479793	-121.39429	0.25039782	58.757798	0.25133007	59.122235	
	0.24757675	-121.27083	0.89203188	-13.997883	0.25133007	59.122235	0.24776896	58.742519	
	
0.157894484169135	0.25404113	57.97097	0.25567125	58.726659	0.88763651	-14.298826	0.25201772	-121.87077	
	0.25567125	58.726659	0.25089611	57.91191	0.2520891	-121.85891	0.88872281	-14.24083	
	0.88763651	-14.298826	0.2520891	-121.85891	0.25450681	58.25912	0.25592092	58.532421	
	0.25201772	-121.87077	0.88872281	-14.24083	0.25592092	58.532421	0.25179626	58.190499	
	
0.16154194468157	0.25826645	57.411733	0.26066291	58.176096	0.8829549	-14.548214	0.25618149	-122.39695	
	0.26066291	58.176096	0.25458036	57.43615	0.25595634	-122.42172	0.88575028	-14.492566	
	0.8829549	-14.548214	0.25595634	-122.42172	0.25751661	57.657547	0.25988515	58.154824	
	0.25618149	-122.39695	0.88575028	-14.492566	0.25988515	58.154824	0.25533222	57.542495	
	
0.165273663794043	0.2624973	56.904033	0.26416575	57.59389	0.87868435	-14.736382	0.26036236	-123.02693	
	0.26416575	57.59389	0.25954295	56.642591	0.26011323	-122.94729	0.88099065	-14.683687	
	0.87868435	-14.736382	0.26011323	-122.94729	0.26254506	57.0508	0.26438069	57.506178	
	0.26036236	-123.02693	0.88099065	-14.683687	0.26438069	57.506178	0.26060335	56.988947	
	
0.169091587932473	0.26699822	56.336022	0.26839999	56.96189	0.87566934	-14.952701	0.26422878	-123.65487	
	0.26839999	56.96189	0.26384902	56.303935	0.26459688	-123.62592	0.87703516	-14.889216	
	0.87566934	-14.952701	0.26459688	-123.62592	0.26755615	56.36169	0.26816981	56.859215	
	0.26422878	-123.65487	0.87703516	-14.889216	0.26816981	56.859215	0.26470557	56.378534	
	
0.172997708486424	0.27062281	55.611549	0.2726891	56.394495	0.87182621	-15.161092	0.26902321	-124.21548	
	0.2726891	56.394495	0.26672692	55.593665	0.26854217	-124.09886	0.87297947	-15.120753	
	0.87182621	-15.161092	0.26854217	-124.09886	0.27193594	55.675618	0.27254839	56.243742	
	0.26902321	-124.21548	0.87297947	-15.120753	0.27254839	56.243742	0.26866995	55.870304	
	
0.176994062847797	0.27541105	55.130731	0.27717254	55.801067	0.86767862	-15.379123	0.27340703	-124.87821	
	0.27717254	55.801067	0.2722394	54.943688	0.27304337	-124.7728	0.86882307	-15.276021	
	0.86767862	-15.379123	0.27304337	-124.7728	0.27634739	55.212004	0.27736799	55.727607	
	0.27340703	-124.87821	0.86882307	-15.276021	0.27736799	55.727607	0.27208253	55.304193	
	
0.181082735473506	0.27964783	54.479461	0.2812966	55.288996	0.86347459	-15.589148	0.27725287	-125.44585	
	0.2812966	55.288996	0.27646365	54.281444	0.27726398	-125.34965	0.86502026	-15.480322	
	0.86347459	-15.589148	0.27726398	-125.34965	0.27937771	54.643562	0.2814303	55.061294	
	0.27725287	-125.44585	0.86502026	-15.480322	0.2814303	55.061294	0.27743082	54.693736	
	
0.185265858972714	0.28317655	53.957303	0.28565881	54.593768	0.85977819	-15.835078	0.28135424	-126.0798	
	0.28565881	54.593768	0.2806155	53.86929	0.28149216	-125.92713	0.86061074	-15.720124	
	0.85977819	-15.835078	0.28149216	-125.92713	0.28358494	54.035243	0.28568365	54.516997	
	0.28135424	-126.0798	0.86061074	-15.720124	0.28568365	54.516997	0.2807931	53.979011	
	
0.18954561521918	0.28808411	53.209566	0.29023746	54.102289	0.85479844	-15.994085	0.28627016	-126.64027	
	0.29023746	54.102289	0.28461958	53.159933	0.28568982	-126.55637	0.85678824	-15.890622	
	0.85479844	-15.994085	0.28568982	-126.55637	0.28839019	53.52314	0.29068842	54.03079	
	0.28627016	-126.64027	0.85678824	-15.890622	0.29068842	54.03079	0.28503074	53.556663	
	
0.193924236489297	0.29231923	52.629189	0.29390464	53.434729	0.84995739	-16.239354	0.28996752	-127.19449	
	0.29390464	53.434729	0.28897278	52.484237	0.29012047	-127.15752	0.85213609	-16.0756	
	0.84995739	-16.239354	0.29012047	-127.15752	0.29286588	52.847682	0.2945415	53.31976	
	0.28996752	-127.19449	0.85213609	-16.0756	0.2945415	53.31976	0.28999172	52.775798	
	
0.19840400662643	0.29648589	52.107642	0.29859231	52.835655	0.84640016	-16.442315	0.29490042	-127.9003	
	0.29859231	52.835655	0.29333232	52.191757	0.29429144	-127.83714	0.84793175	-16.34401	
	0.84640016	-16.442315	0.29429144	-127.83714	0.29664501	52.134318	0.29940038	52.670964	
	0.29490042	-127.9003	0.84793175	-16.34401	0.29940038	52.670964	0.29429784	52.074199	
	
0.202987262232139	0.30097693	51.431643	0.3028705	52.106733	0.84129389	-16.609943	0.29852123	-128.55841	
	0.3028705	52.106733	0.29800501	51.39488	0.29867995	-128.48921	0.84297136	-16.4937	
	0.84129389	-16.609943	0.29867995	-128.48921	0.30121801	51.446093	0.30324681	52.126036	
	0.29852123	-128.55841	0.84297136	-16.4937	0.30324681	52.126036	0.298555	51.62892	
	
0.207676393884933	0.30477494	50.830772	0.30739984	51.541316	0.83670853	-16.818034	0.30287272	-129.17134	
	0.30739984	51.541316	0.30190525	50.645361	0.30270288	-129.15684	0.83829393	-16.672146	
	0.83670853	-16.818034	0.30270288	-129.15684	0.30499191	50.964439	0.3072991	51.512517	
	0.30287272	-129.17134	0.83829393	-16.672146	0.3072991	51.512517	0.30294651	51.075338	
	
0.212473847387164	0.30947487	50.060161	0.31153004	50.990978	0.83223422	-16.994136	0.30652551	-129.79096	
	0.31153004	50.990978	0.30553035	50.108878	0.30686865	-129.7352	0.83396168	-16.844418	
	0.83223422	-16.994136	0.30686865	-129.7352	0.31007264	50.206588	0.31168325	50.899582	
	0.30652551	-129.79096	0.83396168	-16.844418	0.31168325	50.899582	0.30683241	50.276815	
	
0.217382125040737	0.31401315	49.517655	0.31553887	50.356066	0.82753089	-17.194985	0.31151144	-130.48647	
	0.31553887	50.356066	0.31052241	49.462641	0.31094643	-130.41593	0.82948886	-17.082891	
	0.82753089	-17.194985	0.31094643	-130.41593	0.31370644	49.68463	0.31626495	50.226352	
	0.31151144	-130.48647	0.82948886	-17.082891	0.31626495	50.226352	0.31109194	49.642224	
	
0.222403786952283	0.31777717	48.862996	0.3195992	49.733052	0.82215742	-17.382041	0.3153921	-131.05354	
	0.3195992	49.733052	0.31507635	48.825292	0.31505536	-131.01646	0.8242498	-17.20857	
	0.82215742	-17.382041	0.31505536	-131.01646	0.31819904	49.05021	0.32006707	49.539675	
	0.3153921	-131.05354	0.8242498	-17.20857	0.32006707	49.539675	0.3155818	48.99669	
	
0.227541452368483	0.3230694	48.241789	0.32412348	49.142301	0.81784589	-17.540202	0.31972201	-131.69603	
	0.32412348	49.142301	0.31934006	48.2577	0.31920256	-131.59552	0.81929436	-17.429478	
	0.81784589	-17.540202	0.31920256	-131.59552	0.32170909	48.223433	0.32430269	49.041139	
	0.31972201	-131.69603	0.81929436	-17.429478	0.32430269	49.041139	0.31910043	48.510208	
	
0.232797801042241	0.32629474	47.572213	0.32849776	48.448129	0.81234174	-17.707802	0.32347006	-132.38993	
	0.32849776	48.448129	0.32250207	47.621182	0.3238812	-132.31304	0.81495771	-17.565621	
	0.81234174	-17.707802	0.3238812	-132.31304	0.3264496	47.690914	0.32838517	48.35269	
	0.32347006	-132.38993	0.81495771	-17.565621	0.32838517	48.35269	0.3234353	47.71763	
	
0.238175574630416	0.33006606	46.966241	0.33267535	47.848402	0.80759208	-17.860766	0.32768215	-132.90723	
	0.33267535	47.848402	0.32718278	46.934241	0.32750505	-132.97748	0.80943137	-17.767345	
	0.80759208	-17.860766	0.32750505	-132.97748	0.33070929	47.004717	0.33270818	47.726571	
	0.32768215	-132.90723	0.80943137	-17.767345	0.33270818	47.726571	0.32719086	47.090726	
	
0.24367757812384	0.33442348	46.365797	0.33672236	47.156736	0.80189661	-18.036462	0.33182253	-133.64069	
	0.33672236	47.156736	0.3306688	46.327725	0.33161189	-133.61907	0.80454979	-17.932609	
	0.80189661	-18.036462	0.33161189	-133.61907	0.33472286	46.415428	0.3366533	47.062125	
	0.33182253	-133.64069	0.80454979	-17.932609	0.3366533	47.062125	0.3310425	46.477171	
	
0.249306681310373	0.33873879	45.662889	0.34080312	46.552103	0.79680614	-18.237126	0.33538194	-134.29997	
	0.34080312	46.552103	0.33579244	45.582297	0.33538196	-134.27894	0.79917226	-18.063046	
	0.79680614	-18.237126	0.33538196	-134.27894	0.33922576	45.812721	0.3406388	46.457915	
	0.33538194	-134.29997	0.79917226	-18.063046	0.3406388	46.457915	0.33523667	45.846168	
	
0.255065820271756	0.34260205	45.052397	0.34467421	45.917324	0.79216626	-18.326192	0.34003071	-134.94853	
	0.34467421	45.917324	0.33915775	44.906283	0.33965423	-134.89545	0.79395158	-18.201016	
	0.79216626	-18.326192	0.33965423	-134.89545	0.34218343	45.10888	0.34538198	45.744459	
	0.34003071	-134.94853	0.79395158	-18.201016	0.34538198	45.744459	0.33943799	45.181922	
	
0.260957998915036	0.34636811	44.268319	0.34867434	45.404156	0.78671046	-18.494804	0.34358614	-135.62835	
	0.34867434	45.404156	0.34340523	44.290471	0.34367744	-135.56834	0.78921437	-18.337248	
	0.78671046	-18.494804	0.34367744	-135.56834	0.34674383	44.397101	0.34926154	45.212414	
	0.34358614	-135.62835	0.78921437	-18.337248	0.34926154	45.212414	0.34284518	44.479468	
	
0.266986290539378	0.35020156	43.675341	0.3524107	44.584438	0.78150998	-18.589617	0.34737014	-136.29506	
	0.3524107	44.584438	0.34697382	43.727739	0.34812758	-136.16487	0.78357587	-18.471518	
	0.78150998	-18.589617	0.34812758	-136.16487	0.35094635	43.8271	0.3527746	44.520666	
	0.34737014	-136.29506	0.78357587	-18.471518	0.3527746	44.520666	0.34741018	43.836364	
	
0.273153839439064	0.35454539	43.077332	0.3566465	44.019577	0.77665509	-18.715232	0.35163763	-136.94639	
	0.3566465	44.019577	0.35065751	43.020933	0.35205322	-136.82937	0.77843542	-18.594438	
	0.77665509	-18.715232	0.35205322	-136.82937	0.35422278	43.205438	0.35689172	43.93944	
	0.35163763	-136.94639	0.77843542	-18.594438	0.35689172	43.93944	0.35174371	43.157945	
	
0.279463862543524	0.35788693	42.332959	0.36031313	43.396294	0.77118646	-18.836113	0.35496727	-137.53761	
	0.36031313	43.396294	0.35587505	42.375762	0.35490284	-137.52316	0.77298902	-18.744406	
	0.77118646	-18.836113	0.35490284	-137.52316	0.3588288	42.439349	0.36014637	43.287618	
	0.35496727	-137.53761	0.77298902	-18.744406	0.36014637	43.287618	0.35467144	42.59873	
	
0.285919651095252	0.36254536	41.756456	0.36435526	42.703212	0.76532427	-18.953427	0.35878102	-138.25979	
	0.36435526	42.703212	0.35868171	41.791742	0.35873212	-138.2371	0.76749805	-18.825065	
	0.76532427	-18.953427	0.35873212	-138.2371	0.36219928	41.804423	0.36431519	42.573365	
	0.35878102	-138.25979	0.76749805	-18.825065	0.36431519	42.573365	0.35909166	41.866345	
	
0.292524572366485	0.36615474	41.092601	0.3675381	42.122369	0.76017259	-19.072829	0.36227787	-138.95622	
	0.3675381	42.122369	0.36260677	41.204035	0.362631	-139.0394	0.7621661	-18.897584	
	0.76017259	-19.072829	0.362631	-139.0394	0.36647803	41.229689	0.36805306	41.933083	
	0.36227787	-138.95622	0.7621661	-18.897584	0.36805306	41.933083	0.36357683	41.382882	
	
0.299282071415539	0.3697544	40.532339	0.37148205	41.42783	0.75483988	-19.138327	0.36620212	-139.62137	
	0.37148205	41.42783	0.36574148	40.526726	0.36565103	-139.5651	0.75669032	-19.006922	
	0.75483988	-19.138327	0.36565103	-139.5651	0.37008147	40.584018	0.37160568	41.209226	
	0.36620212	-139.62137	0.75669032	-19.006922	0.37160568	41.209226	0.36687496	40.656307	
	
0.30619567288371	0.37307897	39.870166	0.37529543	40.803414	0.74858378	-19.242797	0.3694427	-140.23302	
	0.37529543	40.803414	0.36872302	39.760086	0.36931439	-140.18035	0.75201979	-19.080361	
	0.74858378	-19.242797	0.36931439	-140.18035	0.37338627	39.956607	0.37538856	40.659163	
	0.3694427	-140.23302	0.75201979	-19.080361	0.37538856	40.659163	0.37043203	40.029391	
	
0.313268982833699	0.37680044	39.26319	0.37916772	40.25584	0.74411182	-19.350479	0.37375519	-140.85863	
	0.37916772	40.25584	0.37244895	39.194771	0.37403613	-140.80593	0.74637473	-19.186373	
	0.74411182	-19.350479	0.37403613	-140.80593	0.37716765	39.305725	0.37923583	40.06419	
	0.37375519	-140.85863	0.74637473	-19.186373	0.37923583	40.06419	0.3731985	39.379741	
	
0.320505690630487	0.37973334	38.57713	0.38297484	39.678698	0.73899145	-19.394405	0.37795645	-141.34424	
	0.38297484	39.678698	0.37593679	38.499663	0.37725266	-141.35417	0.74163946	-19.287994	
	0.73899145	-19.394405	0.37725266	-141.35417	0.38028565	38.602843	0.3828727	39.558671	
	0.37795645	-141.34424	0.74163946	-19.287994	0.3828727	39.558671	0.37654225	38.735554	
	
0.327909570865677	0.38305098	37.899943	0.38679182	39.083881	0.73331555	-19.475515	0.38184815	-142.07231	
	0.38679182	39.083881	0.37967502	37.927752	0.3810692	-141.93248	0.73554383	-19.351474	
	0.73331555	-19.475515	0.3810692	-141.93248	0.38337664	38.02061	0.38740273	38.908753	
	0.38184815	-142.07231	0.73554383	-19.351474	0.38740273	38.908753	0.38037943	38.118657	
	
0.335484485326279	0.38664662	37.241149	0.39018202	38.518016	0.72800171	-19.548759	0.38449725	-142.68403	
	0.39018202	38.518016	0.38238575	37.279605	0.38446793	-142.57392	0.7307316	-19.378189	
