# MHz S MA R 50

0.1	0.12864851	73.522263	0.13106205	74.237764	0.96554844	-7.4819163	0.1289768	-106.05681	
	0.13106205	74.237764	0.12766381	73.806381	0.12910145	-106.05247	0.96682399	-7.4422799	
	0.96554844	-7.4819163	0.12910145	-106.05247	0.13115067	73.828645	0.13105432	73.9381	
	0.1289768	-106.05681	0.96682399	-7.4422799	0.13105432	73.9381	0.12879325	73.677151	
	
0.102310062021247	0.13252784	73.38185	0.133819	73.907745	0.96479748	-7.6383998	0.13161109	-106.48164	
	0.133819	73.907745	0.13078308	73.315455	0.13172182	-106.37735	0.9653701	-7.6497406	
	0.96479748	-7.6383998	0.13172182	-106.37735	0.13308843	73.686891	0.13390796	73.721632	
	0.13161109	-106.48164	0.9653701	-7.6497406	0.13390796	73.721632	0.13258831	73.337885	
	
0.104673487907914	0.13553671	72.940763	0.13674872	73.529913	0.96304072	-7.8123078	0.13476664	-106.85087	
	0.13674872	73.529913	0.13388392	72.463772	0.13491995	-106.69715	0.96448757	-7.8217206	
	0.96304072	-7.8123078	0.13491995	-106.69715	0.13618028	73.211126	0.13682408	73.325293	
	0.13476664	-106.85087	0.96448757	-7.8217206	0.13682408	73.325293	0.1343238	73.629021	
	
0.107091510398389	0.13791227	72.479782	0.13926765	73.309513	0.962543	-7.9826077	0.13743571	-107.14149	
	0.13926765	73.309513	0.13650818	72.534289	0.13744098	-107.08594	0.96275543	-7.9653608	
	0.962543	-7.9826077	0.13744098	-107.08594	0.13899414	73.06098	0.13932926	72.995034	
	0.13743571	-107.14149	0.96275543	-7.9653608	0.13932926	72.995034	0.13817281	72.847489	
	
0.109565390708082	0.1419283	72.751154	0.14248868	72.78548	0.96032146	-8.1376022	0.14039243	-107.59598	
	0.14248868	72.78548	0.1397904	72.328274	0.14017196	-107.52353	0.96172067	-8.11823	
	0.96032146	-8.1376022	0.14017196	-107.52353	0.14125808	72.718041	0.14213986	72.64473	
	0.14039243	-107.59598	0.96172067	-8.11823	0.14213986	72.64473	0.14135082	72.469404	
	
0.112096419187261	0.1443826	72.596873	0.14539213	72.414742	0.95953849	-8.2735218	0.1435149	-107.88963	
	0.14539213	72.414742	0.14251653	72.288564	0.14341472	-107.69455	0.96052763	-8.3172105	
	0.95953849	-8.2735218	0.14341472	-107.69455	0.1440243	72.71796	0.14548077	72.414416	
	0.1435149	-107.88963	0.96052763	-8.3172105	0.14548077	72.414416	0.14421404	72.643938	
	
0.114685915994083	0.14681558	71.663227	0.14835534	72.110502	0.95847898	-8.4537128	0.14656836	-108.21373	
	0.14835534	72.110502	0.14523851	71.713734	0.14639097	-108.20076	0.95920786	-8.4868149	
	0.95847898	-8.4537128	0.14639097	-108.20076	0.1469967	72.522277	0.14852127	72.014973	
	0.14656836	-108.21373	0.95920786	-8.4868149	0.14852127	72.014973	0.14677573	71.957978	
	
0.117335231783182	0.14948077	71.309538	0.15118977	71.758656	0.95662859	-8.6657978	0.14939864	-108.45962	
	0.15118977	71.758656	0.14827268	71.098029	0.14929677	-108.57596	0.95797924	-8.6460973	
	0.95662859	-8.6657978	0.14929677	-108.57596	0.14996493	71.800692	0.1515338	71.758122	
	0.14939864	-108.45962	0.95797924	-8.6460973	0.1515338	71.758122	0.14889863	71.753586	
	
0.120045748410147	0.15288538	70.644683	0.15457685	71.376902	0.95551498	-8.7937928	0.15247736	-108.85748	
	0.15457685	71.376902	0.15054968	71.005375	0.15224166	-109.07151	0.9555024	-8.8049088	
	0.95551498	-8.7937928	0.15224166	-109.07151	0.15295688	70.926997	0.1546258	71.326105	
	0.15247736	-108.85748	0.9555024	-8.8049088	0.1546258	71.326105	0.15198342	70.891623	
	
0.122818879652292	0.15581759	70.692731	0.15781554	70.959215	0.95431855	-8.9847698	0.15546385	-109.23877	
	0.15781554	70.959215	0.1543232	70.728369	0.1556554	-109.3289	0.954733	-8.9923234	
	0.95431855	-8.9847698	0.1556554	-109.3289	0.15682533	70.883187	0.1580308	70.965464	
	0.15546385	-109.23877	0.954733	-8.9923234	0.1580308	70.965464	0.15542066	70.791986	
	
0.125656071946061	0.15960924	70.354579	0.16128526	70.666016	0.95211637	-9.1873464	0.15845805	-109.76079	
	0.16128526	70.666016	0.15754603	70.263561	0.15871195	-109.68174	0.95322243	-9.1658584	
	0.95211637	-9.1873464	0.15871195	-109.68174	0.15979772	70.399962	0.16101258	70.636732	
	0.15845805	-109.76079	0.95322243	-9.1658584	0.16101258	70.636732	0.15924965	70.410888	
	
0.128558805141477	0.16205851	69.813711	0.16395394	70.197531	0.95027277	-9.3514715	0.16201406	-110.0311	
	0.16395394	70.197531	0.16099485	69.647713	0.16176913	-109.97217	0.95184371	-9.3553338	
	0.95027277	-9.3514715	0.16176913	-109.97217	0.16222092	70.197679	0.16437421	70.282095	
	0.16201406	-110.0311	0.95184371	-9.3553338	0.16437421	70.282095	0.16188342	70.188799	
	
0.131528593274019	0.16562142	69.338626	0.1674999	69.877712	0.94882295	-9.5461711	0.1655669	-110.48433	
	0.1674999	69.877712	0.16337906	69.573627	0.16549169	-110.55455	0.94960872	-9.5590491	
	0.94882295	-9.5461711	0.16549169	-110.55455	0.16673544	69.615901	0.16790896	69.783602	
	0.1655669	-110.48433	0.94960872	-9.5590491	0.16790896	69.783602	0.16478548	70.198873	
	
0.134566985354323	0.16953457	68.774743	0.17105043	69.454773	0.94655916	-9.7189239	0.16860568	-111.03202	
	0.17105043	69.454773	0.16754529	68.913242	0.16828793	-110.97126	0.94789954	-9.7541023	
	0.94655916	-9.7189239	0.16828793	-110.97126	0.16979344	69.08059	0.17117983	69.286134	
	0.16860568	-111.03202	0.94789954	-9.7541023	0.17117983	69.286134	0.16942162	69.582752	
	
0.13767556617613	0.17235722	68.404177	0.17408312	69.185301	0.9449943	-9.9319039	0.17173395	-111.37626	
	0.17408312	69.185301	0.17092552	68.514573	0.17202544	-111.2757	0.94614909	-9.9006204	
	0.9449943	-9.9319039	0.17202544	-111.2757	0.17265359	68.697438	0.17468634	68.841387	
	0.17173395	-111.37626	0.94614909	-9.9006204	0.17468634	68.841387	0.17268489	69.014223	
	
0.140855957142902	0.17524216	67.957937	0.17767311	68.811619	0.94329282	-10.125231	0.17519856	-111.92679	
	0.17767311	68.811619	0.17468576	67.919253	0.17523182	-111.7616	0.94359548	-10.113141	
	0.94329282	-10.125231	0.17523182	-111.7616	0.17661773	68.21347	0.17831883	68.31314	
	0.17519856	-111.92679	0.94359548	-10.113141	0.17831883	68.31314	0.17670915	68.30957	
	
0.144109817113524	0.17920449	67.52208	0.18130356	68.263481	0.9409223	-10.30811	0.17877493	-112.25674	
	0.18130356	68.263481	0.17702258	67.484793	0.17834745	-112.20003	0.94153898	-10.29928	
	0.9409223	-10.30811	0.17834745	-112.20003	0.17998891	67.725969	0.18144791	68.015954	
	0.17877493	-112.25674	0.94153898	-10.29928	0.18144791	68.015954	0.18000022	67.927228	
	
0.147438843267552	0.1824845	67.292747	0.18485036	67.785345	0.93887856	-10.494406	0.18190956	-112.65627	
	0.18485036	67.785345	0.18115683	67.100467	0.18250913	-112.66286	0.93957032	-10.527701	
	0.93887856	-10.494406	0.18250913	-112.66286	0.18345568	67.710548	0.18501375	67.615655	
	0.18190956	-112.65627	0.93957032	-10.527701	0.18501375	67.615655	0.18327178	67.537703	
	
0.150844771990442	0.1866154	66.471705	0.1885474	67.405394	0.93653297	-10.683988	0.18565316	-113.06711	
	0.1885474	67.405394	0.18531045	66.445083	0.18533872	-113.13808	0.93742718	-10.698657	
	0.93653297	-10.683988	0.18533872	-113.13808	0.18663261	66.772532	0.18854842	67.20325	
	0.18565316	-113.06711	0.93742718	-10.698657	0.18854842	67.20325	0.18591203	66.962305	
	
0.154329379779229	0.1904636	66.132211	0.19196485	66.911735	0.93430278	-10.879026	0.18931828	-113.52933	
	0.19196485	66.911735	0.18888979	66.106972	0.18949558	-113.6291	0.93534407	-10.913177	
	0.93430278	-10.879026	0.18949558	-113.6291	0.19060926	66.55689	0.19239533	66.684118	
	0.18931828	-113.52933	0.93534407	-10.913177	0.19239533	66.684118	0.1901642	66.497799	
	
0.157894484169135	0.19364909	65.800017	0.19575096	66.341803	0.93208915	-11.090664	0.19309167	-113.99569	
	0.19575096	66.341803	0.19252884	65.7509	0.19322582	-114.06795	0.93344281	-11.140815	
	0.93208915	-11.090664	0.19322582	-114.06795	0.19448693	66.289675	0.1961642	66.227803	
	0.19309167	-113.99569	0.93344281	-11.140815	0.1961642	66.227803	0.19389819	66.180456	
	
0.16154194468157	0.19805428	65.495111	0.20000204	65.94609	0.92927557	-11.338336	0.19672416	-114.38833	
	0.20000204	65.94609	0.19531846	65.599909	0.19678506	-114.43935	0.93176606	-11.358318	
	0.92927557	-11.338336	0.19678506	-114.43935	0.1968556	65.691279	0.19983017	65.988057	
	0.19672416	-114.38833	0.93176606	-11.358318	0.19983017	65.988057	0.19690997	65.561015	
	
0.165273663794043	0.20132785	64.991007	0.20353314	65.512358	0.92707646	-11.534002	0.20066536	-115.03347	
	0.20353314	65.512358	0.19987311	64.816728	0.20031851	-114.90744	0.92846537	-11.544532	
	0.92707646	-11.534002	0.20031851	-114.90744	0.20146535	65.134717	0.20358486	65.419168	
	0.20066536	-115.03347	0.92846537	-11.544532	0.20358486	65.419168	0.20124466	65.096634	
	
0.169091587932473	0.20538204	64.509328	0.20713308	64.964544	0.92468927	-11.71658	0.20411332	-115.50257	
	0.20713308	64.964544	0.20421497	64.642809	0.20422161	-115.55364	0.92577283	-11.751878	
	0.92468927	-11.71658	0.20422161	-115.55364	0.20633736	64.436569	0.20722587	64.841558	
	0.20411332	-115.50257	0.92577283	-11.751878	0.20722587	64.841558	0.20585946	64.489241	
	
0.172997708486424	0.20871818	64.005818	0.21140768	64.568483	0.92256033	-11.943962	0.20847924	-116.00542	
	0.21140768	64.568483	0.20689051	63.91066	0.20779054	-115.78052	0.92309518	-11.998829	
	0.92256033	-11.943962	0.20779054	-115.78052	0.21038125	63.989212	0.21139412	64.321014	
	0.20847924	-116.00542	0.92309518	-11.998829	0.21139412	64.321014	0.20876602	64.090038	
	
0.176994062847797	0.2131975	63.604397	0.21530891	64.023244	0.91956675	-12.160261	0.21230176	-116.48406	
	0.21530891	64.023244	0.21157886	63.347097	0.21208216	-116.44168	0.9202348	-12.163879	
	0.91956675	-12.160261	0.21208216	-116.44168	0.21427258	63.57382	0.21563276	63.830518	
	0.21230176	-116.48406	0.9202348	-12.163879	0.21563276	63.830518	0.21187477	63.755486	
	
0.181082735473506	0.21700267	62.88931	0.21882347	63.497801	0.9165417	-12.364104	0.21600947	-117.00958	
	0.21882347	63.497801	0.21511269	62.731802	0.21584484	-116.86607	0.9175028	-12.39606	
	0.9165417	-12.364104	0.21584484	-116.86607	0.21648985	63.231332	0.21983169	63.358893	
	0.21600947	-117.00958	0.9175028	-12.39606	0.21983169	63.358893	0.21692978	63.133148	
	
0.185265858972714	0.2201	62.462194	0.22341681	63.003692	0.91413824	-12.589458	0.21984985	-117.49846	
	0.22341681	63.003692	0.21948714	62.506468	0.21984067	-117.36552	0.91503941	-12.604045	
	0.91413824	-12.589458	0.21984067	-117.36552	0.22059155	62.839393	0.22329058	62.923324	
	0.21984985	-117.49846	0.91503941	-12.604045	0.22329058	62.923324	0.22021699	62.662446	
	
0.18954561521918	0.22505665	61.819598	0.2273987	62.568076	0.91075758	-12.807386	0.22446819	-118.05641	
	0.2273987	62.568076	0.22295617	62.019877	0.22379501	-117.83184	0.91240259	-12.802896	
	0.91075758	-12.807386	0.22379501	-117.83184	0.22513205	62.300645	0.22775402	62.457429	
	0.22446819	-118.05641	0.91240259	-12.802896	0.22775402	62.457429	0.22350311	62.367151	
	
0.193924236489297	0.22880269	61.38123	0.23107635	61.98459	0.90699574	-13.043171	0.22767396	-118.50351	
	0.23107635	61.98459	0.22680504	61.276505	0.2279626	-118.44506	0.90907878	-13.005568	
	0.90699574	-13.043171	0.2279626	-118.44506	0.22942397	61.745498	0.23155611	61.925251	
	0.22767396	-118.50351	0.90907878	-13.005568	0.23155611	61.925251	0.2287598	61.709771	
	
0.19840400662643	0.23300241	60.970118	0.23568061	61.477133	0.90481316	-13.25225	0.23277849	-119.1357	
	0.23568061	61.477133	0.23149471	60.963309	0.23234712	-118.99286	0.90587677	-13.311772	
	0.90481316	-13.25225	0.23234712	-118.99286	0.23357724	61.042325	0.23650775	61.326691	
	0.23277849	-119.1357	0.90587677	-13.311772	0.23650775	61.326691	0.23239971	61.097415	
	
0.202987262232139	0.2373539	60.292692	0.23957395	60.87421	0.90150894	-13.456393	0.23619804	-119.67699	
	0.23957395	60.87421	0.2360067	60.271676	0.23632707	-119.55368	0.90240532	-13.455234	
	0.90150894	-13.456393	0.23632707	-119.55368	0.23728327	60.526088	0.24005782	60.851813	
	0.23619804	-119.67699	0.90240532	-13.455234	0.24005782	60.851813	0.23702001	60.652093	
	
0.207676393884933	0.2410061	59.818489	0.24407721	60.315153	0.89788172	-13.69428	0.24024795	-120.1586	
	0.24407721	60.315153	0.24036481	59.634237	0.24033733	-120.14074	0.89924374	-13.692872	
	0.89788172	-13.69428	0.24033733	-120.14074	0.24127672	60.065932	0.24395388	60.266986	
	0.24024795	-120.1586	0.89924374	-13.692872	0.24395388	60.266986	0.24152451	60.172923	
	
0.212473847387164	0.24545129	59.111714	0.24776069	59.889815	0.89444924	-13.898349	0.24418229	-120.76724	
	0.24776069	59.889815	0.2433388	59.087535	0.24390147	-120.71754	0.89548169	-13.888186	
	0.89444924	-13.898349	0.24390147	-120.71754	0.24582125	59.265479	0.247901	59.763949	
	0.24418229	-120.76724	0.89548169	-13.888186	0.247901	59.763949	0.24474931	59.357497	
	
0.217382125040737	0.24961768	58.724457	0.2522495	59.252866	0.89142034	-14.117345	0.24872432	-121.33446	
	0.2522495	59.252866	0.24810397	58.658339	0.24839451	-121.30158	0.89261091	-14.124641	
	0.89142034	-14.117345	0.24839451	-121.30158	0.24938288	59.045874	0.25258031	59.174956	
	0.24872432	-121.33446	0.89261091	-14.124641	0.25258031	59.174956	0.24879628	58.888908	
	
0.222403786952283	0.25407558	58.006094	0.25644184	58.698336	0.8875634	-14.344397	0.25238865	-121.90633	
	0.25644184	58.698336	0.25274499	58.090097	0.2528396	-121.86868	0.88852819	-14.324349	
	0.8875634	-14.344397	0.2528396	-121.86868	0.25429686	58.25938	0.25667403	58.475816	
	0.25238865	-121.90633	0.88852819	-14.324349	0.25667403	58.475816	0.25343325	58.259583	
	
0.227541452368483	0.25823221	57.517393	0.26072611	58.135715	0.8839397	-14.545739	0.25675589	-122.4725	
	0.26072611	58.135715	0.25752839	57.509272	0.25677519	-122.35645	0.88555303	-14.565907	
	0.8839397	-14.545739	0.25677519	-122.35645	0.25778974	57.614612	0.26099452	58.175474	
	0.25675589	-122.4725	0.88555303	-14.565907	0.26099452	58.175474	0.25745697	57.924177	
	
0.232797801042241	0.26203336	56.906659	0.26525969	57.572795	0.87968156	-14.769745	0.26099466	-123.02336	
	0.26525969	57.572795	0.26113479	57.09408	0.26114873	-122.97711	0.88142888	-14.766944	
	0.87968156	-14.769745	0.26114873	-122.97711	0.26258463	57.124697	0.2651137	57.419668	
	0.26099466	-123.02336	0.88142888	-14.766944	0.2651137	57.419668	0.26235191	57.095315	
	
0.238175574630416	0.26629582	56.39071	0.26937452	56.9238	0.87609478	-14.957221	0.26518758	-123.5654	
	0.26937452	56.9238	0.26530375	56.386008	0.26524466	-123.62363	0.87705587	-15.002504	
	0.87609478	-14.957221	0.26524466	-123.62363	0.26716785	56.359017	0.26955905	56.891285	
	0.26518758	-123.5654	0.87705587	-15.002504	0.26955905	56.891285	0.26627021	56.532732	
	
0.24367757812384	0.27080039	55.782396	0.27365552	56.377432	0.871711	-15.21831	0.26937396	-124.20292	
	0.27365552	56.377432	0.26907761	55.754219	0.26938473	-124.1536	0.87371697	-15.231066	
	0.871711	-15.21831	0.26938473	-124.1536	0.27058572	55.873882	0.27354815	56.21395	
	0.26937396	-124.20292	0.87371697	-15.231066	0.27354815	56.21395	0.26976156	55.922802	
	
0.249306681310373	0.2754912	55.142171	0.27798996	55.864551	0.86786505	-15.411663	0.27376214	-124.81893	
	0.27798996	55.864551	0.27349703	55.03718	0.2733054	-124.82519	0.86898779	-15.390132	
	0.86786505	-15.411663	0.2733054	-124.82519	0.27583176	55.25313	0.27827469	55.649564	
	0.27376214	-124.81893	0.86898779	-15.390132	0.27827469	55.649564	0.27508883	55.336352	
	
0.255065820271756	0.27908685	54.644548	0.28247049	55.220421	0.86346403	-15.615529	0.27816691	-125.383	
	0.28247049	55.220421	0.27843008	54.54146	0.27798662	-125.39121	0.86511661	-15.612283	
	0.86346403	-15.615529	0.27798662	-125.39121	0.27926792	54.631242	0.28306956	55.045434	
	0.27816691	-125.383	0.86511661	-15.612283	0.28306956	55.045434	0.2789643	54.87372	
	
0.260957998915036	0.28325906	53.843431	0.28643224	54.70025	0.85877247	-15.822377	0.28232344	-126.02779	
	0.28643224	54.70025	0.28230007	53.847034	0.28210943	-126.02434	0.86071701	-15.830239	
	0.85877247	-15.822377	0.28210943	-126.02434	0.28411829	54.05486	0.28657813	54.529804	
	0.28232344	-126.02779	0.86071701	-15.830239	0.28657813	54.529804	0.28299696	54.010799	
	
0.266986290539378	0.28769639	53.196994	0.2909342	53.978735	0.8556316	-16.000622	0.28629991	-126.74151	
	0.2909342	53.978735	0.28650836	53.335485	0.28686741	-126.67173	0.85598015	-16.042075	
	0.8556316	-16.000622	0.28686741	-126.67173	0.28830587	53.43153	0.29088213	53.927497	
	0.28629991	-126.74151	0.85598015	-16.042075	0.29088213	53.927497	0.28761923	53.499557	
	
0.273153839439064	0.29205881	52.732786	0.29529856	53.427146	0.85130227	-16.22352	0.29085941	-127.34082	
	0.29529856	53.427146	0.29048861	52.748217	0.29107528	-127.22133	0.85207978	-16.252428	
	0.85130227	-16.22352	0.29107528	-127.22133	0.29187732	52.767149	0.29526766	53.338628	
	0.29085941	-127.34082	0.85207978	-16.252428	0.29526766	53.338628	0.2920104	52.852471	
	
0.279463862543524	0.29595177	51.932656	0.29928531	52.873121	0.84658284	-16.41691	0.29491503	-127.80924	
	0.29928531	52.873121	0.29612465	52.072507	0.29495213	-127.80291	0.84707505	-16.461692	
	0.84658284	-16.41691	0.29495213	-127.80291	0.29724203	52.116142	0.29897527	52.711605	
	0.29491503	-127.80924	0.84707505	-16.461692	0.29897527	52.711605	0.29519346	52.254226	
	
0.285919651095252	0.30092429	51.45356	0.30390875	52.1791	0.84152689	-16.627022	0.299198	-128.6328	
	0.30390875	52.1791	0.29959977	51.539591	0.29928078	-128.51933	0.8425594	-16.636918	
	0.84152689	-16.627022	0.29928078	-128.51933	0.30096916	51.488537	0.30401151	51.958381	
	0.299198	-128.6328	0.8425594	-16.636918	0.30401151	51.958381	0.30064771	51.562996	
	
0.292524572366485	0.30494616	50.826017	0.30814611	51.537207	0.8374175	-16.816511	0.30331479	-129.30171	
	0.30814611	51.537207	0.30462797	50.89572	0.30351898	-129.31159	0.83813243	-16.822958	
	0.8374175	-16.816511	0.30351898	-129.31159	0.30615081	51.02405	0.30803187	51.375991	
	0.30331479	-129.30171	0.83813243	-16.822958	0.30803187	51.375991	0.30543868	51.195775	
	
0.299282071415539	0.3094889	50.23717	0.31233132	50.905078	0.83217376	-16.972437	0.30787383	-129.94932	
	0.31233132	50.905078	0.30798685	50.177806	0.30737314	-129.8509	0.83288709	-17.013958	
	0.83217376	-16.972437	0.30737314	-129.8509	0.31004206	50.33436	0.31244527	50.63335	
	0.30787383	-129.94932	0.83288709	-17.013958	0.31244527	50.63335	0.30995773	50.423341	
	
0.30619567288371	0.31350382	49.576152	0.31604866	50.362214	0.82659638	-17.158011	0.31155729	-130.53195	
	0.31604866	50.362214	0.3111737	49.444474	0.31163899	-130.38632	0.82852127	-17.131849	
	0.82659638	-17.158011	0.31163899	-130.38632	0.3147237	49.759383	0.31649751	50.126873	
	0.31155729	-130.53195	0.82852127	-17.131849	0.31649751	50.126873	0.31372576	49.730273	
	
0.313268982833699	0.31813476	49.022583	0.32111649	49.739886	0.822563	-17.388723	0.31638812	-131.09807	
	0.32111649	49.739886	0.31630189	48.911261	0.31619618	-131.10966	0.824015	-17.366073	
	0.822563	-17.388723	0.31619618	-131.10966	0.31819908	49.010827	0.32139869	49.522821	
	0.31638812	-131.09807	0.824015	-17.366073	0.32139869	49.522821	0.31735532	49.20622	
	
0.320505690630487	0.32134889	48.35289	0.32552123	49.208835	0.81796919	-17.520357	0.32079775	-131.61953	
	0.32552123	49.208835	0.32012645	48.235714	0.32037144	-131.62606	0.81959191	-17.564053	
	0.81796919	-17.520357	0.32037144	-131.62606	0.32214222	48.34709	0.32563166	49.017402	
	0.32079775	-131.61953	0.81959191	-17.564053	0.32563166	49.017402	0.32095636	48.517567	
	
0.327909570865677	0.3254225	47.661151	0.33020226	48.555918	0.8130729	-17.712593	0.32542094	-132.36433	
	0.33020226	48.555918	0.32407639	47.65257	0.32548674	-132.22438	0.81452768	-17.770456	
	0.8130729	-17.712593	0.32548674	-132.22438	0.32558738	47.792978	0.33029731	48.364969	
	0.32542094	-132.36433	0.81452768	-17.770456	0.33029731	48.364969	0.32580713	47.943439	
	
0.335484485326279	0.32941869	46.947286	0.33433926	47.938847	0.80775154	-17.878849	0.32931936	-132.98774	
	0.33433926	47.938847	0.32780858	47.045346	0.32919532	-132.87474	0.80929497	-17.888056	
	0.80775154	-17.878849	0.32919532	-132.87474	0.32955103	47.178036	0.33463505	47.719627	
