# MHz S MA R 50

0.1	0.4892122	13.42422	0.47130756	15.175289	0.53264068	-13.249924	0.46888031	-165.94599	
	0.47130756	15.175289	0.4889076	13.598962	0.46938202	-165.89005	0.53411104	-13.360546	
	0.53264068	-13.249924	0.46938202	-165.89005	0.48937548	13.54888	0.47115914	15.020017	
	0.46888031	-165.94599	0.53411104	-13.360546	0.47115914	15.020017	0.48800556	13.520258	
	
0.102310062021247	0.49019677	13.172217	0.47182898	14.78441	0.5307319	-13.095664	0.47026557	-166.30922	
	0.47182898	14.78441	0.48912744	13.143182	0.46955259	-166.30492	0.53219436	-13.139465	
	0.5307319	-13.095664	0.46955259	-166.30492	0.48944965	13.232818	0.47191293	14.741934	
	0.47026557	-166.30922	0.53219436	-13.139465	0.47191293	14.741934	0.48884076	13.264295	
	
0.104673487907914	0.49107696	12.840885	0.47243288	14.475007	0.52910068	-12.890081	0.47065879	-166.62675	
	0.47243288	14.475007	0.48954669	12.866833	0.46970005	-166.58425	0.53102514	-12.920174	
	0.52910068	-12.890081	0.46970005	-166.58425	0.49033461	12.956784	0.47241653	14.410769	
	0.47065879	-166.62675	0.53102514	-12.920174	0.47241653	14.410769	0.4890422	12.971176	
	
0.107091510398389	0.49194097	12.592463	0.47311215	14.195181	0.52767706	-12.675881	0.47095983	-166.92665	
	0.47311215	14.195181	0.49044792	12.46986	0.47107697	-166.88865	0.52878355	-12.777633	
	0.52767706	-12.675881	0.47107697	-166.88865	0.49081925	12.646024	0.47328137	14.126731	
	0.47095983	-166.92665	0.52878355	-12.777633	0.47328137	14.126731	0.49067891	12.667734	
	
0.109565390708082	0.49199939	12.316263	0.47355596	13.938331	0.52578153	-12.516287	0.47179327	-167.25911	
	0.47355596	13.938331	0.49107819	12.221864	0.47139453	-167.19092	0.52732765	-12.514442	
	0.52578153	-12.516287	0.47139453	-167.19092	0.49178673	12.395496	0.47376006	13.852296	
	0.47179327	-167.25911	0.52732765	-12.514442	0.47376006	13.852296	0.49096162	12.433995	
	
0.112096419187261	0.49306852	12.066097	0.47481901	13.635278	0.52370132	-12.308428	0.47318805	-167.53056	
	0.47481901	13.635278	0.4917092	11.991271	0.47259386	-167.46215	0.52510627	-12.39058	
	0.52370132	-12.308428	0.47259386	-167.46215	0.49115522	12.088086	0.47477458	13.549815	
	0.47318805	-167.53056	0.52510627	-12.39058	0.47477458	13.549815	0.49096157	12.095719	
	
0.114685915994083	0.49297763	11.694042	0.47496474	13.349198	0.52255854	-12.082124	0.47300653	-167.824	
	0.47496474	13.349198	0.49208235	11.657709	0.47306242	-167.77332	0.52422387	-12.170837	
	0.52255854	-12.082124	0.47306242	-167.77332	0.49213022	11.838726	0.47532271	13.221204	
	0.47300653	-167.824	0.52422387	-12.170837	0.47532271	13.221204	0.49222969	11.833722	
	
0.117335231783182	0.49369075	11.404126	0.47535799	13.088697	0.52110263	-11.965588	0.4734026	-168.09572	
	0.47535799	13.088697	0.4929927	11.415836	0.47331445	-168.13179	0.5224383	-12.054538	
	0.52110263	-11.965588	0.47331445	-168.13179	0.49282421	11.451859	0.47599294	13.047737	
	0.4734026	-168.09572	0.5224383	-12.054538	0.47599294	13.047737	0.4923723	11.559247	
	
0.120045748410147	0.49448593	11.187156	0.47607432	12.846147	0.52050166	-11.764558	0.47428459	-168.42565	
	0.47607432	12.846147	0.49268492	11.148774	0.47367605	-168.4095	0.52128814	-11.772017	
	0.52050166	-11.764558	0.47367605	-168.4095	0.49381802	11.232966	0.47630464	12.809963	
	0.47428459	-168.42565	0.52128814	-11.772017	0.47630464	12.809963	0.49388891	11.131699	
	
0.122818879652292	0.49471264	10.902233	0.4768377	12.550292	0.51874572	-11.557218	0.47421124	-168.69034	
	0.4768377	12.550292	0.49391847	10.898409	0.47460322	-168.64521	0.52007109	-11.616633	
	0.51874572	-11.557218	0.47460322	-168.64521	0.49402674	10.95929	0.47708325	12.507258	
	0.47421124	-168.69034	0.52007109	-11.616633	0.47708325	12.507258	0.49355832	10.988838	
	
0.125656071946061	0.4953773	10.618275	0.47740235	12.363292	0.51748337	-11.357949	0.47504909	-169.01819	
	0.47740235	12.363292	0.49422473	10.640842	0.47481431	-168.92828	0.51856508	-11.440317	
	0.51748337	-11.357949	0.47481431	-168.92828	0.49523595	10.681478	0.47740099	12.282625	
	0.47504909	-169.01819	0.51856508	-11.440317	0.47740099	12.282625	0.49463537	10.701807	
	
0.128558805141477	0.49572302	10.47175	0.47752747	12.084874	0.51566667	-11.185055	0.47564089	-169.2702	
	0.47752747	12.084874	0.49485351	10.369614	0.47519611	-169.19046	0.51751924	-11.303648	
	0.51566667	-11.185055	0.47519611	-169.19046	0.49578021	10.376107	0.47807722	12.047604	
	0.47564089	-169.2702	0.51751924	-11.303648	0.47807722	12.047604	0.49405004	10.440228	
	
0.131528593274019	0.49615409	10.159353	0.47824438	11.880464	0.51485917	-10.974665	0.47599904	-169.47484	
	0.47824438	11.880464	0.49464162	10.098366	0.47590613	-169.47276	0.51627857	-11.113869	
	0.51485917	-10.974665	0.47590613	-169.47276	0.49615469	10.194	0.4783849	11.761325	
	0.47599904	-169.47484	0.51627857	-11.113869	0.4783849	11.761325	0.49441699	10.228622	
	
0.134566985354323	0.49695104	9.8176378	0.47839401	11.643653	0.51360771	-10.83506	0.47624099	-169.77567	
	0.47839401	11.643653	0.49620805	9.8494278	0.47630801	-169.7589	0.51491124	-10.964736	
	0.51360771	-10.83506	0.47630801	-169.7589	0.49675808	9.9564687	0.47861659	11.513459	
	0.47624099	-169.77567	0.51491124	-10.964736	0.47861659	11.513459	0.49537958	9.9896389	
	
0.13767556617613	0.49779651	9.7063884	0.47867342	11.440701	0.51275892	-10.681829	0.47649607	-170.03086	
	0.47867342	11.440701	0.49610757	9.6326164	0.47677183	-169.9566	0.51382141	-10.721513	
	0.51275892	-10.681829	0.47677183	-169.9566	0.49642568	9.6585888	0.47906575	11.236072	
	0.47649607	-170.03086	0.51382141	-10.721513	0.47906575	11.236072	0.49543936	9.7418558	
	
0.140855957142902	0.49744259	9.3845839	0.47955137	11.266307	0.51184826	-10.528412	0.47688386	-170.31649	
	0.47955137	11.266307	0.49751985	9.3302863	0.47610285	-170.27886	0.51264757	-10.535383	
	0.51184826	-10.528412	0.47610285	-170.27886	0.49634969	9.4043689	0.47948249	11.062834	
	0.47688386	-170.31649	0.51264757	-10.535383	0.47948249	11.062834	0.49605501	9.5537196	
	
0.144109817113524	0.49829571	9.1610573	0.47982221	10.998815	0.51074105	-10.311176	0.47746794	-170.52206	
	0.47982221	10.998815	0.49734925	9.137504	0.47710588	-170.51754	0.51176023	-10.38821	
	0.51074105	-10.311176	0.47710588	-170.51754	0.49742119	9.1920817	0.4797885	10.88769	
	0.47746794	-170.52206	0.51176023	-10.38821	0.4797885	10.88769	0.49684187	9.2552325	
	
0.147438843267552	0.49827837	8.9473194	0.47999806	10.744607	0.50933437	-10.169936	0.47748839	-170.74025	
	0.47999806	10.744607	0.49726799	8.8955379	0.47785242	-170.73398	0.51055869	-10.302804	
	0.50933437	-10.169936	0.47785242	-170.73398	0.49771706	9.0877738	0.48027654	10.674529	
	0.47748839	-170.74025	0.51055869	-10.302804	0.48027654	10.674529	0.49744807	9.0223548	
	
0.150844771990442	0.49971407	8.652137	0.48036539	10.537899	0.50875092	-10.010328	0.47847058	-170.98642	
	0.48036539	10.537899	0.49808851	8.6890931	0.47749077	-171.00474	0.5097305	-10.052587	
	0.50875092	-10.010328	0.47749077	-171.00474	0.49797919	8.7501847	0.48085567	10.489474	
	0.47847058	-170.98642	0.5097305	-10.052587	0.48085567	10.489474	0.49697788	8.8158622	
	
0.154329379779229	0.49976972	8.4517979	0.48027426	10.3638	0.50789722	-9.8193585	0.47829195	-171.24101	
	0.48027426	10.3638	0.49804564	8.5167263	0.47836477	-171.2961	0.50927129	-9.9126679	
	0.50789722	-9.8193585	0.47836477	-171.2961	0.49837178	8.532005	0.48122795	10.218214	
	0.47829195	-171.24101	0.50927129	-9.9126679	0.48122795	10.218214	0.49788376	8.5866984	
	
0.157894484169135	0.49992508	8.2583369	0.48114489	10.098632	0.50706487	-9.6435397	0.4787101	-171.50398	
	0.48114489	10.098632	0.49870397	8.2882013	0.47892121	-171.45888	0.50847508	-9.7498254	
	0.50706487	-9.6435397	0.47892121	-171.45888	0.49815759	8.3335785	0.48154011	10.01434	
	0.4787101	-171.50398	0.50847508	-9.7498254	0.48154011	10.01434	0.4981695	8.3229137	
	
0.16154194468157	0.49978826	8.0636792	0.48215524	10.034589	0.50577199	-9.4548007	0.47896337	-171.69586	
	0.48215524	10.034589	0.49928801	8.1609183	0.47892186	-171.65396	0.50741071	-9.6696975	
	0.50577199	-9.4548007	0.47892186	-171.65396	0.49902379	8.0895919	0.48184382	9.9592741	
	0.47896337	-171.69586	0.50741071	-9.6696975	0.48184382	9.9592741	0.49838731	8.1203428	
	
0.165273663794043	0.50026314	7.8646624	0.48179626	9.7891976	0.50539663	-9.3827814	0.47933902	-171.95488	
	0.48179626	9.7891976	0.49923876	7.8216306	0.47907294	-171.94072	0.50683427	-9.4796685	
	0.50539663	-9.3827814	0.47907294	-171.94072	0.49945142	7.8556761	0.48209007	9.6947294	
	0.47933902	-171.95488	0.50683427	-9.4796685	0.48209007	9.6947294	0.49866478	7.9733166	
	
0.169091587932473	0.50076927	7.7026428	0.48221182	9.5586756	0.504614	-9.1889126	0.47919885	-172.12829	
	0.48221182	9.5586756	0.49965431	7.6980307	0.47953635	-172.10389	0.50568669	-9.2844	
	0.504614	-9.1889126	0.47953635	-172.10389	0.50001137	7.7015255	0.48189706	9.4794633	
	0.47919885	-172.12829	0.50568669	-9.2844	0.48189706	9.4794633	0.49944597	7.7578542	
	
0.172997708486424	0.50071725	7.4359159	0.48240094	9.4009295	0.50412872	-9.0220054	0.48008642	-172.33444	
	0.48240094	9.4009295	0.50038164	7.4383251	0.47976873	-172.29176	0.50468261	-9.1974573	
	0.50412872	-9.0220054	0.47976873	-172.29176	0.50082638	7.5192749	0.48261699	9.3603149	
	0.48008642	-172.33444	0.50468261	-9.1974573	0.48261699	9.3603149	0.4992241	7.5528231	
	
0.176994062847797	0.50070037	7.2318887	0.48298063	9.2340656	0.5030628	-8.8758902	0.48054656	-172.61557	
	0.48298063	9.2340656	0.50011921	7.2560837	0.48015166	-172.49013	0.50448301	-9.0353897	
	0.5030628	-8.8758902	0.48015166	-172.49013	0.5006594	7.2887505	0.4829371	9.1926553	
	0.48054656	-172.61557	0.50448301	-9.0353897	0.4829371	9.1926553	0.49976926	7.3472424	
	
0.181082735473506	0.5012551	7.0779613	0.48264758	9.0694502	0.50279596	-8.7820967	0.48065772	-172.77153	
	0.48264758	9.0694502	0.50076244	7.0002953	0.48021509	-172.74972	0.50380405	-8.8890354	
	0.50279596	-8.7820967	0.48021509	-172.74972	0.50008799	7.0753083	0.48333278	8.9592472	
	0.48065772	-172.77153	0.50380405	-8.8890354	0.48333278	8.9592472	0.49948237	7.2029149	
	
0.185265858972714	0.50109161	6.8480414	0.48276825	8.8974326	0.50147911	-8.6737488	0.48073518	-173.00538	
	0.48276825	8.8974326	0.50070791	6.8418329	0.48085043	-172.94891	0.50258057	-8.7648888	
	0.50147911	-8.6737488	0.48085043	-172.94891	0.50045876	6.8083798	0.48377089	8.8035441	
	0.48073518	-173.00538	0.50258057	-8.7648888	0.48377089	8.8035441	0.49992029	6.8929647	
	
0.18954561521918	0.50150061	6.6733566	0.48350941	8.7865763	0.50138332	-8.5292488	0.48170241	-173.17919	
	0.48350941	8.7865763	0.50119335	6.6877195	0.48028366	-173.14827	0.50207645	-8.5789543	
	0.50138332	-8.5292488	0.48028366	-173.14827	0.50076869	6.6891449	0.48382299	8.7039345	
	0.48170241	-173.17919	0.50207645	-8.5789543	0.48382299	8.7039345	0.5002599	6.7433767	
	
0.193924236489297	0.50205084	6.5165762	0.48332017	8.5914223	0.50075379	-8.4026098	0.48092394	-173.35684	
	0.48332017	8.5914223	0.50146667	6.3980041	0.48135425	-173.37813	0.50177029	-8.4898158	
	0.50075379	-8.4026098	0.48135425	-173.37813	0.50103004	6.499426	0.48395667	8.4998688	
	0.48092394	-173.35684	0.50177029	-8.4898158	0.48395667	8.4998688	0.50038009	6.5507143	
	
0.19840400662643	0.50212521	6.2966505	0.48378243	8.4433276	0.49995252	-8.2599562	0.48169565	-173.6212	
	0.48378243	8.4433276	0.50096765	6.254462	0.48114825	-173.60725	0.50095042	-8.331132	
	0.49995252	-8.2599562	0.48114825	-173.60725	0.50064398	6.3373907	0.4849672	8.3345163	
	0.48169565	-173.6212	0.50095042	-8.331132	0.4849672	8.3345163	0.5006308	6.2977002	
	
0.202987262232139	0.50242308	6.1515516	0.48418524	8.2447384	0.49934448	-8.1344751	0.48181607	-173.79328	
	0.48418524	8.2447384	0.50208527	6.1463968	0.48141762	-173.79487	0.50037097	-8.2452445	
	0.49934448	-8.1344751	0.48141762	-173.79487	0.50146458	6.0360665	0.48458338	8.2175882	
	0.48181607	-173.79328	0.50037097	-8.2452445	0.48458338	8.2175882	0.50134384	6.2279791	
	
0.207676393884933	0.50185636	5.9453273	0.48475902	8.1544712	0.49918295	-8.0170643	0.48192138	-174.02534	
	0.48475902	8.1544712	0.50162076	5.9282147	0.48172224	-173.95253	0.49988011	-8.1048017	
	0.49918295	-8.0170643	0.48172224	-173.95253	0.50154231	5.9272333	0.48479832	8.0297053	
	0.48192138	-174.02534	0.49988011	-8.1048017	0.48479832	8.0297053	0.50145239	6.0696168	
	
0.212473847387164	0.50242006	5.7524424	0.48420917	8.0049624	0.49875405	-7.888877	0.48135545	-174.17498	
	0.48420917	8.0049624	0.50198678	5.7121178	0.48111432	-174.15819	0.49935332	-8.0007752	
	0.49875405	-7.888877	0.48111432	-174.15819	0.50221123	5.7993059	0.48462723	7.9428392	
	0.48135545	-174.17498	0.49935332	-8.0007752	0.48462723	7.9428392	0.50106079	5.9166501	
	
0.217382125040737	0.50256285	5.6225435	0.48464875	7.8627575	0.49830498	-7.7919924	0.48219809	-174.32345	
	0.48464875	7.8627575	0.5022995	5.5593456	0.48143065	-174.36485	0.49911875	-7.9057986	
	0.49830498	-7.7919924	0.48143065	-174.36485	0.50185724	5.5941152	0.48522681	7.7770063	
	0.48219809	-174.32345	0.49911875	-7.9057986	0.48522681	7.7770063	0.50143606	5.6568591	
	
0.222403786952283	0.50312824	5.4255223	0.48469956	7.7043454	0.49744968	-7.7210163	0.48243619	-174.47733	
	0.48469956	7.7043454	0.50260807	5.4062281	0.48192029	-174.47991	0.49866636	-7.7412309	
	0.49744968	-7.7210163	0.48192029	-174.47991	0.50208982	5.5245582	0.48504826	7.6249988	
	0.48243619	-174.47733	0.49866636	-7.7412309	0.48504826	7.6249988	0.5015716	5.5355445	
	
0.227541452368483	0.50355547	5.2536882	0.48478141	7.6199594	0.49690701	-7.5434016	0.4820927	-174.7389	
	0.48478141	7.6199594	0.50248412	5.2251247	0.48156147	-174.64997	0.49764798	-7.6815795	
	0.49690701	-7.5434016	0.48156147	-174.64997	0.50243997	5.2049585	0.48553771	7.5319454	
	0.4820927	-174.7389	0.49764798	-7.6815795	0.48553771	7.5319454	0.50232289	5.3393409	
	
0.232797801042241	0.50320393	5.0971394	0.48549376	7.4647118	0.49658399	-7.4279806	0.48208002	-174.90109	
	0.48549376	7.4647118	0.5027195	5.0532286	0.4824551	-174.8701	0.49756169	-7.538696	
	0.49658399	-7.4279806	0.4824551	-174.8701	0.50293865	5.1090352	0.48529606	7.3770839	
	0.48208002	-174.90109	0.49756169	-7.538696	0.48529606	7.3770839	0.50213456	5.2291863	
	
0.238175574630416	0.50381063	4.9407901	0.485238	7.3661484	0.49646432	-7.3392211	0.48286078	-175.03138	
	0.485238	7.3661484	0.50244239	4.9185452	0.48210488	-175.04615	0.49703319	-7.4128945	
	0.49646432	-7.3392211	0.48210488	-175.04615	0.50298956	4.9824086	0.48561734	7.2683903	
	0.48286078	-175.03138	0.49703319	-7.4128945	0.48561734	7.2683903	0.50246726	5.0120732	
	
0.24367757812384	0.50395351	4.786	0.48557098	7.2358301	0.49595073	-7.2601828	0.48306114	-175.18446	
	0.48557098	7.2358301	0.50259171	4.7238294	0.48251471	-175.18398	0.49662559	-7.3367936	
	0.49595073	-7.2601828	0.48251471	-175.18398	0.5026606	4.8853561	0.48557358	7.1249995	
	0.48306114	-175.18446	0.49662559	-7.3367936	0.48557358	7.1249995	0.5022736	4.8855425	
	
0.249306681310373	0.50394756	4.5641719	0.48585476	7.1381734	0.49501957	-7.1295102	0.48284476	-175.43885	
	0.48585476	7.1381734	0.50324303	4.6104019	0.48248115	-175.40736	0.49634212	-7.2599753	
	0.49501957	-7.1295102	0.48248115	-175.40736	0.50341823	4.6773954	0.486119	7.0026803	
	0.48284476	-175.43885	0.49634212	-7.2599753	0.486119	7.0026803	0.50223566	4.7224617	
	
0.255065820271756	0.50380319	4.4620837	0.4860569	6.9845382	0.49473783	-7.1151614	0.48343213	-175.52271	
	0.4860569	6.9845382	0.50339228	4.4104002	0.48259249	-175.51579	0.49585963	-7.1260212	
	0.49473783	-7.1151614	0.48259249	-175.51579	0.50316781	4.4750021	0.4865768	6.9115567	
	0.48343213	-175.52271	0.49585963	-7.1260212	0.4865768	6.9115567	0.5024164	4.5904389	
	
0.260957998915036	0.50370141	4.2536907	0.48587962	6.9297475	0.49425906	-6.9488773	0.48257793	-175.76651	
	0.48587962	6.9297475	0.50370981	4.2943142	0.48287822	-175.72932	0.49560592	-7.0695136	
	0.49425906	-6.9488773	0.48287822	-175.72932	0.50288633	4.2699542	0.48602264	6.813376	
	0.48257793	-175.76651	0.49560592	-7.0695136	0.48602264	6.813376	0.50251333	4.4055958	
	
0.266986290539378	0.50417111	4.1530991	0.48624852	6.7783935	0.49454665	-6.8885268	0.48334637	-175.93201	
	0.48624852	6.7783935	0.50259292	4.1765222	0.48347806	-175.87662	0.49507906	-7.020957	
	0.49454665	-6.8885268	0.48347806	-175.87662	0.50347452	4.1837923	0.4864456	6.7422083	
	0.48334637	-175.93201	0.49507906	-7.020957	0.4864456	6.7422083	0.50300848	4.3157224	
	
0.273153839439064	0.50436595	4.0450254	0.48645101	6.7000904	0.49415914	-6.7795709	0.48382873	-176.07847	
	0.48645101	6.7000904	0.50326449	4.0195379	0.48351634	-176.01897	0.49530841	-6.881465	
	0.49415914	-6.7795709	0.48351634	-176.01897	0.50308872	3.9927958	0.48599619	6.6327288	
	0.48382873	-176.07847	0.49530841	-6.881465	0.48599619	6.6327288	0.5030981	4.1259668	
	
0.279463862543524	0.50477669	3.8531776	0.48623181	6.6153718	0.49362888	-6.7117502	0.48353502	-176.17244	
	0.48623181	6.6153718	0.50443567	3.8619978	0.48344878	-176.21288	0.4941551	-6.7936892	
	0.49362888	-6.7117502	0.48344878	-176.21288	0.5038252	3.87277	0.48638498	6.523234	
	0.48353502	-176.17244	0.4941551	-6.7936892	0.48638498	6.523234	0.50302857	3.9757793	
	
0.285919651095252	0.50445272	3.7795397	0.48668685	6.4837857	0.493516	-6.6342368	0.48354363	-176.37491	
	0.48668685	6.4837857	0.50315911	3.7375633	0.48333647	-176.36803	0.49456393	-6.7678143	
	0.493516	-6.6342368	0.48333647	-176.36803	0.50363204	3.7899289	0.48657447	6.3741321	
	0.48354363	-176.37491	0.49456393	-6.7678143	0.48657447	6.3741321	0.50348803	3.8101952	
	
0.292524572366485	0.50493071	3.6010024	0.48674555	6.4338058	0.49320963	-6.5905773	0.4834674	-176.54274	
	0.48674555	6.4338058	0.50393135	3.6430293	0.48335865	-176.60052	0.49379121	-6.6511199	
	0.49320963	-6.5905773	0.48335865	-176.60052	0.50385176	3.6578586	0.48650838	6.2824746	
	0.4834674	-176.54274	0.49379121	-6.6511199	0.48650838	6.2824746	0.50250567	3.8095105	
	
0.299282071415539	0.50488824	3.4704562	0.48640504	6.3160791	0.49312138	-6.4779707	0.483879	-176.74475	
	0.48640504	6.3160791	0.50336782	3.5475079	0.48344004	-176.70374	0.49415941	-6.6059694	
	0.49312138	-6.4779707	0.48344004	-176.70374	0.50383002	3.5747413	0.48630448	6.1355139	
	0.483879	-176.74475	0.49415941	-6.6059694	0.48630448	6.1355139	0.50306278	3.6553633	
	
0.30619567288371	0.50483696	3.397517	0.48682078	6.2672479	0.49271735	-6.437926	0.48369558	-176.86011	
	0.48682078	6.2672479	0.50415586	3.3297737	0.48343512	-176.81534	0.49409756	-6.5928082	
	0.49271735	-6.437926	0.48343512	-176.81534	0.50332723	3.4049701	0.4867207	6.1143301	
	0.48369558	-176.86011	0.49409756	-6.5928082	0.4867207	6.1143301	0.50294291	3.4875827	
	
0.313268982833699	0.50479634	3.2151505	0.48682568	6.2219056	0.49233641	-6.3265033	0.48410323	-176.97732	
	0.48682568	6.2219056	0.50321521	3.1280727	0.48407434	-176.97078	0.49339474	-6.4346506	
	0.49233641	-6.3265033	0.48407434	-176.97078	0.50354899	3.2204353	0.48719383	6.0829594	
	0.48410323	-176.97732	0.49339474	-6.4346506	0.48719383	6.0829594	0.50297031	3.3215552	
	
0.320505690630487	0.50446897	2.9718209	0.48717643	6.1092775	0.49202696	-6.2119973	0.48442697	-177.07769	
	0.48717643	6.1092775	0.50409647	2.9528382	0.48352383	-177.1129	0.4931706	-6.3869196	
	0.49202696	-6.2119973	0.48352383	-177.1129	0.50347769	2.9867956	0.48728444	5.9919355	
	0.48442697	-177.07769	0.4931706	-6.3869196	0.48728444	5.9919355	0.50360862	3.081571	
	
0.327909570865677	0.50434809	2.8884769	0.4878666	6.0469406	0.49197892	-6.1432389	0.48480019	-177.23654	
	0.4878666	6.0469406	0.50369102	2.8301471	0.48408994	-177.18316	0.49295975	-6.3187681	
	0.49197892	-6.1432389	0.48408994	-177.18316	0.50361282	2.8661428	0.48771041	5.9466692	
	0.48480019	-177.23654	0.49295975	-6.3187681	0.48771041	5.9466692	0.50287615	2.9863245	
	
0.335484485326279	0.5045283	2.6463307	0.48773916	6.0038895	0.49131484	-6.1342098	0.48407657	-177.38828	
	0.48773916	6.0038895	0.50408492	2.6485096	0.48425424	-177.344	0.49278309	-6.2082243	
