# MHz S MA R 50

0.1	0.26146887	56.940874	0.26228411	57.777128	0.87981691	-14.682178	0.2602573	-122.69611	
	0.26228411	57.777128	0.25936599	57.138973	0.26022451	-122.66904	0.88140966	-14.563442	
	0.87981691	-14.682178	0.26022451	-122.66904	0.26430686	57.057219	0.26355402	57.681627	
	0.2602573	-122.69611	0.88140966	-14.563442	0.26355402	57.681627	0.26023206	57.028874	
	
0.102310062021247	0.26709744	56.35329	0.26679464	57.240306	0.87538036	-14.884493	0.26457614	-123.34665	
	0.26679464	57.240306	0.26435146	56.366696	0.26431556	-123.29034	0.87651763	-14.770264	
	0.87538036	-14.884493	0.26431556	-123.29034	0.26745594	56.623746	0.26681567	57.073163	
	0.26457614	-123.34665	0.87651763	-14.770264	0.26681567	57.073163	0.26564522	56.445302	
	
0.104673487907914	0.27234949	55.747493	0.27137276	56.543971	0.87131525	-15.124055	0.26920473	-123.84842	
	0.27137276	56.543971	0.26835792	55.610413	0.26863625	-123.81611	0.87320634	-15.004877	
	0.87131525	-15.124055	0.26863625	-123.81611	0.27182753	55.87014	0.27142032	56.450371	
	0.26920473	-123.84842	0.87320634	-15.004877	0.27142032	56.450371	0.26899814	56.036798	
	
0.107091510398389	0.27560947	55.228985	0.27524682	55.98244	0.86785684	-15.318293	0.27279807	-124.42881	
	0.27524682	55.98244	0.27212651	55.034881	0.273189	-124.40257	0.86916126	-15.197723	
	0.86785684	-15.318293	0.273189	-124.40257	0.27628428	55.399773	0.27527063	55.849741	
	0.27279807	-124.42881	0.86916126	-15.197723	0.27527063	55.849741	0.27346222	55.311326	
	
0.109565390708082	0.28107453	54.871409	0.28008029	55.34489	0.86357954	-15.51703	0.27751975	-125.08557	
	0.28008029	55.34489	0.27677576	54.538214	0.27716497	-125.01535	0.86502623	-15.414499	
	0.86357954	-15.51703	0.27716497	-125.01535	0.28031044	54.875606	0.27977903	55.182385	
	0.27751975	-125.08557	0.86502623	-15.414499	0.27977903	55.182385	0.27837941	54.821225	
	
0.112096419187261	0.28457372	54.264046	0.28446225	54.781376	0.85963006	-15.75343	0.2818734	-125.66364	
	0.28446225	54.781376	0.28152625	54.02655	0.28229727	-125.59987	0.86066487	-15.660101	
	0.85963006	-15.75343	0.28229727	-125.59987	0.28449136	54.306231	0.28484673	54.66939	
	0.2818734	-125.66364	0.86066487	-15.660101	0.28484673	54.66939	0.28248877	54.286806	
	
0.114685915994083	0.28872178	53.446851	0.28849821	54.185773	0.85520129	-15.937639	0.28615673	-126.2902	
	0.28849821	54.185773	0.28469289	53.339044	0.28609914	-126.25451	0.85663518	-15.845034	
	0.85520129	-15.937639	0.28609914	-126.25451	0.28902576	53.721001	0.28912292	54.037503	
	0.28615673	-126.2902	0.85663518	-15.845034	0.28912292	54.037503	0.28665575	53.562861	
	
0.117335231783182	0.29268664	52.755891	0.2926917	53.607114	0.85082924	-16.163555	0.2904398	-126.83531	
	0.2926917	53.607114	0.28989431	52.791518	0.2900964	-126.83494	0.85248637	-16.066739	
	0.85082924	-16.163555	0.2900964	-126.83494	0.29278424	53.013591	0.29313744	53.529199	
	0.2904398	-126.83531	0.85248637	-16.066739	0.29313744	53.529199	0.29031831	52.994666	
	
0.120045748410147	0.29762626	52.130836	0.29711252	52.959512	0.84642848	-16.311843	0.29466978	-127.52987	
	0.29711252	52.959512	0.29355264	52.100969	0.29417914	-127.54692	0.84734128	-16.218686	
	0.84642848	-16.311843	0.29417914	-127.54692	0.29703527	52.357674	0.29706654	52.929265	
	0.29466978	-127.52987	0.84734128	-16.218686	0.29706654	52.929265	0.29448923	52.257468	
	
0.122818879652292	0.30142339	51.655289	0.30141303	52.312063	0.84211437	-16.550613	0.29906544	-128.09305	
	0.30141303	52.312063	0.29780009	51.642614	0.29882236	-128.09257	0.84342999	-16.428908	
	0.84211437	-16.550613	0.29882236	-128.09257	0.3022064	51.741635	0.30200796	52.265264	
	0.29906544	-128.09305	0.84342999	-16.428908	0.30200796	52.265264	0.29912565	51.7943	
	
0.125656071946061	0.30630055	51.07693	0.30622081	51.731571	0.83669562	-16.743204	0.3033204	-128.78991	
	0.30622081	51.731571	0.3025751	50.971405	0.30302641	-128.7197	0.8389943	-16.623918	
	0.83669562	-16.743204	0.30302641	-128.7197	0.30609703	51.113511	0.30598686	51.70021	
	0.3033204	-128.78991	0.8389943	-16.623918	0.30598686	51.70021	0.30388551	51.117956	
	
0.128558805141477	0.30989517	50.44929	0.30980684	51.131627	0.83214902	-16.927841	0.30760997	-129.36136	
	0.30980684	51.131627	0.30698222	50.356151	0.30727411	-129.27098	0.83453759	-16.842469	
	0.83214902	-16.927841	0.30727411	-129.27098	0.3097673	50.566005	0.31064296	51.077488	
	0.30760997	-129.36136	0.83453759	-16.842469	0.31064296	51.077488	0.30767085	50.480659	
	
0.131528593274019	0.3142641	49.750882	0.31475551	50.531152	0.82785609	-17.114484	0.31151808	-129.94613	
	0.31475551	50.531152	0.3106611	49.724722	0.31178954	-129.99065	0.82974046	-17.002918	
	0.82785609	-17.114484	0.31178954	-129.99065	0.31458391	49.882857	0.31474785	50.416696	
	0.31151808	-129.94613	0.82974046	-17.002918	0.31474785	50.416696	0.31117477	50.086659	
	
0.134566985354323	0.31883747	48.985812	0.31872143	49.828179	0.82255258	-17.29418	0.31617909	-130.64206	
	0.31872143	49.828179	0.31515238	49.033667	0.31542093	-130.5823	0.8242165	-17.179039	
	0.82255258	-17.29418	0.31542093	-130.5823	0.3194978	49.265768	0.31881004	49.707671	
	0.31617909	-130.64206	0.8242165	-17.179039	0.31881004	49.707671	0.31648672	49.440635	
	
0.13767556617613	0.32281002	48.487609	0.32264944	49.312361	0.81785577	-17.483782	0.31957266	-131.28933	
	0.32264944	49.312361	0.31972598	48.453619	0.31988826	-131.21934	0.81969999	-17.333179	
	0.81785577	-17.483782	0.31988826	-131.21934	0.32284474	48.585961	0.32331503	49.119892	
	0.31957266	-131.28933	0.81969999	-17.333179	0.32331503	49.119892	0.32072099	48.688444	
	
0.140855957142902	0.32627872	47.79105	0.32697973	48.700963	0.81311043	-17.639414	0.32343277	-131.93096	
	0.32697973	48.700963	0.32418337	47.729693	0.32361356	-131.85256	0.81422572	-17.543021	
	0.81311043	-17.639414	0.32361356	-131.85256	0.32726649	47.847523	0.32717943	48.487309	
	0.32343277	-131.93096	0.81422572	-17.543021	0.32717943	48.487309	0.32527817	47.927516	
	
0.144109817113524	0.33123839	47.108865	0.33105632	47.982737	0.80740594	-17.819726	0.32827371	-132.54815	
	0.33105632	47.982737	0.32730974	47.151149	0.32763144	-132.57595	0.80958636	-17.67549	
	0.80740594	-17.819726	0.32763144	-132.57595	0.33115476	47.240442	0.33125809	47.903074	
	0.32827371	-132.54815	0.80958636	-17.67549	0.33125809	47.903074	0.32918525	47.293049	
	
0.147438843267552	0.335352	46.58344	0.33523215	47.38183	0.80276177	-17.99109	0.33178615	-133.16076	
	0.33523215	47.38183	0.33168469	46.525719	0.33216176	-133.14606	0.80409532	-17.860592	
	0.80276177	-17.99109	0.33216176	-133.14606	0.33493495	46.800866	0.33534059	47.254446	
	0.33178615	-133.16076	0.80409532	-17.860592	0.33534059	47.254446	0.33316309	46.765943	
	
0.150844771990442	0.33986498	45.774724	0.33918248	46.741308	0.79750226	-18.11292	0.33609177	-133.83152	
	0.33918248	46.741308	0.33679833	45.80079	0.33576783	-133.82447	0.79961486	-17.996355	
	0.79750226	-18.11292	0.33576783	-133.82447	0.33944833	46.047295	0.33947677	46.640719	
	0.33609177	-133.83152	0.79961486	-17.996355	0.33947677	46.640719	0.33635262	46.043353	
	
0.154329379779229	0.34371539	45.254812	0.34335374	46.105523	0.79251067	-18.272733	0.34004101	-134.53602	
	0.34335374	46.105523	0.34091876	45.238349	0.34024218	-134.56282	0.79440808	-18.130559	
	0.79251067	-18.272733	0.34024218	-134.56282	0.34379038	45.447253	0.3435394	45.949019	
	0.34004101	-134.53602	0.79440808	-18.130559	0.3435394	45.949019	0.3409019	45.468497	
	
0.157894484169135	0.34755255	44.649955	0.34723787	45.416402	0.78748032	-18.386591	0.34438236	-135.14808	
	0.34723787	45.416402	0.34426481	44.58413	0.34451959	-135.14616	0.78958671	-18.326026	
	0.78748032	-18.386591	0.34451959	-135.14616	0.3477678	44.843565	0.3478328	45.286115	
	0.34438236	-135.14808	0.78958671	-18.326026	0.3478328	45.286115	0.34461767	44.761065	
	
0.16154194468157	0.35225572	43.982211	0.35247312	44.83184	0.78082478	-18.552726	0.34817206	-135.82046	
	0.35247312	44.83184	0.34812982	44.015851	0.34817089	-135.68734	0.78475675	-18.501366	
	0.78082478	-18.552726	0.34817089	-135.68734	0.35118342	44.164908	0.35157393	44.802863	
	0.34817206	-135.82046	0.78475675	-18.501366	0.35157393	44.802863	0.34841762	44.068965	
	
0.165273663794043	0.35539198	43.406854	0.35580489	44.218389	0.7767465	-18.684164	0.35230302	-136.4824	
	0.35580489	44.218389	0.35233363	43.238049	0.35201721	-136.46182	0.77888301	-18.574436	
	0.7767465	-18.684164	0.35201721	-136.46182	0.35542016	43.430998	0.35557866	44.09543	
	0.35230302	-136.4824	0.77888301	-18.574436	0.35557866	44.09543	0.35271614	43.573809	
	
0.169091587932473	0.35931855	42.803394	0.35926508	43.508051	0.77148154	-18.806205	0.35552611	-137.07403	
	0.35926508	43.508051	0.35618424	42.740119	0.35586295	-137.09505	0.77318553	-18.693372	
	0.77148154	-18.806205	0.35586295	-137.09505	0.36026846	42.820082	0.35905473	43.417531	
	0.35552611	-137.07403	0.77318553	-18.693372	0.35905473	43.417531	0.35670606	42.778848	
	
0.172997708486424	0.36322343	42.090671	0.36319129	42.926905	0.76635073	-18.916133	0.36001195	-137.78898	
	0.36319129	42.926905	0.35956355	42.084237	0.35959848	-137.63839	0.76774239	-18.850395	
	0.76635073	-18.916133	0.35959848	-137.63839	0.36405831	42.188535	0.36327467	42.753727	
	0.36001195	-137.78898	0.76774239	-18.850395	0.36327467	42.753727	0.36035867	42.267975	
	
0.176994062847797	0.36731074	41.503398	0.36735672	42.227003	0.76031242	-18.997891	0.36405338	-138.43802	
	0.36735672	42.227003	0.363813	41.385023	0.36355591	-138.33002	0.76243964	-18.881157	
	0.76031242	-18.997891	0.36355591	-138.33002	0.36795886	41.521429	0.36731199	42.162269	
	0.36405338	-138.43802	0.76243964	-18.881157	0.36731199	42.162269	0.36378594	41.549404	
	
0.181082735473506	0.3708354	40.77014	0.37018505	41.633819	0.75505156	-19.118803	0.36720674	-139.08105	
	0.37018505	41.633819	0.36770555	40.679547	0.36702601	-138.98491	0.75720907	-19.004063	
	0.75505156	-19.118803	0.36702601	-138.98491	0.37055007	40.877337	0.37088191	41.500983	
	0.36720674	-139.08105	0.75720907	-19.004063	0.37088191	41.500983	0.36824654	40.881128	
	
0.185265858972714	0.37420774	40.151778	0.3745496	40.962277	0.74965695	-19.240296	0.37070611	-139.70465	
	0.3745496	40.962277	0.37118982	40.107151	0.37117884	-139.66106	0.75196045	-19.081418	
	0.74965695	-19.240296	0.37117884	-139.66106	0.3743126	40.272433	0.37458411	40.938868	
	0.37070611	-139.70465	0.75196045	-19.081418	0.37458411	40.938868	0.37093648	40.317727	
	
0.18954561521918	0.37834587	39.489154	0.37798889	40.46138	0.74453221	-19.303634	0.3755758	-140.3463	
	0.37798889	40.46138	0.37434652	39.489422	0.37438013	-140.22934	0.74653661	-19.186535	
	0.74453221	-19.303634	0.37438013	-140.22934	0.37823424	39.728274	0.37889072	40.328115	
	0.3755758	-140.3463	0.74653661	-19.186535	0.37889072	40.328115	0.37413845	39.662205	
	
0.193924236489297	0.38193757	38.850357	0.38106117	39.773667	0.73844894	-19.393017	0.37780581	-140.95526	
	0.38106117	39.773667	0.37829112	38.751584	0.37817681	-140.90595	0.74119928	-19.232423	
	0.73844894	-19.393017	0.37817681	-140.90595	0.38170354	38.954185	0.38174523	39.65612	
	0.37780581	-140.95526	0.74119928	-19.232423	0.38174523	39.65612	0.37868267	38.99896	
	
0.19840400662643	0.38556092	38.275444	0.38517519	39.051886	0.73377151	-19.443728	0.38228614	-141.6433	
	0.38517519	39.051886	0.38181152	38.331792	0.38140779	-141.64127	0.73512184	-19.357176	
	0.73377151	-19.443728	0.38140779	-141.64127	0.38517534	38.298639	0.38599904	38.952978	
	0.38228614	-141.6433	0.73512184	-19.357176	0.38599904	38.952978	0.38210426	38.194365	
	
0.202987262232139	0.38880868	37.617113	0.38848938	38.502976	0.7277888	-19.520225	0.38520134	-142.26027	
	0.38848938	38.502976	0.38587771	37.634746	0.38485715	-142.27185	0.73033664	-19.36938	
	0.7277888	-19.520225	0.38485715	-142.27185	0.38824959	37.632049	0.38897986	38.432814	
	0.38520134	-142.26027	0.73033664	-19.36938	0.38897986	38.432814	0.38632451	37.746668	
	
0.207676393884933	0.39188456	36.920106	0.39221227	37.8287	0.72267036	-19.583982	0.38848909	-142.95168	
	0.39221227	37.8287	0.38887693	36.926988	0.38846969	-142.8931	0.72505527	-19.432995	
	0.72267036	-19.583982	0.38846969	-142.8931	0.3913969	37.102276	0.3922699	37.740792	
	0.38848909	-142.95168	0.72505527	-19.432995	0.3922699	37.740792	0.38967951	37.141741	
	
0.212473847387164	0.39548921	36.295106	0.39555301	37.285282	0.71743548	-19.597246	0.39142312	-143.56353	
	0.39555301	37.285282	0.39153334	36.308541	0.39141897	-143.47376	0.719796	-19.430352	
	0.71743548	-19.597246	0.39141897	-143.47376	0.39547724	36.452449	0.39531163	37.164208	
	0.39142312	-143.56353	0.719796	-19.430352	0.39531163	37.164208	0.39225394	36.48528	
	
0.217382125040737	0.39807648	35.770279	0.39828794	36.593782	0.71177648	-19.636412	0.39500405	-144.2321	
	0.39828794	36.593782	0.39544115	35.754825	0.39453948	-144.15161	0.71465971	-19.503317	
	0.71177648	-19.636412	0.39453948	-144.15161	0.39735538	35.84387	0.39920886	36.567259	
	0.39500405	-144.2321	0.71465971	-19.503317	0.39920886	36.567259	0.39582016	35.846512	
	
0.222403786952283	0.40228353	35.122762	0.40175387	35.996821	0.7067544	-19.680738	0.3979424	-144.79353	
	0.40175387	35.996821	0.39873961	35.127163	0.39780296	-144.76004	0.70876914	-19.465087	
	0.7067544	-19.680738	0.39780296	-144.76004	0.40195225	35.226553	0.40216426	35.847766	
	0.3979424	-144.79353	0.70876914	-19.465087	0.40216426	35.847766	0.39872612	35.264193	
	
0.227541452368483	0.40573206	34.550964	0.40499028	35.469423	0.70152074	-19.674984	0.40095211	-145.41679	
	0.40499028	35.469423	0.40266184	34.491508	0.40096926	-145.3202	0.70382205	-19.568529	
	0.70152074	-19.674984	0.40096926	-145.3202	0.40454191	34.577931	0.40532308	35.351789	
	0.40095211	-145.41679	0.70382205	-19.568529	0.40532308	35.351789	0.4019792	34.691207	
	
0.232797801042241	0.4079881	33.909717	0.40805455	34.81798	0.69588789	-19.679855	0.40374953	-146.05968	
	0.40805455	34.81798	0.40475626	33.952368	0.40448539	-146.00882	0.69890769	-19.527239	
	0.69588789	-19.679855	0.40448539	-146.00882	0.40790746	33.927762	0.40788533	34.701377	
	0.40374953	-146.05968	0.69890769	-19.527239	0.40788533	34.701377	0.40510451	34.07524	
	
0.238175574630416	0.41095383	33.288487	0.41108599	34.240312	0.69113157	-19.655301	0.40719848	-146.61016	
	0.41108599	34.240312	0.40758813	33.292057	0.40687496	-146.62452	0.69342932	-19.542103	
	0.69113157	-19.655301	0.40687496	-146.62452	0.41147194	33.347623	0.41130596	34.148165	
	0.40719848	-146.61016	0.69342932	-19.542103	0.41130596	34.148165	0.40790379	33.430666	
	
0.24367757812384	0.41377598	32.753303	0.41375924	33.595472	0.68567203	-19.6463	0.40978482	-147.19016	
	0.41375924	33.595472	0.41023938	32.612544	0.4097778	-147.18014	0.68852989	-19.562913	
	0.68567203	-19.6463	0.4097778	-147.18014	0.41338447	32.790418	0.41354596	33.499881	
	0.40978482	-147.19016	0.68852989	-19.562913	0.41354596	33.499881	0.41023377	32.837288	
	
0.249306681310373	0.41725175	32.044216	0.41663321	33.126791	0.68031147	-19.63316	0.4123979	-147.87492	
	0.41663321	33.126791	0.41356335	32.100763	0.41236819	-147.82955	0.68309717	-19.515892	
	0.68031147	-19.63316	0.41236819	-147.82955	0.41692728	32.250363	0.41658124	32.934372	
	0.4123979	-147.87492	0.68309717	-19.515892	0.41658124	32.934372	0.41271229	32.250235	
	
0.255065820271756	0.41940004	31.517175	0.41953787	32.479759	0.67567449	-19.627731	0.41569226	-148.45309	
	0.41953787	32.479759	0.41679422	31.542894	0.41532314	-148.41563	0.67809916	-19.462706	
	0.67567449	-19.627731	0.41532314	-148.41563	0.4192421	31.583259	0.42024346	32.310485	
	0.41569226	-148.45309	0.67809916	-19.462706	0.42024346	32.310485	0.41618132	31.636651	
	
0.260957998915036	0.42210954	30.860852	0.42150375	31.954704	0.66999115	-19.57367	0.41791853	-149.04239	
	0.42150375	31.954704	0.41880197	30.916905	0.4179436	-149.00621	0.67350944	-19.431463	
	0.66999115	-19.57367	0.4179436	-149.00621	0.42216325	30.978278	0.42193686	31.863891	
	0.41791853	-149.04239	0.67350944	-19.431463	0.42193686	31.863891	0.41876714	31.00414	
	
0.266986290539378	0.42485786	30.318318	0.42456367	31.267901	0.6657672	-19.509606	0.42057782	-149.66235	
	0.42456367	31.267901	0.42183911	30.368576	0.42113227	-149.58575	0.66852377	-19.35341	
	0.6657672	-19.509606	0.42113227	-149.58575	0.42494572	30.40343	0.42484613	31.242011	
	0.42057782	-149.66235	0.66852377	-19.35341	0.42484613	31.242011	0.42164109	30.515319	
	
0.273153839439064	0.42759193	29.774198	0.42748455	30.755463	0.66094134	-19.471015	0.42340752	-150.22773	
	0.42748455	30.755463	0.42416441	29.743472	0.42361989	-150.15414	0.66365793	-19.340801	
	0.66094134	-19.471015	0.42361989	-150.15414	0.4273298	29.799388	0.42727431	30.692305	
	0.42340752	-150.22773	0.66365793	-19.340801	0.42727431	30.692305	0.42438771	29.870765	
	
0.279463862543524	0.43028244	29.13627	0.42962704	30.307216	0.65621995	-19.416419	0.4256224	-150.71481	
	0.42962704	30.307216	0.42741303	29.188359	0.42542699	-150.78896	0.65848986	-19.307755	
	0.65621995	-19.416419	0.42542699	-150.78896	0.43012036	29.209644	0.42958119	30.134816	
	0.4256224	-150.71481	0.65848986	-19.307755	0.42958119	30.134816	0.42652041	29.325884	
	
0.285919651095252	0.43247788	28.618714	0.43229769	29.632301	0.65135997	-19.310335	0.42796558	-151.35861	
	0.43229769	29.632301	0.4285959	28.743129	0.42769203	-151.34738	0.65402593	-19.192876	
	0.65135997	-19.310335	0.42769203	-151.34738	0.43217814	28.717645	0.43223893	29.506372	
	0.42796558	-151.35861	0.65402593	-19.192876	0.43223893	29.506372	0.42890237	28.741742	
	
0.292524572366485	0.43507856	28.065713	0.4349498	29.139013	0.64687209	-19.242242	0.43030945	-151.96969	
	0.4349498	29.139013	0.43148098	28.210448	0.43026574	-151.97002	0.64940316	-19.092097	
	0.64687209	-19.242242	0.43026574	-151.97002	0.43511935	28.247155	0.43507331	28.957729	
	0.43030945	-151.96969	0.64940316	-19.092097	0.43507331	28.957729	0.43122925	28.361852	
	
0.299282071415539	0.43713341	27.566504	0.43643352	28.55872	0.6423698	-19.1103	0.43226011	-152.61345	
	0.43643352	28.55872	0.43279241	27.534	0.43226278	-152.46082	0.64523405	-19.006079	
	0.6423698	-19.1103	0.43226278	-152.46082	0.4370678	27.717147	0.43653975	28.37562	
	0.43226011	-152.61345	0.64523405	-19.006079	0.43653975	28.37562	0.43390397	27.718285	
	
0.30619567288371	0.43936853	27.040683	0.43839975	28.088575	0.63727307	-19.082949	0.43446051	-153.06527	
	0.43839975	28.088575	0.43522947	26.981144	0.43428076	-152.98313	0.64132883	-18.901101	
	0.63727307	-19.082949	0.43428076	-152.98313	0.43893012	27.114562	0.43891995	27.898374	
	0.43446051	-153.06527	0.64132883	-18.901101	0.43891995	27.898374	0.43563022	27.161939	
	
0.313268982833699	0.44158816	26.502705	0.44138587	27.592551	0.63274532	-18.964998	0.43690196	-153.57733	
	0.44138587	27.592551	0.43735762	26.405859	0.43721109	-153.57533	0.63635855	-18.839298	
	0.63274532	-18.964998	0.43721109	-153.57533	0.44123414	26.511919	0.4415255	27.378463	
	0.43690196	-153.57733	0.63635855	-18.839298	0.4415255	27.378463	0.43774957	26.622722	
	
0.320505690630487	0.44310478	25.899528	0.44368045	27.107253	0.62907648	-18.820455	0.43971572	-154.0638	
	0.44368045	27.107253	0.43997007	25.867659	0.43929729	-154.05162	0.63230618	-18.71085	
	0.62907648	-18.820455	0.43929729	-154.05162	0.44350681	25.907401	0.44391273	26.934816	
	0.43971572	-154.0638	0.63230618	-18.71085	0.44391273	26.934816	0.43957	26.031429	
	
0.327909570865677	0.44497254	25.357915	0.44610478	26.612499	0.62449247	-18.723616	0.44225356	-154.61911	
	0.44610478	26.612499	0.4420441	25.304509	0.44141883	-154.54004	0.62745063	-18.64405	
	0.62449247	-18.723616	0.44141883	-154.54004	0.44480792	25.431835	0.44599928	26.414788	
	0.44225356	-154.61911	0.62745063	-18.64405	0.44599928	26.414788	0.44144578	25.458893	
	
0.335484485326279	0.44723055	24.767778	0.4480745	26.078064	0.62011643	-18.60936	0.44361706	-155.15028	
	0.4480745	26.078064	0.44337591	24.786637	0.44345416	-155.00358	0.62345607	-18.47185	
