# MHz S MA R 50

0.1	0.026571278	86.493741	0.029204871	86.247032	0.99326114	-1.6731796	0.027030685	-94.594743	
	0.029204871	86.247032	0.025191958	89.261408	0.027030051	-94.324223	0.99415617	-1.6401115	
	0.99326114	-1.6731796	0.027030051	-94.324223	0.029033332	88.084114	0.029475982	86.35177	
	0.027030685	-94.594743	0.99415617	-1.6401115	0.029475982	86.35177	0.026835319	88.107006	
	
0.102310062021247	0.028033136	88.631076	0.030021822	86.006001	0.99356477	-1.7215406	0.02824777	-94.440198	
	0.030021822	86.006001	0.026522746	87.343015	0.027936807	-94.340749	0.99360745	-1.7267789	
	0.99356477	-1.7215406	0.027936807	-94.340749	0.02925645	89.796838	0.029962299	86.253199	
	0.02824777	-94.440198	0.99360745	-1.7267789	0.029962299	86.253199	0.028794296	87.807721	
	
0.104673487907914	0.02937478	87.70887	0.030912369	85.558627	0.99304618	-1.7853455	0.028854943	-94.087663	
	0.030912369	85.558627	0.027556223	86.674318	0.028709281	-93.496971	0.99441532	-1.75495	
	0.99304618	-1.7853455	0.028709281	-93.496971	0.029708562	88.571172	0.030862662	85.698413	
	0.028854943	-94.087663	0.99441532	-1.75495	0.030862662	85.698413	0.02823453	91.189207	
	
0.107091510398389	0.029401301	88.146818	0.031386619	86.107691	0.99269933	-1.8131026	0.029183406	-94.341978	
	0.031386619	86.107691	0.027213648	86.524116	0.029369821	-94.355752	0.99355781	-1.7934802	
	0.99269933	-1.8131026	0.029369821	-94.355752	0.030496606	88.646475	0.031434984	85.744784	
	0.029183406	-94.341978	0.99355781	-1.7934802	0.031434984	85.744784	0.029459106	88.141687	
	
0.109565390708082	0.031069918	89.652257	0.032392729	85.767266	0.99312014	-1.8396291	0.029911963	-94.829851	
	0.032392729	85.767266	0.028339628	87.064126	0.02961165	-94.29517	0.99380786	-1.856906	
	0.99312014	-1.8396291	0.02961165	-94.29517	0.031091043	89.776014	0.032170049	85.899584	
	0.029911963	-94.829851	0.99380786	-1.856906	0.032170049	85.899584	0.030527225	88.80916	
	
0.112096419187261	0.031389752	90.092629	0.032690607	85.608269	0.9928529	-1.8732455	0.03063673	-94.266759	
	0.032690607	85.608269	0.029323371	88.782544	0.030632108	-94.489497	0.99365902	-1.8908245	
	0.9928529	-1.8732455	0.030632108	-94.489497	0.031243924	90.59151	0.03310418	85.564083	
	0.03063673	-94.266759	0.99365902	-1.8908245	0.03310418	85.564083	0.030891711	91.509634	
	
0.114685915994083	0.03119714	87.734185	0.033720965	85.207943	0.99335546	-1.9218961	0.031061561	-94.288965	
	0.033720965	85.207943	0.029376226	87.953232	0.031355215	-94.728046	0.99365664	-1.9253098	
	0.99335546	-1.9218961	0.031355215	-94.728046	0.032143109	91.241931	0.033760646	86.122424	
	0.031061561	-94.288965	0.99365664	-1.9253098	0.033760646	86.122424	0.031450832	89.857301	
	
0.117335231783182	0.031577888	86.82163	0.034100639	85.880962	0.99265981	-1.9717239	0.031997245	-94.487065	
	0.034100639	85.880962	0.030564714	85.97219	0.031920898	-95.186549	0.99359341	-1.9719252	
	0.99265981	-1.9717239	0.031920898	-95.186549	0.032323446	89.470918	0.034552093	85.686401	
	0.031997245	-94.487065	0.99359341	-1.9719252	0.034552093	85.686401	0.031205865	89.119588	
	
0.120045748410147	0.033152387	86.176601	0.035554216	85.726922	0.9933945	-1.9947583	0.03273834	-94.876986	
	0.035554216	85.726922	0.030681165	88.225314	0.032831534	-94.948672	0.9933057	-1.9778355	
	0.9933945	-1.9947583	0.032831534	-94.948672	0.033370109	87.751305	0.035136169	85.728559	
	0.03273834	-94.876986	0.9933057	-1.9778355	0.035136169	85.728559	0.031680378	87.709501	
	
0.122818879652292	0.033379202	87.485639	0.036008339	85.440011	0.9933257	-2.0445084	0.033432205	-94.732451	
	0.036008339	85.440011	0.031499285	87.774745	0.033785287	-95.048637	0.99349506	-2.0446138	
	0.9933257	-2.0445084	0.033785287	-95.048637	0.035008666	89.148029	0.03603454	85.848107	
	0.033432205	-94.732451	0.99349506	-2.0446138	0.03603454	85.848107	0.03299393	88.435261	
	
0.125656071946061	0.034797704	87.562733	0.036847115	85.181218	0.99292981	-2.1330542	0.034125673	-95.033792	
	0.036847115	85.181218	0.032607354	87.441144	0.034454097	-94.846611	0.99360358	-2.0939957	
	0.99292981	-2.1330542	0.034454097	-94.846611	0.035124758	87.28488	0.036834609	85.565069	
	0.034125673	-95.033792	0.99360358	-2.0939957	0.036834609	85.565069	0.034574801	88.062025	
	
0.128558805141477	0.035185418	87.064142	0.03750759	85.104491	0.9923922	-2.1648099	0.035170952	-94.946749	
	0.03750759	85.104491	0.033210226	86.589911	0.034867582	-94.948224	0.99385508	-2.1441872	
	0.9923922	-2.1648099	0.034867582	-94.948224	0.035180432	88.540244	0.037591551	85.050487	
	0.035170952	-94.946749	0.99385508	-2.1441872	0.037591551	85.050487	0.034507944	88.901594	
	
0.131528593274019	0.035670831	86.42765	0.038360084	85.286468	0.99301206	-2.2294575	0.035912992	-95.421504	
	0.038360084	85.286468	0.03350668	87.425289	0.035861821	-95.365955	0.99371658	-2.1920896	
	0.99301206	-2.2294575	0.035861821	-95.365955	0.037299246	86.937596	0.038683264	84.995022	
	0.035912992	-95.421504	0.99371658	-2.1920896	0.038683264	84.995022	0.034689591	89.927227	
	
0.134566985354323	0.036596608	85.49829	0.039502925	84.922776	0.99196135	-2.2560205	0.036638746	-95.377106	
	0.039502925	84.922776	0.035557383	86.577062	0.036579072	-94.757986	0.99331807	-2.2484023	
	0.99196135	-2.2560205	0.036579072	-94.757986	0.037452109	86.41443	0.039288671	84.969651	
	0.036638746	-95.377106	0.99331807	-2.2484023	0.039288671	84.969651	0.037592023	89.891151	
	
0.13767556617613	0.037348451	85.213419	0.040302018	85.102187	0.99232667	-2.2994954	0.03727705	-95.508211	
	0.040302018	85.102187	0.035770055	86.610323	0.037232493	-95.355545	0.99344611	-2.2799979	
	0.99232667	-2.2994954	0.037232493	-95.355545	0.038345976	87.664115	0.040468902	85.138021	
	0.03727705	-95.508211	0.99344611	-2.2799979	0.040468902	85.138021	0.037599795	88.412499	
	
0.140855957142902	0.037887101	85.573392	0.040966751	84.690826	0.99238007	-2.3580931	0.038171304	-95.769082	
	0.040966751	84.690826	0.037352239	84.512831	0.037973128	-95.445359	0.99255784	-2.3660742	
	0.99238007	-2.3580931	0.037973128	-95.445359	0.039408847	87.039269	0.041438981	85.056906	
	0.038171304	-95.769082	0.99255784	-2.3660742	0.041438981	85.056906	0.038823655	86.886688	
	
0.144109817113524	0.039223431	84.821344	0.04225367	84.729792	0.99138145	-2.4099873	0.039214401	-95.634722	
	0.04225367	84.729792	0.037150492	85.488094	0.039247408	-95.549152	0.99260382	-2.4153012	
	0.99138145	-2.4099873	0.039247408	-95.549152	0.039925152	86.92903	0.042303032	84.772565	
	0.039214401	-95.634722	0.99260382	-2.4153012	0.042303032	84.772565	0.039766457	87.066529	
	
0.147438843267552	0.039519674	85.666953	0.042989976	84.560178	0.99125214	-2.4789054	0.040146231	-96.258402	
	0.042989976	84.560178	0.038223044	85.835937	0.040141618	-95.839079	0.99248179	-2.4910036	
	0.99125214	-2.4789054	0.040141618	-95.839079	0.040661416	88.105105	0.04336681	84.981244	
	0.040146231	-96.258402	0.99248179	-2.4910036	0.04336681	84.981244	0.040671617	86.732121	
	
0.150844771990442	0.040879457	84.210782	0.044136234	84.682391	0.99122925	-2.5016664	0.040894895	-95.724797	
	0.044136234	84.682391	0.039730325	84.470303	0.041098773	-95.621538	0.99259337	-2.5176321	
	0.99122925	-2.5016664	0.041098773	-95.621538	0.041768294	85.880167	0.043850287	84.692691	
	0.040894895	-95.724797	0.99259337	-2.5176321	0.043850287	84.692691	0.040556715	87.084515	
	
0.154329379779229	0.042162689	84.263831	0.045187539	84.359768	0.99181099	-2.5807325	0.041951548	-95.853681	
	0.045187539	84.359768	0.041205325	85.024479	0.041970362	-95.737369	0.99222791	-2.5953612	
	0.99181099	-2.5807325	0.041970362	-95.737369	0.04344655	86.346054	0.045163504	83.931878	
	0.041951548	-95.853681	0.99222791	-2.5953612	0.045163504	83.931878	0.041768138	87.149624	
	
0.157894484169135	0.043077169	85.130978	0.04627176	84.367263	0.99134894	-2.6289054	0.042980079	-95.945599	
	0.04627176	84.367263	0.041377625	85.072291	0.042747898	-95.708641	0.99251456	-2.6688567	
	0.99134894	-2.6289054	0.042747898	-95.708641	0.044023496	87.433011	0.046069456	84.097185	
	0.042980079	-95.945599	0.99251456	-2.6688567	0.046069456	84.097185	0.043020817	87.236533	
	
0.16154194468157	0.044472416	85.697936	0.047226139	84.099467	0.99042913	-2.7162569	0.044112932	-96.094834	
	0.047226139	84.099467	0.042297073	86.134639	0.043794726	-96.369433	0.99262784	-2.7480313	
	0.99042913	-2.7162569	0.043794726	-96.369433	0.043626472	86.549893	0.047053422	84.307517	
	0.044112932	-96.094834	0.99262784	-2.7480313	0.047053422	84.307517	0.043201897	85.56709	
	
0.165273663794043	0.045079704	85.630381	0.048124856	84.057168	0.99053828	-2.7809699	0.044735905	-96.118316	
	0.048124856	84.057168	0.043560485	84.121769	0.044647068	-96.387349	0.99190114	-2.7868035	
	0.99053828	-2.7809699	0.044647068	-96.387349	0.044979756	86.230612	0.048368532	84.094213	
	0.044735905	-96.118316	0.99190114	-2.7868035	0.048368532	84.094213	0.044740229	85.882771	
	
0.169091587932473	0.046306669	84.61606	0.049243952	83.995039	0.99116794	-2.8266709	0.045580239	-96.511925	
	0.049243952	83.995039	0.044698767	85.504975	0.045781956	-96.539261	0.99169581	-2.833846	
	0.99116794	-2.8266709	0.045781956	-96.539261	0.047225625	85.229878	0.049224801	83.689216	
	0.045580239	-96.511925	0.99169581	-2.833846	0.049224801	83.689216	0.046554183	85.535027	
	
0.172997708486424	0.046966262	84.447409	0.050089758	83.877627	0.99099973	-2.8907027	0.046872596	-96.427838	
	0.050089758	83.877627	0.044156619	84.375557	0.046557866	-96.216621	0.99137181	-2.9265847	
	0.99099973	-2.8907027	0.046557866	-96.216621	0.048750264	84.614318	0.050361835	83.74122	
	0.046872596	-96.427838	0.99137181	-2.9265847	0.050361835	83.74122	0.0469183	86.13726	
	
0.176994062847797	0.048142778	85.182214	0.051690971	83.63414	0.99104698	-2.9637411	0.048092853	-96.762899	
	0.051690971	83.63414	0.046423931	84.155371	0.047973772	-96.890485	0.99139918	-2.9782579	
	0.99104698	-2.9637411	0.047973772	-96.890485	0.049677758	85.384557	0.05162506	83.847392	
	0.048092853	-96.762899	0.99139918	-2.9782579	0.05162506	83.847392	0.046967427	86.246011	
	
0.181082735473506	0.049637851	84.103154	0.052584412	83.863239	0.99045116	-3.0291543	0.04874688	-96.863061	
	0.052584412	83.863239	0.047645674	82.337969	0.048911533	-96.708629	0.99088239	-3.0385845	
	0.99045116	-3.0291543	0.048911533	-96.708629	0.049545937	85.897097	0.05290423	83.567065	
	0.04874688	-96.863061	0.99088239	-3.0385845	0.05290423	83.567065	0.049456757	85.842275	
	
0.185265858972714	0.049588696	85.283914	0.05408994	83.745216	0.9904445	-3.11489	0.050099442	-97.020138	
	0.05408994	83.745216	0.049447547	84.50994	0.050139996	-96.879004	0.99072008	-3.1068347	
	0.9904445	-3.11489	0.050139996	-96.879004	0.050092385	85.735789	0.053866941	83.368082	
	0.050099442	-97.020138	0.99072008	-3.1068347	0.053866941	83.368082	0.049724354	85.075958	
	
0.18954561521918	0.0516011	83.72778	0.055310204	83.567815	0.99014523	-3.165964	0.050984229	-97.158875	
	0.055310204	83.567815	0.048780934	84.152615	0.051105662	-97.043742	0.99105223	-3.1300478	
	0.99014523	-3.165964	0.051105662	-97.043742	0.051963009	85.883082	0.055140396	83.122122	
	0.050984229	-97.158875	0.99105223	-3.1300478	0.055140396	83.122122	0.049752442	85.90712	
	
0.193924236489297	0.052842313	83.406281	0.056124258	83.093244	0.98900976	-3.2714096	0.052294377	-97.367821	
	0.056124258	83.093244	0.050509776	82.83837	0.052594849	-97.193877	0.99033226	-3.2197185	
	0.98900976	-3.2714096	0.052594849	-97.193877	0.053915683	84.929482	0.056594001	82.929187	
	0.052294377	-97.367821	0.99033226	-3.2197185	0.056594001	82.929187	0.052774178	84.806518	
	
0.19840400662643	0.053987119	84.256301	0.05801298	82.621751	0.99025704	-3.313056	0.053406925	-97.165388	
	0.05801298	82.621751	0.05269469	84.985273	0.053583799	-97.632203	0.99103163	-3.330803	
	0.99025704	-3.313056	0.053583799	-97.632203	0.054502395	84.926804	0.057600283	83.268027	
	0.053406925	-97.165388	0.99103163	-3.330803	0.057600283	83.268027	0.052868647	85.238104	
	
0.202987262232139	0.055745027	83.557445	0.058962406	83.23673	0.98953054	-3.373745	0.054696655	-97.538424	
	0.058962406	83.23673	0.054017806	83.042153	0.054770152	-97.264336	0.99026503	-3.4172643	
	0.98953054	-3.373745	0.054770152	-97.264336	0.055947381	84.196853	0.05923558	82.956591	
	0.054696655	-97.538424	0.99026503	-3.4172643	0.05923558	82.956591	0.055272094	84.619839	
	
0.207676393884933	0.056017389	83.313679	0.060329754	82.670528	0.98918497	-3.5131639	0.056175532	-97.990454	
	0.060329754	82.670528	0.05494598	82.716046	0.056115889	-97.572357	0.9898285	-3.4712658	
	0.98918497	-3.5131639	0.056115889	-97.572357	0.056000313	84.462857	0.060345132	82.499846	
	0.056175532	-97.990454	0.9898285	-3.4712658	0.060345132	82.499846	0.056989724	84.851963	
	
0.212473847387164	0.057901368	82.550295	0.061674799	82.422106	0.98850179	-3.5822782	0.057228772	-97.949683	
	0.061674799	82.422106	0.055131924	82.919518	0.057087412	-98.066374	0.98956016	-3.5314696	
	0.98850179	-3.5822782	0.057087412	-98.066374	0.058759548	83.58435	0.061878561	82.58991	
	0.057228772	-97.949683	0.98956016	-3.5314696	0.061878561	82.58991	0.057282767	83.836401	
	
0.217382125040737	0.059379553	83.256272	0.06312256	82.56961	0.98874231	-3.6425374	0.058442564	-98.106694	
	0.06312256	82.56961	0.057455997	82.457884	0.058811422	-98.295323	0.98981313	-3.6487855	
	0.98874231	-3.6425374	0.058811422	-98.295323	0.059205524	84.433926	0.063287007	82.481265	
	0.058442564	-98.106694	0.98981313	-3.6487855	0.063287007	82.481265	0.058739754	84.424012	
	
0.222403786952283	0.060193259	82.471057	0.064316002	82.325712	0.98829098	-3.7472797	0.0598548	-98.048283	
	0.064316002	82.325712	0.05883875	82.682207	0.059777275	-98.00838	0.98936191	-3.7149439	
	0.98829098	-3.7472797	0.059777275	-98.00838	0.061431514	83.685777	0.064598016	82.061198	
	0.0598548	-98.048283	0.98936191	-3.7149439	0.064598016	82.061198	0.060020951	83.844991	
	
0.227541452368483	0.062278346	82.443968	0.065847199	82.363984	0.98879043	-3.8297348	0.061253096	-98.687985	
	0.065847199	82.363984	0.06081242	82.315536	0.061294505	-98.372661	0.98916039	-3.8210795	
	0.98879043	-3.8297348	0.061294505	-98.372661	0.061688379	83.224166	0.066283501	82.386424	
	0.061253096	-98.687985	0.98916039	-3.8210795	0.066283501	82.386424	0.060565645	84.400137	
	
0.232797801042241	0.062932572	82.172561	0.067147781	82.009547	0.98697593	-3.9018657	0.062621727	-98.87591	
	0.067147781	82.009547	0.061270684	83.038505	0.06250838	-98.41536	0.98846196	-3.8987567	
	0.98697593	-3.9018657	0.06250838	-98.41536	0.063975618	82.728609	0.067233865	82.009312	
	0.062621727	-98.87591	0.98846196	-3.8987567	0.067233865	82.009312	0.063846206	82.769944	
	
0.238175574630416	0.064094965	82.021004	0.06871757	81.490318	0.98771513	-3.9777999	0.063917685	-98.732638	
	0.06871757	81.490318	0.062855105	82.709194	0.063959028	-98.784473	0.98844104	-3.9750639	
	0.98771513	-3.9777999	0.063959028	-98.784473	0.065906611	82.504815	0.068969808	81.669731	
	0.063917685	-98.732638	0.98844104	-3.9750639	0.068969808	81.669731	0.06413424	83.036574	
	
0.24367757812384	0.066179073	82.146179	0.070634432	81.755831	0.98663304	-4.101509	0.065472371	-98.973508	
	0.070634432	81.755831	0.06341365	82.209341	0.065446296	-98.846439	0.98861319	-4.092423	
	0.98663304	-4.101509	0.065446296	-98.846439	0.067073075	82.109894	0.070581802	81.695422	
	0.065472371	-98.973508	0.98861319	-4.092423	0.070581802	81.695422	0.065002816	83.216051	
	
0.249306681310373	0.067569732	81.526646	0.071838418	81.481212	0.98659832	-4.1818648	0.066656133	-99.211734	
	0.071838418	81.481212	0.065738488	81.041691	0.066934173	-99.065345	0.98752562	-4.1415517	
	0.98659832	-4.1818648	0.066934173	-99.065345	0.06919112	82.886104	0.072176223	81.403004	
	0.066656133	-99.211734	0.98752562	-4.1415517	0.072176223	81.403004	0.067201275	82.473641	
	
0.255065820271756	0.068844007	81.953934	0.073909262	81.228723	0.98641666	-4.2767684	0.068500215	-99.279956	
	0.073909262	81.228723	0.06766767	81.171335	0.068448959	-99.249611	0.98737602	-4.2435671	
	0.98641666	-4.2767684	0.068448959	-99.249611	0.068930721	82.041283	0.073768291	81.111441	
	0.068500215	-99.279956	0.98737602	-4.2435671	0.073768291	81.111441	0.069026038	82.819174	
	
0.260957998915036	0.070416589	81.207988	0.075425917	81.092625	0.98573748	-4.3790577	0.069737714	-99.450981	
	0.075425917	81.092625	0.069395203	80.962066	0.070082205	-99.534098	0.9870028	-4.3366628	
	0.98573748	-4.3790577	0.070082205	-99.534098	0.071446725	82.081174	0.075225851	81.011101	
	0.069737714	-99.450981	0.9870028	-4.3366628	0.075225851	81.011101	0.069760303	82.001138	
	
0.266986290539378	0.071842767	80.628376	0.077115786	80.886234	0.98593536	-4.4475156	0.071338548	-99.675641	
	0.077115786	80.886234	0.069990548	81.406267	0.071729487	-99.671272	0.98643404	-4.462205	
	0.98593536	-4.4475156	0.071729487	-99.671272	0.073234269	81.216613	0.077011077	80.80769	
	0.071338548	-99.675641	0.98643404	-4.462205	0.077011077	80.80769	0.071705309	81.846434	
	
0.273153839439064	0.073776252	81.124384	0.07872706	80.7538	0.98537709	-4.5421773	0.073296121	-99.800373	
	0.07872706	80.7538	0.071739169	81.084073	0.073109908	-99.87513	0.98639553	-4.560928	
	0.98537709	-4.5421773	0.073109908	-99.87513	0.073915171	81.743866	0.078799135	80.611253	
	0.073296121	-99.800373	0.98639553	-4.560928	0.078799135	80.611253	0.073798426	81.383918	
	
0.279463862543524	0.074766577	79.956146	0.080467189	80.635553	0.98516646	-4.6787001	0.075255471	-100.17061	
	0.080467189	80.635553	0.074347231	80.425809	0.07474638	-99.988986	0.98543004	-4.6705282	
	0.98516646	-4.6787001	0.07474638	-99.988986	0.076104768	80.764211	0.080511753	80.46706	
	0.075255471	-100.17061	0.98543004	-4.6705282	0.080511753	80.46706	0.074792831	81.637984	
	
0.285919651095252	0.077491116	80.208107	0.082536073	80.153738	0.98415538	-4.7774468	0.076564248	-100.41852	
	0.082536073	80.153738	0.075706477	80.516178	0.076399704	-100.29366	0.98513668	-4.7603884	
	0.98415538	-4.7774468	0.076399704	-100.29366	0.077913523	80.737466	0.082613071	80.269153	
	0.076564248	-100.41852	0.98513668	-4.7603884	0.082613071	80.269153	0.077092076	80.82686	
	
0.292524572366485	0.07944171	79.915856	0.084031961	80.160216	0.98424692	-4.8590442	0.078275151	-100.65984	
	0.084031961	80.160216	0.078670039	80.430006	0.078423185	-100.73275	0.98496248	-4.8724844	
	0.98424692	-4.8590442	0.078423185	-100.73275	0.080789441	80.896694	0.084105482	79.928334	
	0.078275151	-100.65984	0.98496248	-4.8724844	0.084105482	79.928334	0.080321063	81.590816	
	
0.299282071415539	0.08088454	80.004592	0.085710178	79.868645	0.98302444	-4.9618852	0.080010101	-100.82572	
	0.085710178	79.868645	0.078987353	79.963785	0.079938234	-101.06614	0.98376202	-4.9864813	
	0.98302444	-4.9618852	0.079938234	-101.06614	0.082855931	80.367581	0.085824857	79.512207	
	0.080010101	-100.82572	0.98376202	-4.9864813	0.085824857	79.512207	0.082022834	80.518741	
	
0.30619567288371	0.082540878	79.490093	0.087743908	79.519767	0.98157461	-5.1127417	0.08175502	-100.99041	
	0.087743908	79.519767	0.079505995	79.20283	0.081554039	-100.90489	0.98310085	-5.0541726	
	0.98157461	-5.1127417	0.081554039	-100.90489	0.084781049	80.765006	0.087773853	79.310394	
	0.08175502	-100.99041	0.98310085	-5.0541726	0.087773853	79.310394	0.083304236	80.072447	
	
0.313268982833699	0.084061884	79.881738	0.08996672	79.543453	0.98223017	-5.2118205	0.083457677	-101.45091	
	0.08996672	79.543453	0.082097763	79.829676	0.083832913	-101.21122	0.98358634	-5.1817607	
	0.98223017	-5.2118205	0.083832913	-101.21122	0.085434366	80.449543	0.089957798	79.489656	
	0.083457677	-101.45091	0.98358634	-5.1817607	0.089957798	79.489656	0.084151912	80.708526	
	
0.320505690630487	0.084985318	79.586271	0.091891915	79.416261	0.98180339	-5.2722531	0.085645977	-101.41838	
	0.091891915	79.416261	0.083375675	79.092072	0.0853833	-101.36784	0.98320417	-5.2734578	
	0.98180339	-5.2722531	0.0853833	-101.36784	0.086843705	80.074362	0.091851085	79.183547	
