# MHz S MA R 50

0.1	0.096621302	77.40052	0.10055261	78.055365	0.97751317	-5.7675093	0.097403901	-102.25705	
	0.10055261	78.055365	0.095966631	77.828494	0.098039287	-102.31641	0.97899518	-5.7429583	
	0.97751317	-5.7675093	0.098039287	-102.31641	0.099925978	77.886315	0.1006435	77.922761	
	0.097403901	-102.25705	0.97899518	-5.7429583	0.1006435	77.922761	0.096951916	77.584579	
	
0.102310062021247	0.1000656	77.267385	0.10307131	77.71115	0.97682965	-5.8996066	0.099875184	-102.63713	
	0.10307131	77.71115	0.099035469	77.227005	0.099882708	-102.53258	0.97759345	-5.9046041	
	0.97682965	-5.8996066	0.099882708	-102.53258	0.10092727	77.853947	0.10331153	77.517637	
	0.099875184	-102.63713	0.97759345	-5.9046041	0.10331153	77.517637	0.10036722	77.174054	
	
0.104673487907914	0.10249699	76.996583	0.10526034	77.344384	0.97609402	-6.0571575	0.10181756	-103.02078	
	0.10526034	77.344384	0.10125416	76.650771	0.10211209	-102.98188	0.97761442	-6.0555777	
	0.97609402	-6.0571575	0.10211209	-102.98188	0.10324454	77.713168	0.10536938	77.293283	
	0.10181756	-103.02078	0.97761442	-6.0555777	0.10536938	77.293283	0.1014989	77.745523	
	
0.107091510398389	0.10441742	76.71944	0.10757552	77.388798	0.9755986	-6.1894396	0.10420672	-103.19908	
	0.10757552	77.388798	0.10259742	76.361105	0.10412305	-103.15481	0.9762247	-6.1579215	
	0.9755986	-6.1894396	0.10412305	-103.15481	0.10579839	77.3488	0.10745235	77.196211	
	0.10420672	-103.19908	0.9762247	-6.1579215	0.10745235	77.196211	0.10481107	77.090745	
	
0.109565390708082	0.108023	77.139769	0.11031191	77.050553	0.97502705	-6.3220632	0.10680061	-103.65897	
	0.11031191	77.050553	0.10537396	76.500115	0.10668053	-103.41216	0.97570363	-6.2899478	
	0.97502705	-6.3220632	0.10668053	-103.41216	0.10747218	77.175689	0.11012908	76.769153	
	0.10680061	-103.65897	0.97570363	-6.2899478	0.11012908	76.769153	0.10729842	76.715109	
	
0.112096419187261	0.10981677	76.921617	0.11245724	76.753415	0.97398919	-6.4443926	0.10908223	-103.77274	
	0.11245724	76.753415	0.10747505	76.56807	0.10901562	-103.63104	0.97479133	-6.4701278	
	0.97398919	-6.4443926	0.10901562	-103.63104	0.10924066	77.381436	0.11251813	76.600268	
	0.10908223	-103.77274	0.97479133	-6.4701278	0.11251813	76.600268	0.10906645	77.144051	
	
0.114685915994083	0.11154446	75.937656	0.11515649	76.528536	0.97359069	-6.5431755	0.11159117	-104.0566	
	0.11515649	76.528536	0.10958378	75.899791	0.11142353	-103.93224	0.97413491	-6.5992667	
	0.97359069	-6.5431755	0.11142353	-103.93224	0.11260595	77.211081	0.11527174	76.43779	
	0.11159117	-104.0566	0.97413491	-6.5992667	0.11527174	76.43779	0.11142078	76.526537	
	
0.117335231783182	0.1130597	75.520338	0.11709956	76.09407	0.97225306	-6.7284404	0.11394527	-104.2871	
	0.11709956	76.09407	0.112277	75.425144	0.11366107	-104.23793	0.97343547	-6.7182479	
	0.97225306	-6.7284404	0.11366107	-104.23793	0.11482358	76.495959	0.11715646	76.03715	
	0.11394527	-104.2871	0.97343547	-6.7182479	0.11715646	76.03715	0.11366098	76.292637	
	
0.120045748410147	0.11656948	75.079926	0.11992798	75.858618	0.97194603	-6.8415217	0.11628938	-104.70306	
	0.11992798	75.858618	0.11398615	75.234856	0.11605731	-104.67119	0.97238823	-6.8290712	
	0.97194603	-6.8415217	0.11605731	-104.67119	0.11652991	75.746746	0.11964255	75.887403	
	0.11628938	-104.70306	0.97238823	-6.8290712	0.11964255	75.887403	0.11540921	75.741912	
	
0.122818879652292	0.11874143	75.32015	0.12241503	75.580065	0.97126597	-6.9728975	0.11837796	-104.93999	
	0.12241503	75.580065	0.11724839	75.038643	0.11885577	-104.88579	0.97151169	-6.9827453	
	0.97126597	-6.9728975	0.11885577	-104.88579	0.11985661	75.75801	0.12241843	75.464622	
	0.11837796	-104.93999	0.97151169	-6.9827453	0.12241843	75.464622	0.11799432	75.824144	
	
0.125656071946061	0.1221127	74.828476	0.124944	75.275235	0.96995038	-7.1720883	0.12134994	-105.15399	
	0.124944	75.275235	0.11973895	75.026467	0.1214046	-105.23586	0.97054574	-7.1617772	
	0.96995038	-7.1720883	0.1214046	-105.23586	0.12211779	74.978622	0.12532216	75.256565	
	0.12134994	-105.15399	0.97054574	-7.1617772	0.12532216	75.256565	0.12147576	75.198258	
	
0.128558805141477	0.1239371	74.671555	0.12733562	74.985896	0.9681841	-7.3050344	0.12380389	-105.5634	
	0.12733562	74.985896	0.12231187	74.21371	0.12387517	-105.42445	0.9699832	-7.3199439	
	0.9681841	-7.3050344	0.12387517	-105.42445	0.12399663	75.247119	0.12768987	75.020608	
	0.12380389	-105.5634	0.9699832	-7.3199439	0.12768987	75.020608	0.12330463	75.080281	
	
0.131528593274019	0.12650564	74.191287	0.13053495	74.538518	0.9677671	-7.4695453	0.12617065	-105.6878	
	0.13053495	74.538518	0.12418475	74.461579	0.1263543	-105.83519	0.96888453	-7.4916702	
	0.9677671	-7.4695453	0.1263543	-105.83519	0.12807951	74.530408	0.1305954	74.621717	
	0.12617065	-105.6878	0.96888453	-7.4916702	0.1305954	74.621717	0.1253578	75.020135	
	
0.134566985354323	0.12929225	73.6486	0.13306429	74.281772	0.96640706	-7.621341	0.12923754	-106.25637	
	0.13306429	74.281772	0.12771747	73.782117	0.12906301	-106.09827	0.96732934	-7.6422972	
	0.96640706	-7.621341	0.12906301	-106.09827	0.12996107	73.815821	0.13327302	74.22181	
	0.12923754	-106.25637	0.96732934	-7.6422972	0.13327302	74.22181	0.13012801	74.57876	
	
0.13767556617613	0.1318565	73.252681	0.13590749	74.009456	0.96526406	-7.7780594	0.13186624	-106.63074	
	0.13590749	74.009456	0.13044404	73.434416	0.13207719	-106.46296	0.96667405	-7.7561765	
	0.96526406	-7.7780594	0.13207719	-106.46296	0.13245079	73.888463	0.13632085	73.89787	
	0.13186624	-106.63074	0.96667405	-7.7561765	0.13632085	73.89787	0.13184259	74.10453	
	
0.140855957142902	0.1343944	73.245485	0.13875842	73.72711	0.96363877	-7.9582992	0.13461899	-107.00375	
	0.13875842	73.72711	0.1340142	72.426492	0.13423507	-106.69316	0.96443289	-7.9494487	
	0.96363877	-7.9582992	0.13423507	-106.69316	0.1359303	73.143278	0.1390621	73.462342	
	0.13461899	-107.00375	0.96443289	-7.9494487	0.1390621	73.462342	0.13546126	73.624991	
	
0.144109817113524	0.1376953	72.383751	0.14174926	73.421931	0.96232722	-8.1133443	0.13755626	-107.26429	
	0.14174926	73.421931	0.13605786	72.44771	0.13732808	-107.13796	0.96338048	-8.1168676	
	0.96232722	-8.1133443	0.13732808	-107.13796	0.13850298	73.007191	0.14177632	73.204878	
	0.13755626	-107.26429	0.96338048	-8.1168676	0.14177632	73.204878	0.13832112	73.082727	
	
0.147438843267552	0.14037159	72.289227	0.14478438	72.984372	0.96101739	-8.272157	0.14019999	-107.57748	
	0.14478438	72.984372	0.13890053	72.111949	0.13997602	-107.5768	0.96223599	-8.3119678	
	0.96101739	-8.272157	0.13997602	-107.5768	0.14093793	73.169244	0.14472818	72.859471	
	0.14019999	-107.57748	0.96223599	-8.3119678	0.14472818	72.859471	0.14057888	72.797043	
	
0.150844771990442	0.14374609	71.569482	0.14724744	72.608966	0.95949096	-8.4178783	0.14312509	-107.83087	
	0.14724744	72.608966	0.14212697	71.5181	0.1432017	-107.82826	0.96079975	-8.4567455	
	0.95949096	-8.4178783	0.1432017	-107.82826	0.14418015	72.175169	0.14777312	72.607781	
	0.14312509	-107.83087	0.96079975	-8.4567455	0.14777312	72.607781	0.14284828	72.43081	
	
0.154329379779229	0.14690462	71.483704	0.15061675	72.279918	0.95841332	-8.5995026	0.14610405	-108.30539	
	0.15061675	72.279918	0.14518074	71.389362	0.14627609	-108.3966	0.95928223	-8.628276	
	0.95841332	-8.5995026	0.14627609	-108.3966	0.14760297	72.200444	0.15075784	72.188967	
	0.14610405	-108.30539	0.95928223	-8.628276	0.15075784	72.188967	0.14669043	71.758293	
	
0.157894484169135	0.14940886	71.102195	0.15380641	71.879486	0.95776592	-8.7929182	0.14942006	-108.78595	
	0.15380641	71.879486	0.14831269	71.085098	0.14926253	-108.65207	0.958276	-8.8215628	
	0.95776592	-8.7929182	0.14926253	-108.65207	0.15027193	71.96249	0.15392837	71.775582	
	0.14942006	-108.78595	0.958276	-8.8215628	0.15392837	71.775582	0.14972279	72.031072	
	
0.16154194468157	0.1528703	71.042165	0.1576215	71.535283	0.95508186	-8.9979312	0.15244276	-109.14728	
	0.1576215	71.535283	0.15152522	70.97706	0.15242153	-108.93977	0.95727533	-9.0197725	
	0.95508186	-8.9979312	0.15242153	-108.93977	0.15261326	71.154042	0.15729566	71.601717	
	0.15244276	-109.14728	0.95727533	-9.0197725	0.15729566	71.601717	0.15206172	71.264034	
	
0.165273663794043	0.15585433	70.653303	0.16032929	71.257145	0.95415048	-9.1626961	0.15554959	-109.56693	
	0.16032929	71.257145	0.15442259	70.305516	0.15532393	-109.35939	0.95513014	-9.1849121	
	0.95415048	-9.1626961	0.15532393	-109.35939	0.15607694	70.860333	0.16020803	71.082672	
	0.15554959	-109.56693	0.95513014	-9.1849121	0.16020803	71.082672	0.15577034	70.848843	
	
0.169091587932473	0.15938592	70.163093	0.16370448	70.71889	0.95203312	-9.3334792	0.15868553	-109.9921	
	0.16370448	70.71889	0.15801434	70.153967	0.15857899	-109.93322	0.95328835	-9.3662111	
	0.95203312	-9.3334792	0.15857899	-109.93322	0.15999379	70.307986	0.16353342	70.650446	
	0.15868553	-109.9921	0.95328835	-9.3662111	0.16353342	70.650446	0.15920701	70.245988	
	
0.172997708486424	0.16187046	69.657608	0.16667067	70.477007	0.95100581	-9.516336	0.16218038	-110.2869	
	0.16667067	70.477007	0.16018954	69.502363	0.16164085	-110.19926	0.95156276	-9.5610353	
	0.95100581	-9.516336	0.16164085	-110.19926	0.16367369	69.620496	0.1671497	70.280944	
	0.16218038	-110.2869	0.95156276	-9.5610353	0.1671497	70.280944	0.16247628	70.175103	
	
0.176994062847797	0.16581568	69.457841	0.1706528	69.973771	0.94949534	-9.7116193	0.16543831	-110.77166	
	0.1706528	69.973771	0.16436834	69.241576	0.16534678	-110.60642	0.94974317	-9.7111382	
	0.94949534	-9.7116193	0.16534678	-110.60642	0.16711676	69.633317	0.17051536	69.893636	
	0.16543831	-110.77166	0.94974317	-9.7111382	0.17051536	69.893636	0.16459281	69.719637	
	
0.181082735473506	0.16926317	68.915654	0.17347788	69.517505	0.94686557	-9.9109193	0.1685699	-111.16081	
	0.17347788	69.517505	0.16744841	68.388431	0.1681867	-111.07673	0.94785618	-9.9300649	
	0.94686557	-9.9109193	0.1681867	-111.07673	0.1690809	69.367626	0.17393743	69.369567	
	0.1685699	-111.16081	0.94785618	-9.9300649	0.17393743	69.369567	0.16900307	69.236822	
	
0.185265858972714	0.17209548	68.512451	0.17721087	69.177425	0.94575329	-10.101368	0.17215336	-111.6133	
	0.17721087	69.177425	0.17127898	68.489094	0.17215756	-111.45206	0.94616346	-10.152596	
	0.94575329	-10.101368	0.17215756	-111.45206	0.17234269	68.985394	0.17741634	69.069195	
	0.17215336	-111.6133	0.94616346	-10.152596	0.17741634	69.069195	0.17122806	68.590738	
	
0.18954561521918	0.17568484	67.974393	0.18085801	68.949211	0.94380615	-10.322527	0.1754884	-111.93341	
	0.18085801	68.949211	0.17360552	68.150901	0.17529337	-111.99348	0.94474221	-10.301192	
	0.94380615	-10.322527	0.17529337	-111.99348	0.17684532	68.49536	0.18152654	68.660612	
	0.1754884	-111.93341	0.94474221	-10.301192	0.18152654	68.660612	0.17458235	68.42989	
	
0.193924236489297	0.17977722	67.551412	0.18417488	68.33071	0.94124161	-10.523008	0.17860033	-112.411	
	0.18417488	68.33071	0.17725675	67.383309	0.17872467	-112.32947	0.94242909	-10.496746	
	0.94124161	-10.523008	0.17872467	-112.32947	0.18042366	68.047607	0.18499427	68.273023	
	0.17860033	-112.411	0.94242909	-10.496746	0.18499427	68.273023	0.17889205	67.92895	
	
0.19840400662643	0.18297141	67.276491	0.18842162	67.874519	0.93925831	-10.734762	0.18300655	-112.99385	
	0.18842162	67.874519	0.18121154	67.290545	0.18237653	-112.95343	0.94039492	-10.755284	
	0.93925831	-10.734762	0.18237653	-112.95343	0.18359625	67.446284	0.18858937	67.785227	
	0.18300655	-112.99385	0.94039492	-10.755284	0.18858937	67.785227	0.1827433	67.415194	
	
0.202987262232139	0.18697574	66.741528	0.19192173	67.363344	0.93693899	-10.902131	0.18584775	-113.34024	
	0.19192173	67.363344	0.18519196	66.523327	0.18602852	-113.35431	0.93815818	-10.936492	
	0.93693899	-10.902131	0.18602852	-113.35431	0.18681064	66.969406	0.19193765	67.340812	
	0.18584775	-113.34024	0.93815818	-10.936492	0.19193765	67.340812	0.18627342	67.007161	
	
0.207676393884933	0.18982955	66.285673	0.19569717	66.995346	0.93440298	-11.13277	0.18902759	-113.89365	
	0.19569717	66.995346	0.18916783	65.980291	0.18965968	-113.81515	0.93593733	-11.136086	
	0.93440298	-11.13277	0.18965968	-113.81515	0.19001142	66.65557	0.19561869	66.913306	
	0.18902759	-113.89365	0.93593733	-11.136086	0.19561869	66.913306	0.19019204	66.683556	
	
0.212473847387164	0.19408639	65.535489	0.19935621	66.503437	0.93244271	-11.34573	0.19314572	-114.36959	
	0.19935621	66.503437	0.19181716	65.556096	0.19309231	-114.16669	0.93324426	-11.310662	
	0.93244271	-11.34573	0.19309231	-114.16669	0.1945953	65.844995	0.19949242	66.411472	
	0.19314572	-114.36959	0.93324426	-11.310662	0.19949242	66.411472	0.19290266	65.920594	
	
0.217382125040737	0.19755687	65.36687	0.20308285	65.937111	0.92975653	-11.553468	0.197264	-114.80136	
	0.20308285	65.937111	0.19620664	65.106268	0.19647596	-114.79513	0.93124458	-11.548319	
	0.92975653	-11.553468	0.19647596	-114.79513	0.19715306	65.755558	0.20343553	65.972133	
	0.197264	-114.80136	0.93124458	-11.548319	0.20343553	65.972133	0.19737361	65.586892	
	
0.222403786952283	0.20133667	64.605509	0.20687734	65.532072	0.92756727	-11.781061	0.20071792	-115.28727	
	0.20687734	65.532072	0.20036919	64.700099	0.20075848	-115.36317	0.92841207	-11.739524	
	0.92756727	-11.781061	0.20075848	-115.36317	0.20221431	64.90916	0.20733634	65.383202	
	0.20071792	-115.28727	0.92841207	-11.739524	0.20733634	65.383202	0.20106926	64.905088	
	
0.227541452368483	0.20567966	64.207691	0.21077345	65.091426	0.92547102	-11.986956	0.20421522	-115.74219	
	0.21077345	65.091426	0.20478169	64.123334	0.20471355	-115.69857	0.92624193	-11.99961	
	0.92547102	-11.986956	0.20471355	-115.69857	0.20562689	64.384915	0.21089041	65.042579	
	0.20421522	-115.74219	0.92624193	-11.99961	0.21089041	65.042579	0.20426326	64.725604	
	
0.232797801042241	0.208874	63.718953	0.21492264	64.656427	0.92174656	-12.196532	0.20823898	-116.3354	
	0.21492264	64.656427	0.20732085	63.818683	0.20833758	-116.28084	0.92335326	-12.191431	
	0.92174656	-12.196532	0.20833758	-116.28084	0.20917444	63.974141	0.21489496	64.455334	
	0.20823898	-116.3354	0.92335326	-12.191431	0.21489496	64.455334	0.20924307	63.966451	
	
0.238175574630416	0.21247544	63.185046	0.21902745	64.178665	0.9196758	-12.382214	0.21234466	-116.79526	
	0.21902745	64.178665	0.21157479	63.214318	0.21236476	-116.78819	0.92051826	-12.422374	
	0.9196758	-12.382214	0.21236476	-116.78819	0.21368637	63.361022	0.21906946	63.986729	
	0.21234466	-116.79526	0.92051826	-12.422374	0.21906946	63.986729	0.21283698	63.460862	
	
0.24367757812384	0.21706053	62.630011	0.22278515	63.569837	0.91653147	-12.621343	0.21626616	-117.3555	
	0.22278515	63.569837	0.21460003	62.637454	0.21601381	-117.21271	0.91798117	-12.637195	
	0.91653147	-12.621343	0.21601381	-117.21271	0.21766181	62.847603	0.22309081	63.462244	
	0.21626616	-117.3555	0.91798117	-12.637195	0.22309081	63.462244	0.21567518	63.031654	
	
0.249306681310373	0.22139165	62.052184	0.2270087	63.156837	0.91339865	-12.862171	0.22005559	-117.87467	
	0.2270087	63.156837	0.2189755	61.988915	0.22003996	-117.79263	0.91462458	-12.828895	
	0.91339865	-12.862171	0.22003996	-117.79263	0.22183574	62.537265	0.22676785	62.922456	
	0.22005559	-117.87467	0.91462458	-12.828895	0.22676785	62.922456	0.22056911	62.401016	
	
0.255065820271756	0.22476341	61.81505	0.23133627	62.571083	0.91065413	-13.050806	0.22419708	-118.3596	
	0.23133627	62.571083	0.22373472	61.567078	0.22400649	-118.3032	0.91193246	-13.047028	
	0.91065413	-13.050806	0.22400649	-118.3032	0.2245302	61.864925	0.23150198	62.418409	
	0.22419708	-118.3596	0.91193246	-13.047028	0.23150198	62.418409	0.22445583	61.983259	
	
0.260957998915036	0.22883612	61.077452	0.23500376	62.132013	0.90707483	-13.296794	0.22795071	-118.96239	
	0.23500376	62.132013	0.22782162	60.951896	0.22802419	-118.8636	0.90870792	-13.256414	
	0.90707483	-13.296794	0.22802419	-118.8636	0.22963681	61.300252	0.23527147	62.013051	
	0.22795071	-118.96239	0.90870792	-13.256414	0.23527147	62.013051	0.22810429	61.327916	
	
0.266986290539378	0.23278887	60.558208	0.23973787	61.506396	0.90464188	-13.484289	0.23178075	-119.55295	
	0.23973787	61.506396	0.23134744	60.586376	0.23236665	-119.44659	0.90541398	-13.518173	
	0.90464188	-13.484289	0.23236665	-119.44659	0.23412428	60.732143	0.23947719	61.357634	
	0.23178075	-119.55295	0.90541398	-13.518173	0.23947719	61.357634	0.23225979	60.763105	
	
0.273153839439064	0.23703605	60.050579	0.24357175	60.963053	0.90153036	-13.700544	0.2362268	-120.13965	
	0.24357175	60.963053	0.23538714	59.951363	0.23649142	-119.93241	0.90224604	-13.726607	
	0.90153036	-13.700544	0.23649142	-119.93241	0.23696689	60.24947	0.24370775	60.893254	
	0.2362268	-120.13965	0.90224604	-13.726607	0.24370775	60.893254	0.2369498	60.2215	
	
0.279463862543524	0.24070078	59.249329	0.24771113	60.518993	0.89809457	-13.958131	0.24026625	-120.58325	
	0.24771113	60.518993	0.239905	59.385538	0.24011195	-120.49619	0.89875114	-13.963645	
	0.89809457	-13.958131	0.24011195	-120.49619	0.24188286	59.521927	0.24795041	60.300934	
	0.24026625	-120.58325	0.89875114	-13.963645	0.24795041	60.300934	0.24048832	59.670233	
	
0.285919651095252	0.24591059	58.771241	0.25223487	59.852577	0.89398445	-14.1641	0.24417954	-121.23733	
	0.25223487	59.852577	0.24406108	58.826953	0.24389188	-121.1705	0.89480716	-14.206992	
	0.89398445	-14.1641	0.24389188	-121.1705	0.24596169	58.998336	0.25203768	59.706451	
	0.24417954	-121.23733	0.89480716	-14.206992	0.25203768	59.706451	0.24493355	58.969074	
	
0.292524572366485	0.24999734	58.118006	0.25629663	59.326591	0.89076379	-14.39823	0.24860727	-121.9178	
	0.25629663	59.326591	0.24936122	58.412094	0.24897487	-121.80735	0.89146056	-14.385754	
	0.89076379	-14.39823	0.24897487	-121.80735	0.25094932	58.571643	0.25649112	59.085565	
	0.24860727	-121.9178	0.89146056	-14.385754	0.25649112	59.085565	0.25045507	58.713204	
	
0.299282071415539	0.2539889	57.826587	0.26050676	58.709852	0.88672825	-14.578987	0.25278899	-122.5192	
	0.26050676	58.709852	0.25188923	57.582461	0.25233093	-122.43202	0.88728663	-14.615827	
	0.88672825	-14.578987	0.25233093	-122.43202	0.25496016	57.946728	0.26054716	58.484082	
	0.25278899	-122.5192	0.88728663	-14.615827	0.26054716	58.484082	0.254623	57.893727	
	
0.30619567288371	0.25824246	57.25451	0.26455465	58.193624	0.88252327	-14.821069	0.2563771	-122.9585	
	0.26455465	58.193624	0.25545985	56.992918	0.25666665	-122.99712	0.88447667	-14.806701	
	0.88252327	-14.821069	0.25666665	-122.99712	0.25955949	57.378943	0.26493946	58.002068	
	0.2563771	-122.9585	0.88447667	-14.806701	0.26493946	58.002068	0.25784308	57.317885	
	
0.313268982833699	0.26216379	56.65958	0.26954112	57.65765	0.8795619	-15.06388	0.26113864	-123.58184	
	0.26954112	57.65765	0.26022461	56.509687	0.26170378	-123.51622	0.88061797	-15.028689	
	0.8795619	-15.06388	0.26170378	-123.51622	0.26283578	56.814743	0.26947274	57.469772	
	0.26113864	-123.58184	0.88061797	-15.028689	0.26947274	57.469772	0.26187811	56.896669	
	
0.320505690630487	0.26587139	55.994728	0.27408647	57.120356	0.87599232	-15.238689	0.26604613	-124.05738	
	0.27408647	57.120356	0.26444448	55.873728	0.26529381	-123.93816	0.87730785	-15.252981	
	0.87599232	-15.238689	0.26529381	-123.93816	0.26685285	56.115043	0.27397078	57.061959	
	0.26604613	-124.05738	0.87730785	-15.252981	0.27397078	57.061959	0.26543044	56.308406	
	
0.327909570865677	0.27020629	55.385149	0.27852308	56.599539	0.87205741	-15.4735	0.27056706	-124.76527	
	0.27852308	56.599539	0.26860154	55.364352	0.2700088	-124.54208	0.87264437	-15.501836	
	0.87205741	-15.4735	0.2700088	-124.54208	0.27068947	55.622254	0.27908981	56.37141	
	0.27056706	-124.76527	0.87264437	-15.501836	0.27908981	56.37141	0.26988904	55.729076	
	
0.335484485326279	0.27414577	54.712564	0.2830569	56.055047	0.8673726	-15.704997	0.27432696	-125.2556	
	0.2830569	56.055047	0.27221412	54.754133	0.27430737	-125.18141	0.86883762	-15.684059	
