# MHz S MA R 50

0.1	0.017018717	79.856879	0.017285543	86.901964	0.99294511	-1.1149586	0.015697484	-93.045003	
	0.017285543	86.901964	0.01429787	91.818873	0.016280934	-93.360445	0.99462579	-1.0264641	
	0.99294511	-1.1149586	0.016280934	-93.360445	0.017990299	89.152645	0.01767227	88.032252	
	0.015697484	-93.045003	0.99462579	-1.0264641	0.01767227	88.032252	0.015929952	93.484252	
	
0.102310062021247	0.017711973	82.039108	0.017841747	87.676348	0.99154815	-1.1253229	0.016287559	-93.675519	
	0.017841747	87.676348	0.012917326	90.618686	0.016317688	-92.717194	0.99479264	-1.0139708	
	0.99154815	-1.1253229	0.016317688	-92.717194	0.019857288	83.4036	0.0180143	86.725274	
	0.016287559	-93.675519	0.99479264	-1.0139708	0.0180143	86.725274	0.016884646	98.508829	
	
0.104673487907914	0.018133413	87.617239	0.018320621	86.551786	0.99182335	-1.1418237	0.016637772	-93.087262	
	0.018320621	86.551786	0.01454435	90.019514	0.016558128	-93.257702	0.99471265	-1.0830858	
	0.99182335	-1.1418237	0.016558128	-93.257702	0.019654608	86.799103	0.018270726	86.802099	
	0.016637772	-93.087262	0.99471265	-1.0830858	0.018270726	86.802099	0.017300304	92.368968	
	
0.107091510398389	0.018266611	85.699983	0.018394268	85.461941	0.99170842	-1.1943594	0.016941755	-93.956281	
	0.018394268	85.461941	0.014996009	85.340608	0.017002083	-92.814316	0.99397564	-1.1016873	
	0.99170842	-1.1943594	0.017002083	-92.814316	0.020772233	87.324961	0.018816949	86.812137	
	0.016941755	-93.956281	0.99397564	-1.1016873	0.018816949	86.812137	0.018386371	92.165048	
	
0.109565390708082	0.019471134	80.704992	0.01930552	86.72298	0.99146285	-1.1894205	0.017289139	-93.482943	
	0.01930552	86.72298	0.015439407	89.946972	0.017146849	-93.237376	0.99467344	-1.0846411	
	0.99146285	-1.1894205	0.017146849	-93.237376	0.020406172	87.012431	0.01916251	86.569644	
	0.017289139	-93.482943	0.99467344	-1.0846411	0.01916251	86.569644	0.017589991	90.870615	
	
0.112096419187261	0.019925511	83.4936	0.019275139	87.464985	0.99179104	-1.2177128	0.017575491	-93.213444	
	0.019275139	87.464985	0.01536565	92.038169	0.017721322	-93.301833	0.99472708	-1.0979126	
	0.99179104	-1.2177128	0.017721322	-93.301833	0.020847872	83.46937	0.019376071	87.41055	
	0.017575491	-93.213444	0.99472708	-1.0979126	0.019376071	87.41055	0.018361462	92.188856	
	
0.114685915994083	0.020697175	85.552029	0.019822265	86.771118	0.99144336	-1.2562591	0.018174463	-93.053653	
	0.019822265	86.771118	0.015838439	86.915558	0.018090239	-93.467164	0.99479997	-1.1047587	
	0.99144336	-1.2562591	0.018090239	-93.467164	0.021894641	84.518819	0.020063193	86.621391	
	0.018174463	-93.053653	0.99479997	-1.1047587	0.020063193	86.621391	0.018630489	95.788267	
	
0.117335231783182	0.020497909	82.256876	0.020490604	87.378297	0.99179983	-1.2871614	0.018655643	-93.094038	
	0.020490604	87.378297	0.016785379	88.039746	0.018290768	-93.780005	0.9945672	-1.1873095	
	0.99179983	-1.2871614	0.018290768	-93.780005	0.022261216	84.068257	0.020536841	87.010786	
	0.018655643	-93.094038	0.9945672	-1.1873095	0.020536841	87.010786	0.018913821	92.299768	
	
0.120045748410147	0.020845384	81.912932	0.020995311	86.207345	0.99218984	-1.301622	0.018789029	-93.024999	
	0.020995311	86.207345	0.017981494	87.918386	0.019152546	-93.26433	0.99490384	-1.1649976	
	0.99218984	-1.301622	0.019152546	-93.26433	0.022735955	87.548649	0.020990922	86.206776	
	0.018789029	-93.024999	0.99490384	-1.1649976	0.020990922	86.206776	0.018991066	93.733646	
	
0.122818879652292	0.021725362	79.495453	0.021603817	87.422283	0.99095526	-1.2868292	0.019639473	-93.297953	
	0.021603817	87.422283	0.017196333	89.318454	0.019670703	-93.10398	0.99449615	-1.2599559	
	0.99095526	-1.2868292	0.019670703	-93.10398	0.021615256	84.293877	0.021262252	86.210908	
	0.019639473	-93.297953	0.99449615	-1.2599559	0.021262252	86.210908	0.020078684	91.857706	
	
0.125656071946061	0.022214427	81.970395	0.021785282	86.6402	0.99138912	-1.3575736	0.019854012	-93.491669	
	0.021785282	86.6402	0.017872529	88.293615	0.019958978	-93.359706	0.99433813	-1.2692779	
	0.99138912	-1.3575736	0.019958978	-93.359706	0.021906112	86.65927	0.022060674	86.282026	
	0.019854012	-93.491669	0.99433813	-1.2692779	0.022060674	86.282026	0.020378617	90.89522	
	
0.128558805141477	0.021815726	83.575087	0.022297647	86.764623	0.99149119	-1.3768354	0.02029209	-93.939849	
	0.022297647	86.764623	0.018885146	89.469801	0.020352218	-93.771153	0.99494043	-1.2737352	
	0.99149119	-1.3768354	0.020352218	-93.771153	0.022444836	85.037727	0.02206331	86.402035	
	0.02029209	-93.939849	0.99494043	-1.2737352	0.02206331	86.402035	0.020310498	93.496435	
	
0.131528593274019	0.022851435	80.523656	0.022606048	86.164728	0.99170303	-1.4175756	0.020472253	-94.178491	
	0.022606048	86.164728	0.019242721	91.687874	0.020545084	-94.011943	0.99480148	-1.2914641	
	0.99170303	-1.4175756	0.020545084	-94.011943	0.022638829	83.410821	0.022767363	87.441306	
	0.020472253	-94.178491	0.99480148	-1.2914641	0.022767363	87.441306	0.020870998	91.112856	
	
0.134566985354323	0.022822922	80.998289	0.023264491	86.859502	0.9915198	-1.4231127	0.021104427	-93.701922	
	0.023264491	86.859502	0.02025175	87.363484	0.020999128	-93.553283	0.99459507	-1.3318107	
	0.9915198	-1.4231127	0.020999128	-93.553283	0.023959165	84.401693	0.02332721	86.250746	
	0.021104427	-93.701922	0.99459507	-1.3318107	0.02332721	86.250746	0.021864461	91.601176	
	
0.13767556617613	0.023758452	81.59444	0.023752336	86.399526	0.99097769	-1.4732387	0.021462091	-93.619901	
	0.023752336	86.399526	0.019837244	85.701766	0.021411122	-93.93845	0.99402377	-1.4094181	
	0.99097769	-1.4732387	0.021411122	-93.93845	0.024110897	82.311683	0.023760154	86.570757	
	0.021462091	-93.619901	0.99402377	-1.4094181	0.023760154	86.570757	0.022600233	93.033122	
	
0.140855957142902	0.024843289	80.728156	0.024465354	86.655277	0.99111584	-1.4939883	0.022187063	-94.930298	
	0.024465354	86.655277	0.020221574	90.252138	0.022140587	-93.399181	0.99404261	-1.4256088	
	0.99111584	-1.4939883	0.022140587	-93.399181	0.023432727	80.886512	0.024490365	85.962042	
	0.022187063	-94.930298	0.99404261	-1.4256088	0.024490365	85.962042	0.022997179	93.539149	
	
0.144109817113524	0.024780077	82.55245	0.024776486	86.406144	0.99130459	-1.531161	0.022688239	-94.004966	
	0.024776486	86.406144	0.021059475	87.829794	0.022738797	-93.845462	0.99478323	-1.43819	
	0.99130459	-1.531161	0.022738797	-93.845462	0.026334149	85.461763	0.025279766	85.755764	
	0.022688239	-94.004966	0.99478323	-1.43819	0.025279766	85.755764	0.022078502	91.773229	
	
0.147438843267552	0.024300092	80.974643	0.025027584	85.861352	0.99111162	-1.5603119	0.023321764	-94.008725	
	0.025027584	85.861352	0.021917405	87.695572	0.023083315	-94.063945	0.99492381	-1.5294469	
	0.99111162	-1.5603119	0.023083315	-94.063945	0.025890612	83.803591	0.025422796	85.674829	
	0.023321764	-94.008725	0.99492381	-1.5294469	0.025422796	85.674829	0.023685256	93.515971	
	
0.150844771990442	0.025930677	80.129895	0.02595908	86.676422	0.99056081	-1.5936725	0.023753844	-94.09698	
	0.02595908	86.676422	0.021504972	87.589526	0.023747506	-93.81755	0.99378945	-1.5273857	
	0.99056081	-1.5936725	0.023747506	-93.81755	0.026759185	82.176998	0.026266178	85.721196	
	0.023753844	-94.09698	0.99378945	-1.5273857	0.026266178	85.721196	0.024490871	91.488985	
	
0.154329379779229	0.026549284	82.031576	0.026756926	86.577718	0.99065779	-1.6287776	0.024110851	-94.709523	
	0.026756926	86.577718	0.021351598	89.842636	0.024418331	-94.421384	0.99414342	-1.511663	
	0.99065779	-1.6287776	0.024418331	-94.421384	0.027514806	83.030453	0.026568374	85.575752	
	0.024110851	-94.709523	0.99414342	-1.511663	0.026568374	85.575752	0.025166237	91.726086	
	
0.157894484169135	0.026919863	81.042884	0.027187152	85.931331	0.99096895	-1.6703084	0.025070672	-94.29969	
	0.027187152	85.931331	0.023537334	87.28319	0.024548971	-94.307902	0.99384715	-1.5877827	
	0.99096895	-1.6703084	0.024548971	-94.307902	0.028805749	83.151419	0.0274336	85.50102	
	0.025070672	-94.29969	0.99384715	-1.5877827	0.0274336	85.50102	0.025714789	90.409711	
	
0.16154194468157	0.027586837	80.473448	0.027989572	86.238465	0.99052093	-1.7104146	0.02512166	-94.465437	
	0.027989572	86.238465	0.024062354	87.394472	0.025319854	-94.56322	0.99457331	-1.6466906	
	0.99052093	-1.7104146	0.025319854	-94.56322	0.028225823	83.342917	0.027896939	86.53949	
	0.02512166	-94.465437	0.99457331	-1.6466906	0.027896939	86.53949	0.025164789	91.001648	
	
0.165273663794043	0.027934374	79.668292	0.028670845	86.066992	0.98935362	-1.7412167	0.02579081	-93.803216	
	0.028670845	86.066992	0.024029996	87.973552	0.025907612	-94.836493	0.99432486	-1.6301358	
	0.98935362	-1.7412167	0.025907612	-94.836493	0.028715568	82.668987	0.028594002	85.854753	
	0.02579081	-93.803216	0.99432486	-1.6301358	0.028594002	85.854753	0.026056073	90.180556	
	
0.169091587932473	0.028098578	79.898181	0.029430471	86.119577	0.99037142	-1.7574923	0.026183347	-94.64376	
	0.029430471	86.119577	0.025137283	85.941972	0.026488626	-94.417509	0.99424697	-1.6976379	
	0.99037142	-1.7574923	0.026488626	-94.417509	0.028481592	83.705232	0.029609867	86.021227	
	0.026183347	-94.64376	0.99424697	-1.6976379	0.029609867	86.021227	0.027013865	91.225744	
	
0.172997708486424	0.028962667	79.825552	0.029893982	85.472803	0.98999515	-1.77921	0.02701006	-95.044363	
	0.029893982	85.472803	0.024718531	87.845942	0.027201745	-94.786774	0.99394381	-1.7393989	
	0.98999515	-1.77921	0.027201745	-94.786774	0.030788847	82.493716	0.030059939	86.031989	
	0.02701006	-95.044363	0.99394381	-1.7393989	0.030059939	86.031989	0.028002832	90.165704	
	
0.176994062847797	0.029937467	81.971003	0.030696405	85.476558	0.9899288	-1.8457555	0.027827568	-94.68977	
	0.030696405	85.476558	0.026320043	85.941706	0.027754978	-94.631943	0.99359252	-1.7886452	
	0.9899288	-1.8457555	0.027754978	-94.631943	0.030189598	82.170008	0.030714764	85.596669	
	0.027827568	-94.68977	0.99359252	-1.7886452	0.030714764	85.596669	0.027466313	87.805945	
	
0.181082735473506	0.030714902	80.470371	0.031119396	85.858802	0.9900012	-1.8855895	0.028414377	-94.628038	
	0.031119396	85.858802	0.027026937	84.972444	0.0284528	-94.991381	0.994075	-1.806998	
	0.9900012	-1.8855895	0.0284528	-94.991381	0.030407062	84.846612	0.031529564	85.515979	
	0.028414377	-94.628038	0.994075	-1.806998	0.031529564	85.515979	0.028214701	90.85486	
	
0.185265858972714	0.030600442	79.884166	0.031958819	85.957139	0.99014665	-1.9277477	0.028872448	-94.973901	
	0.031958819	85.957139	0.027223319	88.280643	0.028718625	-94.990921	0.99382232	-1.8785217	
	0.99014665	-1.9277477	0.028718625	-94.990921	0.030840147	82.870636	0.03201175	85.520125	
	0.028872448	-94.973901	0.99382232	-1.8785217	0.03201175	85.520125	0.030245677	89.188088	
	
0.18954561521918	0.031789053	78.39074	0.032696889	85.626548	0.99017225	-1.9694903	0.029558379	-95.055641	
	0.032696889	85.626548	0.027608495	87.27527	0.029514686	-95.026841	0.99396186	-1.8631369	
	0.99017225	-1.9694903	0.029514686	-95.026841	0.031106468	83.925872	0.032984131	85.417059	
	0.029558379	-95.055641	0.99396186	-1.8631369	0.032984131	85.417059	0.029713507	89.117764	
	
0.193924236489297	0.032644534	80.301246	0.033636399	85.736157	0.99025514	-2.0057957	0.030315035	-94.780737	
	0.033636399	85.736157	0.028466397	87.154568	0.030299554	-95.146104	0.99346752	-1.9325344	
	0.99025514	-2.0057957	0.030299554	-95.146104	0.032772777	83.268406	0.033612247	85.329833	
	0.030315035	-94.780737	0.99346752	-1.9325344	0.033612247	85.329833	0.030671749	89.549402	
	
0.19840400662643	0.031800077	80.486159	0.034115597	85.54155	0.98920101	-2.0349942	0.031090604	-95.251491	
	0.034115597	85.54155	0.029712207	85.336049	0.030995588	-94.465025	0.99384418	-2.0260862	
	0.98920101	-2.0349942	0.030995588	-94.465025	0.032712345	82.412887	0.034444622	84.917057	
	0.031090604	-95.251491	0.99384418	-2.0260862	0.034444622	84.917057	0.032331481	91.224637	
	
0.202987262232139	0.032616678	80.192024	0.035170862	85.059834	0.98973771	-2.0823246	0.031792738	-95.241242	
	0.035170862	85.059834	0.03060008	85.209674	0.031646161	-95.367418	0.99327272	-2.0286744	
	0.98973771	-2.0823246	0.031646161	-95.367418	0.033961143	81.315031	0.035192385	84.914503	
	0.031792738	-95.241242	0.99327272	-2.0286744	0.035192385	84.914503	0.031676116	89.939203	
	
0.207676393884933	0.034673029	79.435843	0.035659295	84.854446	0.98997524	-2.1452761	0.032467288	-95.839499	
	0.035659295	84.854446	0.031707112	85.815714	0.032422211	-95.220115	0.99431017	-2.1089039	
	0.98997524	-2.1452761	0.032422211	-95.220115	0.035673721	83.70069	0.035804527	85.199555	
	0.032467288	-95.839499	0.99431017	-2.1089039	0.035804527	85.199555	0.031991114	90.660166	
	
0.212473847387164	0.034969721	79.904877	0.036365195	85.064207	0.98830294	-2.198614	0.033175077	-95.764955	
	0.036365195	85.064207	0.031279632	84.729347	0.033187133	-95.362192	0.99289083	-2.1275847	
	0.98830294	-2.198614	0.033187133	-95.362192	0.036041234	81.002015	0.03682566	84.544019	
	0.033175077	-95.764955	0.99289083	-2.1275847	0.03682566	84.544019	0.034065256	88.439034	
	
0.217382125040737	0.035486656	80.228517	0.037495572	84.749855	0.98821877	-2.2296373	0.034266005	-95.502371	
	0.037495572	84.749855	0.03287889	85.837547	0.033927145	-95.164035	0.99323669	-2.202251	
	0.98821877	-2.2296373	0.033927145	-95.164035	0.036312945	82.70977	0.037363069	85.301219	
	0.034266005	-95.502371	0.99323669	-2.202251	0.037363069	85.301219	0.035045219	87.822588	
	
0.222403786952283	0.036255353	79.609263	0.038009219	84.644293	0.98821143	-2.292307	0.034526229	-95.710693	
	0.038009219	84.644293	0.033907071	84.717914	0.034805119	-95.510261	0.99276315	-2.2298481	
	0.98821143	-2.292307	0.034805119	-95.510261	0.036251165	82.194556	0.038391463	85.011166	
	0.034526229	-95.710693	0.99276315	-2.2298481	0.038391463	85.011166	0.035547785	87.016067	
	
0.227541452368483	0.037511066	79.134364	0.039263235	84.630034	0.98844396	-2.3176076	0.035525708	-96.01418	
	0.039263235	84.630034	0.033480162	84.039251	0.035319347	-95.803652	0.99245901	-2.2685255	
	0.98844396	-2.3176076	0.035319347	-95.803652	0.037838397	81.741934	0.039172879	84.506497	
	0.035525708	-96.01418	0.99245901	-2.2685255	0.039172879	84.506497	0.036306529	87.510639	
	
0.232797801042241	0.038318661	80.012726	0.040214462	84.805452	0.98851759	-2.361336	0.036148125	-95.694435	
	0.040214462	84.805452	0.035622274	85.234209	0.036103969	-96.250887	0.99282769	-2.3654538	
	0.98851759	-2.361336	0.036103969	-96.250887	0.038290821	82.583175	0.040151739	84.696386	
	0.036148125	-95.694435	0.99282769	-2.3654538	0.040151739	84.696386	0.037273157	87.214295	
	
0.238175574630416	0.038017418	79.823661	0.040786698	84.479903	0.98828763	-2.4395775	0.037225102	-96.329085	
	0.040786698	84.479903	0.036242189	85.022633	0.037110187	-95.691065	0.99283855	-2.399361	
	0.98828763	-2.4395775	0.037110187	-95.691065	0.040043385	80.839057	0.041053329	84.341664	
	0.037225102	-96.329085	0.99283855	-2.399361	0.041053329	84.341664	0.038438347	87.719669	
	
0.24367757812384	0.040005884	81.183104	0.041840344	84.89098	0.98733405	-2.5013062	0.037734511	-96.195261	
	0.041840344	84.89098	0.03661922	82.929295	0.038117362	-95.824714	0.99227664	-2.4250836	
	0.98733405	-2.5013062	0.038117362	-95.824714	0.040012863	82.409026	0.042272171	84.26804	
	0.037734511	-96.195261	0.99227664	-2.4250836	0.042272171	84.26804	0.038887068	87.853069	
	
0.249306681310373	0.040952861	78.934919	0.042948527	84.319132	0.98835827	-2.5327311	0.038641961	-96.284233	
	0.042948527	84.319132	0.037322238	85.458261	0.038665074	-96.232608	0.99288582	-2.4978417	
	0.98835827	-2.5327311	0.038665074	-96.232608	0.041351642	81.597487	0.042945543	83.988078	
	0.038641961	-96.284233	0.99288582	-2.4978417	0.042945543	83.988078	0.038818216	87.179545	
	
0.255065820271756	0.040229812	80.784561	0.043958649	84.153501	0.98827281	-2.5968514	0.039621572	-96.070461	
	0.043958649	84.153501	0.03825722	85.495613	0.039677429	-96.171691	0.99261682	-2.5366836	
	0.98827281	-2.5968514	0.039677429	-96.171691	0.041623551	81.348556	0.043750857	84.162183	
	0.039621572	-96.070461	0.99261682	-2.5366836	0.043750857	84.162183	0.040460458	87.38113	
	
0.260957998915036	0.041390664	79.881484	0.044810975	83.812485	0.98795863	-2.6921042	0.040469527	-96.450448	
	0.044810975	83.812485	0.040023124	83.596841	0.040374627	-96.604055	0.99198423	-2.6150758	
	0.98795863	-2.6921042	0.040374627	-96.604055	0.043665704	83.008068	0.044957074	83.996809	
	0.040469527	-96.450448	0.99198423	-2.6150758	0.044957074	83.996809	0.040819642	86.398001	
	
0.266986290539378	0.04267266	79.752248	0.045977887	84.395681	0.98834685	-2.7010083	0.041473854	-96.114522	
	0.045977887	84.395681	0.04074879	84.251107	0.041284258	-96.920283	0.99226307	-2.7186263	
	0.98834685	-2.7010083	0.041284258	-96.920283	0.043801567	81.228606	0.045948373	83.899273	
	0.041473854	-96.114522	0.99226307	-2.7186263	0.045948373	83.899273	0.041854912	87.162218	
	
0.273153839439064	0.043309337	79.452211	0.046586114	84.127849	0.98758893	-2.7550523	0.042360057	-96.862277	
	0.046586114	84.127849	0.041663383	84.563611	0.042205274	-96.900351	0.99186357	-2.743904	
	0.98758893	-2.7550523	0.042205274	-96.900351	0.044263647	79.850481	0.047128647	84.009404	
	0.042360057	-96.862277	0.99186357	-2.743904	0.047128647	84.009404	0.042682478	86.576992	
	
0.279463862543524	0.044487713	79.391222	0.047571056	83.731588	0.98583443	-2.8209162	0.043218836	-96.868338	
	0.047571056	83.731588	0.041655664	81.935591	0.043045097	-96.891878	0.9908258	-2.8535138	
	0.98583443	-2.8209162	0.043045097	-96.891878	0.044811918	81.395667	0.048049155	83.978679	
	0.043218836	-96.868338	0.9908258	-2.8535138	0.048049155	83.978679	0.045206853	85.951152	
	
0.285919651095252	0.045954322	79.882498	0.048909933	83.813225	0.98666278	-2.8887192	0.044169679	-96.753543	
	0.048909933	83.813225	0.043793792	82.744464	0.044188482	-97.330076	0.99117426	-2.8883197	
	0.98666278	-2.8887192	0.044188482	-97.330076	0.046990376	80.339131	0.048837851	83.892818	
	0.044169679	-96.753543	0.99117426	-2.8883197	0.048837851	83.892818	0.045816019	85.661398	
	
0.292524572366485	0.047302982	80.040039	0.050085668	83.790875	0.98646765	-2.9440358	0.045479524	-97.401759	
	0.050085668	83.790875	0.044678594	83.341442	0.04543391	-97.232112	0.99092113	-2.9327014	
	0.98646765	-2.9440358	0.04543391	-97.232112	0.047989948	80.794151	0.050358305	83.437845	
	0.045479524	-97.401759	0.99092113	-2.9327014	0.050358305	83.437845	0.047038521	84.736724	
	
0.299282071415539	0.048392728	79.069787	0.051217079	83.340186	0.98569261	-3.0437949	0.046228727	-97.485233	
	0.051217079	83.340186	0.045728641	82.920425	0.046236946	-97.561989	0.99051565	-2.9979253	
	0.98569261	-3.0437949	0.046236946	-97.561989	0.050378571	81.590534	0.051148238	83.341029	
	0.046228727	-97.485233	0.99051565	-2.9979253	0.051148238	83.341029	0.049147296	85.082855	
	
0.30619567288371	0.048676765	80.062643	0.052228127	83.567402	0.98616575	-3.0925756	0.047265496	-97.257726	
	0.052228127	83.567402	0.046456259	82.463903	0.047348841	-97.694638	0.99037309	-3.0640696	
	0.98616575	-3.0925756	0.047348841	-97.694638	0.051525197	80.238561	0.052021452	82.80469	
	0.047265496	-97.257726	0.99037309	-3.0640696	0.052021452	82.80469	0.049591168	85.012258	
	
0.313268982833699	0.049885842	78.890067	0.053514906	83.342227	0.98630239	-3.1602716	0.048262271	-97.768267	
	0.053514906	83.342227	0.047055051	84.008808	0.048591851	-97.553439	0.99093486	-3.1223242	
	0.98630239	-3.1602716	0.048591851	-97.553439	0.051814837	82.115572	0.053758541	83.170348	
	0.048262271	-97.768267	0.99093486	-3.1223242	0.053758541	83.170348	0.049113059	84.903507	
	
0.320505690630487	0.050276366	80.00643	0.054275853	83.12095	0.98670651	-3.2128523	0.049640562	-97.697131	
	0.054275853	83.12095	0.046977063	82.747197	0.049477771	-97.647214	0.99047129	-3.1639543	
	0.98670651	-3.2128523	0.049477771	-97.647214	0.051168317	81.363504	0.054891658	82.903839	
