# MHz S MA R 50

0.1	0.51703556	8.1335051	0.4698567	5.2470688	0.4892426	-9.5969107	0.46834617	-175.89858	
	0.4698567	5.2470688	0.51551347	8.1388385	0.46943939	-175.91522	0.49099452	-9.6889042	
	0.4892426	-9.5969107	0.46943939	-175.91522	0.51631252	8.0982886	0.46944978	5.0815245	
	0.46834617	-175.89858	0.49099452	-9.6889042	0.46944978	5.0815245	0.51514943	8.1245928	
	
0.102310062021247	0.51776528	8.0217746	0.46997613	4.9585431	0.48827608	-9.4811553	0.46986552	-176.17524	
	0.46997613	4.9585431	0.51547476	8.0383359	0.46902693	-176.13266	0.49021738	-9.5784123	
	0.48827608	-9.4811553	0.46902693	-176.13266	0.51711453	8.0840375	0.46965936	4.9486198	
	0.46986552	-176.17524	0.49021738	-9.5784123	0.46965936	4.9486198	0.51612286	8.0815661	
	
0.104673487907914	0.51777353	7.8890496	0.46985657	4.7429307	0.48806164	-9.4429387	0.46948709	-176.40662	
	0.46985657	4.7429307	0.51541827	7.9761832	0.46876939	-176.34893	0.49017053	-9.5148829	
	0.48806164	-9.4429387	0.46876939	-176.34893	0.51722929	8.0543824	0.46974525	4.6823225	
	0.46948709	-176.40662	0.49017053	-9.5148829	0.46974525	4.6823225	0.51600012	7.972471	
	
0.107091510398389	0.51806384	7.8054329	0.47035008	4.5663908	0.48740881	-9.3531574	0.46948129	-176.56489	
	0.47035008	4.5663908	0.5158914	7.7433441	0.46978921	-176.60067	0.48927036	-9.4764859	
	0.48740881	-9.3531574	0.46978921	-176.60067	0.51777475	7.8281952	0.46967325	4.4781718	
	0.46948129	-176.56489	0.48927036	-9.4764859	0.46967325	4.4781718	0.51684071	7.9149094	
	
0.109565390708082	0.51740643	7.7412438	0.47065033	4.3909839	0.4867372	-9.3183311	0.46971704	-176.843	
	0.47065033	4.3909839	0.5164897	7.6595821	0.46946825	-176.82079	0.48910148	-9.3645168	
	0.4867372	-9.3183311	0.46946825	-176.82079	0.51802805	7.7531712	0.46975766	4.3180698	
	0.46971704	-176.843	0.48910148	-9.3645168	0.46975766	4.3180698	0.51692197	7.8430936	
	
0.112096419187261	0.51856956	7.7013855	0.47092915	4.1391162	0.48588434	-9.3240465	0.47015009	-177.04419	
	0.47092915	4.1391162	0.51690945	7.6208328	0.46983436	-176.99284	0.48834748	-9.3199784	
	0.48588434	-9.3240465	0.46983436	-176.99284	0.51739161	7.6374958	0.47021995	4.1518241	
	0.47015009	-177.04419	0.48834748	-9.3199784	0.47021995	4.1518241	0.51649183	7.7565922	
	
0.114685915994083	0.51835237	7.547251	0.47087195	3.9671969	0.48604057	-9.1815447	0.47007151	-177.2456	
	0.47087195	3.9671969	0.51676868	7.4765818	0.47003877	-177.20625	0.48844586	-9.3187514	
	0.48604057	-9.1815447	0.47003877	-177.20625	0.51811361	7.6224496	0.47080336	3.9618846	
	0.47007151	-177.2456	0.48844586	-9.3187514	0.47080336	3.9618846	0.51703343	7.6657715	
	
0.117335231783182	0.51861978	7.4977204	0.47105415	3.8508251	0.4856931	-9.1977638	0.46993482	-177.40917	
	0.47105415	3.8508251	0.51719161	7.4764423	0.4702074	-177.48501	0.48754968	-9.2733188	
	0.4856931	-9.1977638	0.4702074	-177.48501	0.51821356	7.4806552	0.47046727	3.7719745	
	0.46993482	-177.40917	0.48754968	-9.2733188	0.47046727	3.7719745	0.51751781	7.5690817	
	
0.120045748410147	0.51891513	7.3779489	0.47117248	3.6273671	0.48558283	-9.1290591	0.47032833	-177.67635	
	0.47117248	3.6273671	0.5164834	7.4034259	0.46987189	-177.73247	0.48738518	-9.17383	
	0.48558283	-9.1290591	0.46987189	-177.73247	0.51897282	7.4821486	0.47029021	3.6427194	
	0.47032833	-177.67635	0.48738518	-9.17383	0.47029021	3.6427194	0.51735027	7.3957697	
	
0.122818879652292	0.5188577	7.3248259	0.47099426	3.4232487	0.48476115	-9.0533023	0.47013404	-177.87772	
	0.47099426	3.4232487	0.51736421	7.2964888	0.47018134	-177.85906	0.48685808	-9.1562361	
	0.48476115	-9.0533023	0.47018134	-177.85906	0.51873677	7.3516923	0.47106126	3.405217	
	0.47013404	-177.87772	0.48685808	-9.1562361	0.47106126	3.405217	0.51807948	7.3902816	
	
0.125656071946061	0.51916363	7.2519688	0.47177751	3.2636251	0.48497134	-9.0363355	0.47052995	-178.14122	
	0.47177751	3.2636251	0.51712081	7.2598257	0.47005168	-178.12195	0.48630247	-9.1653055	
	0.48497134	-9.0363355	0.47005168	-178.12195	0.51964551	7.2419943	0.47087063	3.2298937	
	0.47052995	-178.14122	0.48630247	-9.1653055	0.47087063	3.2298937	0.51822337	7.262728	
	
0.128558805141477	0.51915598	7.2616617	0.47107019	3.0806154	0.48379836	-9.0146667	0.4704641	-178.27917	
	0.47107019	3.0806154	0.51796409	7.1896031	0.47009947	-178.31401	0.48587223	-9.1324707	
	0.48379836	-9.0146667	0.47009947	-178.31401	0.51987738	7.0717324	0.47098861	3.0648373	
	0.4704641	-178.27917	0.48587223	-9.1324707	0.47098861	3.0648373	0.51825188	7.312306	
	
0.131528593274019	0.51949007	7.1332429	0.47156556	2.9475841	0.48407523	-9.0218312	0.47115277	-178.46744	
	0.47156556	2.9475841	0.51801076	7.1912372	0.47044726	-178.55072	0.48610923	-9.0879378	
	0.48407523	-9.0218312	0.47044726	-178.55072	0.51975129	7.1062785	0.47081802	2.7889908	
	0.47115277	-178.46744	0.48610923	-9.0879378	0.47081802	2.7889908	0.51821012	7.179427	
	
0.134566985354323	0.51945821	7.0694402	0.47117384	2.7140026	0.48384109	-8.996317	0.47051496	-178.69898	
	0.47117384	2.7140026	0.51835059	7.0537782	0.4703357	-178.72487	0.48546676	-9.0262606	
	0.48384109	-8.996317	0.4703357	-178.72487	0.52051678	7.0470252	0.47103709	2.6563735	
	0.47051496	-178.69898	0.48546676	-9.0262606	0.47103709	2.6563735	0.51817699	7.1758073	
	
0.13767556617613	0.52052864	7.0187893	0.47150317	2.5910517	0.48332784	-9.0008375	0.47000332	-178.95135	
	0.47150317	2.5910517	0.51866532	7.0056049	0.47048977	-178.90579	0.48523474	-9.0020457	
	0.48332784	-9.0008375	0.47048977	-178.90579	0.52005541	7.0238309	0.47096707	2.4823887	
	0.47000332	-178.95135	0.48523474	-9.0020457	0.47096707	2.4823887	0.51859768	7.1373471	
	
0.140855957142902	0.51995227	6.9995098	0.47163067	2.4153236	0.48358064	-8.9584781	0.4708066	-179.21919	
	0.47163067	2.4153236	0.51863872	6.8159051	0.47004058	-179.16968	0.4850809	-9.036037	
	0.48358064	-8.9584781	0.47004058	-179.16968	0.52026331	6.9533955	0.47025625	2.2460504	
	0.4708066	-179.21919	0.4850809	-9.036037	0.47025625	2.2460504	0.51910287	7.0269602	
	
0.144109817113524	0.52068404	6.9371411	0.47167165	2.240742	0.48273397	-8.9517006	0.47061567	-179.30909	
	0.47167165	2.240742	0.51922125	6.9393065	0.47015156	-179.37439	0.48429998	-8.9924306	
	0.48273397	-8.9517006	0.47015156	-179.37439	0.52064135	6.9441687	0.47057245	2.1537539	
	0.47061567	-179.30909	0.48429998	-8.9924306	0.47057245	2.1537539	0.51991486	7.012405	
	
0.147438843267552	0.5208483	6.8766977	0.47180739	2.0396459	0.48218892	-8.9428629	0.47068795	-179.51154	
	0.47180739	2.0396459	0.51922225	6.8471521	0.47083452	-179.59393	0.48432435	-9.0036478	
	0.48218892	-8.9428629	0.47083452	-179.59393	0.52085364	6.9041702	0.47079219	1.9542306	
	0.47068795	-179.51154	0.48432435	-9.0036478	0.47079219	1.9542306	0.5202275	6.9489677	
	
0.150844771990442	0.52133745	6.8184001	0.47146748	1.8478343	0.48245181	-8.9522181	0.4708495	-179.76132	
	0.47146748	1.8478343	0.51958375	6.8430272	0.47040139	-179.79935	0.48385013	-8.9676685	
	0.48245181	-8.9522181	0.47040139	-179.79935	0.5214692	6.7636134	0.47065055	1.8054467	
	0.4708495	-179.76132	0.48385013	-8.9676685	0.47065055	1.8054467	0.51934462	6.9183257	
	
0.154329379779229	0.52145569	6.788777	0.47148216	1.696121	0.48199629	-8.9373425	0.47043629	-179.95616	
	0.47148216	1.696121	0.51959619	6.7467573	0.47091243	179.90889	0.48389619	-8.9822267	
	0.48199629	-8.9373425	0.47091243	179.90889	0.52133158	6.7794252	0.47093381	1.5907112	
	0.47043629	-179.95616	0.48389619	-8.9822267	0.47093381	1.5907112	0.51980222	6.9728228	
	
0.157894484169135	0.52149605	6.7733969	0.47201552	1.5007428	0.48202151	-8.9568664	0.47095363	179.82203	
	0.47201552	1.5007428	0.51969402	6.7399712	0.47092745	179.81862	0.48367253	-9.0404429	
	0.48202151	-8.9568664	0.47092745	179.81862	0.5213365	6.7759234	0.47049052	1.427543	
	0.47095363	179.82203	0.48367253	-9.0404429	0.47049052	1.427543	0.52093176	6.8416951	
	
0.16154194468157	0.52066393	6.7423496	0.47242999	1.3549584	0.48088251	-8.9145309	0.47018456	179.58086	
	0.47242999	1.3549584	0.52026547	6.6779691	0.47067782	179.62855	0.48280182	-9.1394139	
	0.48088251	-8.9145309	0.47067782	179.62855	0.52138988	6.6667096	0.47077824	1.3692401	
	0.47018456	179.58086	0.48280182	-9.1394139	0.47077824	1.3692401	0.52079239	6.7780997	
	
0.165273663794043	0.52122464	6.7421529	0.47213069	1.1905787	0.48074291	-9.0176208	0.47034136	179.39082	
	0.47213069	1.1905787	0.5200699	6.6498904	0.47034392	179.36786	0.48320753	-9.0407835	
	0.48074291	-9.0176208	0.47034392	179.36786	0.52190939	6.6044018	0.47016722	1.1118766	
	0.47034136	179.39082	0.48320753	-9.0407835	0.47016722	1.1118766	0.52077086	6.7680755	
	
0.169091587932473	0.52218946	6.6754538	0.47220165	0.99117265	0.48076684	-9.0061852	0.47093993	179.21857	
	0.47220165	0.99117265	0.52008507	6.6560719	0.47100604	179.16673	0.48258582	-9.0960675	
	0.48076684	-9.0061852	0.47100604	179.16673	0.52268063	6.7469964	0.47030961	0.94696868	
	0.47093993	179.21857	0.48258582	-9.0960675	0.47030961	0.94696868	0.52170156	6.7075865	
	
0.172997708486424	0.52190025	6.6709166	0.47175544	0.80492608	0.4809548	-8.9773916	0.47102108	178.99978	
	0.47175544	0.80492608	0.52018137	6.6140294	0.47046107	179.02307	0.4820974	-9.1553864	
	0.4809548	-8.9773916	0.47046107	179.02307	0.52372202	6.6223087	0.47058402	0.80343553	
	0.47102108	178.99978	0.4820974	-9.1553864	0.47058402	0.80343553	0.52166278	6.7013342	
	
0.176994062847797	0.52202655	6.6353863	0.47193678	0.64676918	0.48061804	-9.0173608	0.47125576	178.73983	
	0.47193678	0.64676918	0.52072216	6.6560147	0.47070952	178.8166	0.48216964	-9.1487545	
	0.48061804	-9.0173608	0.47070952	178.8166	0.52322872	6.5925104	0.47030964	0.6360699	
	0.47125576	178.73983	0.48216964	-9.1487545	0.47030964	0.6360699	0.52161323	6.7366239	
	
0.181082735473506	0.52287647	6.652565	0.47155749	0.5463457	0.48033319	-9.0650156	0.4707462	178.53355	
	0.47155749	0.5463457	0.52120648	6.6503465	0.47039829	178.55858	0.48194932	-9.2015956	
	0.48033319	-9.0650156	0.47039829	178.55858	0.52303399	6.5616136	0.47017014	0.44665446	
	0.4707462	178.53355	0.48194932	-9.2015956	0.47017014	0.44665446	0.52193527	6.7257161	
	
0.185265858972714	0.52265588	6.6211125	0.47189555	0.30403025	0.47969444	-9.1183526	0.4711339	178.37765	
	0.47189555	0.30403025	0.52100423	6.6264034	0.47098497	178.3629	0.48144702	-9.2141313	
	0.47969444	-9.1183526	0.47098497	178.3629	0.52317286	6.5259306	0.47001291	0.30416541	
	0.4711339	178.37765	0.48144702	-9.2141313	0.47001291	0.30416541	0.52295814	6.6982468	
	
0.18954561521918	0.52252978	6.6381502	0.47173022	0.22419056	0.47927027	-9.1618846	0.47108432	178.15947	
	0.47173022	0.22419056	0.5216232	6.5491611	0.4704367	178.13408	0.48073458	-9.2763798	
	0.47927027	-9.1618846	0.4704367	178.13408	0.52364923	6.5702738	0.47059012	0.17481249	
	0.47108432	178.15947	0.48073458	-9.2763798	0.47059012	0.17481249	0.52247028	6.629653	
	
0.193924236489297	0.52320461	6.5929872	0.47142556	-0.027134443	0.4793303	-9.2359764	0.47056067	177.94235	
	0.47142556	-0.027134443	0.5216246	6.5461422	0.4710182	177.9156	0.48133371	-9.2622352	
	0.4793303	-9.2359764	0.4710182	177.9156	0.52435907	6.5398709	0.46989105	-0.046007595	
	0.47056067	177.94235	0.48133371	-9.2622352	0.46989105	-0.046007595	0.5230588	6.6993208	
	
0.19840400662643	0.52353167	6.6098923	0.47181299	-0.15049055	0.4789738	-9.2686483	0.47115046	177.69611	
	0.47181299	-0.15049055	0.52160402	6.5796917	0.47062304	177.72058	0.48088685	-9.3956923	
	0.4789738	-9.2686483	0.47062304	177.72058	0.52389546	6.4879572	0.46986052	-0.20256214	
	0.47115046	177.69611	0.48088685	-9.3956923	0.46986052	-0.20256214	0.52300498	6.549852	
	
0.202987262232139	0.523735	6.66025	0.47144421	-0.32377235	0.47871654	-9.3370176	0.47062606	177.5454	
	0.47144421	-0.32377235	0.52246492	6.6297673	0.47044886	177.46484	0.47984549	-9.3650771	
	0.47871654	-9.3370176	0.47044886	177.46484	0.52441098	6.5040429	0.46971023	-0.3635609	
	0.47062606	177.5454	0.47984549	-9.3650771	0.46971023	-0.3635609	0.52385866	6.696149	
	
0.207676393884933	0.52324871	6.6297305	0.47190075	-0.50484635	0.47881257	-9.4178715	0.47061178	177.29179	
	0.47190075	-0.50484635	0.52250826	6.5642801	0.47064069	177.28098	0.48024907	-9.4487421	
	0.47881257	-9.4178715	0.47064069	177.28098	0.52505871	6.5535211	0.46952025	-0.53303944	
	0.47061178	177.29179	0.48024907	-9.4487421	0.46952025	-0.53303944	0.5240868	6.7166027	
	
0.212473847387164	0.52432755	6.6156517	0.47154187	-0.67977808	0.47866883	-9.4639642	0.47038325	177.04186	
	0.47154187	-0.67977808	0.52218879	6.5854985	0.47009325	177.04735	0.4801722	-9.553445	
	0.47866883	-9.4639642	0.47009325	177.04735	0.52603269	6.5602767	0.46959136	-0.70423686	
	0.47038325	177.04186	0.4801722	-9.553445	0.46959136	-0.70423686	0.52420908	6.6995492	
	
0.217382125040737	0.52415051	6.7198611	0.47130848	-0.8540381	0.47843958	-9.5073371	0.47020443	176.80776	
	0.47130848	-0.8540381	0.52306093	6.6261709	0.47021134	176.80416	0.47989664	-9.5807192	
	0.47843958	-9.5073371	0.47021134	176.80416	0.5258806	6.5488581	0.46933659	-0.90079651	
	0.47020443	176.80776	0.47989664	-9.5807192	0.46933659	-0.90079651	0.52437682	6.6710348	
	
0.222403786952283	0.52481987	6.6417937	0.47123123	-1.0394452	0.47810889	-9.6100704	0.47030235	176.65361	
	0.47123123	-1.0394452	0.52340485	6.6106564	0.47023698	176.61225	0.48024105	-9.6458081	
	0.47810889	-9.6100704	0.47023698	176.61225	0.52600545	6.5609804	0.46882067	-1.10467	
	0.47030235	176.65361	0.48024105	-9.6458081	0.46882067	-1.10467	0.52487712	6.7429129	
	
0.227541452368483	0.52491429	6.6755893	0.47131483	-1.1686484	0.47785583	-9.6377277	0.47024858	176.41789	
	0.47131483	-1.1686484	0.52333209	6.675512	0.46941846	176.39726	0.4789381	-9.8030278	
	0.47785583	-9.6377277	0.46941846	176.39726	0.52636493	6.5144743	0.46847665	-1.1679288	
	0.47024858	176.41789	0.4789381	-9.8030278	0.46847665	-1.1679288	0.5257588	6.6680515	
	
0.232797801042241	0.52472214	6.7465645	0.4718108	-1.3660348	0.47794077	-9.7122124	0.47020776	176.20787	
	0.4718108	-1.3660348	0.52335578	6.7021893	0.47032863	176.14239	0.47932534	-9.8553021	
	0.47794077	-9.7122124	0.47032863	176.14239	0.52708261	6.5863155	0.4685555	-1.3854465	
	0.47020776	176.20787	0.47932534	-9.8553021	0.4685555	-1.3854465	0.52612291	6.7292758	
	
0.238175574630416	0.52544685	6.705119	0.47114363	-1.5061058	0.47728336	-9.8351566	0.47039972	175.97563	
	0.47114363	-1.5061058	0.52355299	6.7560456	0.46965787	175.91289	0.4793292	-9.9452057	
	0.47728336	-9.8351566	0.46965787	175.91289	0.52770697	6.5992791	0.46835082	-1.5113249	
	0.47039972	175.97563	0.4793292	-9.9452057	0.46835082	-1.5113249	0.52656979	6.7005185	
	
0.24367757812384	0.52581497	6.8118021	0.47124127	-1.7335624	0.47706646	-9.9448024	0.47021785	175.74365	
	0.47124127	-1.7335624	0.52389679	6.6727988	0.46972561	175.69352	0.47917064	-10.070511	
	0.47706646	-9.9448024	0.46972561	175.69352	0.52769007	6.634548	0.46765073	-1.7494963	
	0.47021785	175.74365	0.47917064	-10.070511	0.46765073	-1.7494963	0.52668448	6.7249451	
	
0.249306681310373	0.52590264	6.7385125	0.47081609	-1.8845157	0.47674419	-10.017332	0.46967826	175.50543	
	0.47081609	-1.8845157	0.52497241	6.7195675	0.46975691	175.39321	0.47842622	-10.133469	
	0.47674419	-10.017332	0.46975691	175.39321	0.52896284	6.6307401	0.46780267	-1.8809727	
	0.46967826	175.50543	0.47842622	-10.133469	0.46780267	-1.8809727	0.52714234	6.8131392	
	
0.255065820271756	0.52599488	6.7836349	0.47107864	-2.0846861	0.47636429	-10.169438	0.46981078	175.27855	
	0.47107864	-2.0846861	0.52484144	6.7885093	0.46947445	175.21891	0.47835823	-10.202087	
	0.47636429	-10.169438	0.46947445	175.21891	0.52865977	6.6708747	0.46800052	-2.1019996	
	0.46981078	175.27855	0.47835823	-10.202087	0.46800052	-2.1019996	0.52701954	6.8275552	
	
0.260957998915036	0.52701798	6.8518608	0.47056504	-2.1768886	0.47644637	-10.244906	0.46959295	175.02713	
	0.47056504	-2.1768886	0.5252997	6.8123505	0.46944948	174.93204	0.4782519	-10.344388	
	0.47644637	-10.244906	0.46944948	174.93204	0.52872425	6.6556737	0.46741137	-2.2118526	
	0.46959295	175.02713	0.4782519	-10.344388	0.46741137	-2.2118526	0.52822779	6.828969	
	
0.266986290539378	0.52727187	6.8949261	0.47019842	-2.4630353	0.47637156	-10.37455	0.46928848	174.79425	
	0.47019842	-2.4630353	0.52539315	6.8830826	0.46966485	174.76354	0.47769364	-10.525648	
	0.47637156	-10.37455	0.46966485	174.76354	0.52991145	6.7270564	0.46695944	-2.4088051	
	0.46928848	174.79425	0.47769364	-10.525648	0.46695944	-2.4088051	0.52901062	6.9102131	
	
0.273153839439064	0.52758113	6.9753593	0.47041436	-2.5922594	0.47600778	-10.504641	0.46939029	174.56145	
	0.47041436	-2.5922594	0.52577851	6.905147	0.46927512	174.54893	0.47767479	-10.550438	
	0.47600778	-10.504641	0.46927512	174.54893	0.53010552	6.6920528	0.46641397	-2.5674228	
	0.46939029	174.56145	0.47767479	-10.550438	0.46641397	-2.5674228	0.52905201	6.9469717	
	
0.279463862543524	0.5275299	6.9981584	0.47001475	-2.7344074	0.47605641	-10.618415	0.46920924	174.3305	
	0.47001475	-2.7344074	0.5267709	6.870538	0.46920062	174.24503	0.47697691	-10.706796	
	0.47605641	-10.618415	0.46920062	174.24503	0.53140945	6.7839927	0.46593965	-2.7545634	
	0.46920924	174.3305	0.47697691	-10.706796	0.46593965	-2.7545634	0.53036721	6.9379716	
	
0.285919651095252	0.5282829	7.0409196	0.47020131	-2.9846456	0.47550293	-10.779005	0.46902056	174.04939	
	0.47020131	-2.9846456	0.52596471	7.0368686	0.46903369	173.9984	0.47711533	-10.904457	
	0.47550293	-10.779005	0.46903369	173.9984	0.5316427	6.8433757	0.46577436	-2.9903287	
	0.46902056	174.04939	0.47711533	-10.904457	0.46577436	-2.9903287	0.53057883	6.9610932	
	
0.292524572366485	0.52788483	7.1221107	0.47004709	-3.1135028	0.47454679	-10.874198	0.46854594	173.76235	
	0.47004709	-3.1135028	0.52705094	7.1300568	0.46888491	173.65145	0.47625231	-10.965139	
	0.47454679	-10.874198	0.46888491	173.65145	0.53199051	6.8662726	0.46505733	-3.2052164	
	0.46854594	173.76235	0.47625231	-10.965139	0.46505733	-3.2052164	0.53132584	7.1273805	
	
0.299282071415539	0.52910795	7.1592075	0.46953863	-3.3247947	0.47448793	-11.061253	0.46823386	173.50289	
	0.46953863	-3.3247947	0.5270012	7.2510757	0.46807524	173.47416	0.47653074	-11.166785	
	0.47448793	-11.061253	0.46807524	173.47416	0.53262802	7.0363578	0.46479345	-3.3767456	
	0.46823386	173.50289	0.47653074	-11.166785	0.46479345	-3.3767456	0.53153899	7.1526304	
	
0.30619567288371	0.52946257	7.2506477	0.46941714	-3.4923312	0.47410711	-11.246127	0.46802371	173.28956	
	0.46941714	-3.4923312	0.52803579	7.2291985	0.46823546	173.2759	0.47643551	-11.319167	
	0.47410711	-11.246127	0.46823546	173.2759	0.53309386	7.0296275	0.464541	-3.5049512	
	0.46802371	173.28956	0.47643551	-11.319167	0.464541	-3.5049512	0.53276706	7.1839087	
	
0.313268982833699	0.52986674	7.2647648	0.46902823	-3.6455344	0.47420186	-11.307173	0.46832693	173.04605	
	0.46902823	-3.6455344	0.52744364	7.2010706	0.46828397	172.97289	0.47592814	-11.437696	
	0.47420186	-11.307173	0.46828397	172.97289	0.53372881	6.9747307	0.46436633	-3.6820064	
	0.46832693	173.04605	0.47592814	-11.437696	0.46436633	-3.6820064	0.53283789	7.2501645	
	
0.320505690630487	0.52959266	7.2885122	0.46954559	-3.8209946	0.47407468	-11.390762	0.46834944	172.83138	
	0.46954559	-3.8209946	0.52846381	7.2448079	0.46789315	172.73915	0.47585388	-11.571547	
	0.47407468	-11.390762	0.46789315	172.73915	0.53419704	7.0026044	0.46398565	-3.8238916	
	0.46834944	172.83138	0.47585388	-11.571547	0.46398565	-3.8238916	0.53320577	7.1912779	
	
0.327909570865677	0.52984475	7.3502609	0.46941818	-4.0043477	0.4738855	-11.615431	0.46822464	172.54688	
	0.46941818	-4.0043477	0.5287709	7.274657	0.46801786	172.56816	0.47558355	-11.753999	
	0.4738855	-11.615431	0.46801786	172.56816	0.53463423	7.1023701	0.46344272	-3.9852553	
	0.46822464	172.54688	0.47558355	-11.753999	0.46344272	-3.9852553	0.53278058	7.2219592	
	
0.335484485326279	0.53054359	7.3612121	0.46918039	-4.1984328	0.4735918	-11.787441	0.46759285	172.28128	
	0.46918039	-4.1984328	0.52885326	7.3852772	0.46825799	172.2838	0.47563572	-11.868473	
