# MHz S MA R 50

0.1	0.49059978	16.538473	0.46357728	15.649906	0.54370894	-15.410198	0.46199022	-165.00563	
	0.46357728	15.649906	0.48359587	16.551422	0.46279919	-164.97794	0.55042932	-15.10153	
	0.54370894	-15.410198	0.46279919	-164.97794	0.4900649	16.58214	0.46345423	15.566158	
	0.46199022	-165.00563	0.55042932	-15.10153	0.46345423	15.566158	0.48234948	16.597613	
	
0.102310062021247	0.49211831	16.219585	0.46422517	15.243694	0.54108645	-15.242288	0.46316153	-165.44897	
	0.46422517	15.243694	0.48390427	16.244779	0.4629961	-165.39526	0.54804256	-14.90402	
	0.54108645	-15.242288	0.4629961	-165.39526	0.4915441	16.298196	0.46420243	15.199809	
	0.46316153	-165.44897	0.54804256	-14.90402	0.46420243	15.199809	0.48435742	16.347288	
	
0.104673487907914	0.49287872	15.868573	0.4648464	14.828459	0.53889191	-15.064024	0.46394898	-165.81067	
	0.4648464	14.828459	0.48491674	15.914399	0.46327579	-165.74573	0.54654107	-14.74185	
	0.53889191	-15.064024	0.46327579	-165.74573	0.49185971	16.007162	0.46497969	14.805978	
	0.46394898	-165.81067	0.54654107	-14.74185	0.46497969	14.805978	0.48428861	15.989421	
	
0.107091510398389	0.49340315	15.565975	0.46605902	14.524548	0.53708254	-14.908913	0.46450031	-166.17753	
	0.46605902	14.524548	0.48604716	15.523827	0.46491585	-166.13344	0.54406906	-14.608104	
	0.53708254	-14.908913	0.46491585	-166.13344	0.49283288	15.678861	0.46538869	14.444331	
	0.46450031	-166.17753	0.54406906	-14.608104	0.46538869	14.444331	0.48557985	15.680748	
	
0.109565390708082	0.49425194	15.322519	0.46716556	14.202154	0.53490214	-14.68657	0.46580147	-166.60431	
	0.46716556	14.202154	0.48700454	15.293282	0.46551787	-166.48204	0.54225434	-14.403376	
	0.53490214	-14.68657	0.46551787	-166.48204	0.49390682	15.33063	0.46691105	14.107873	
	0.46580147	-166.60431	0.54225434	-14.403376	0.46691105	14.107873	0.48663879	15.442639	
	
0.112096419187261	0.4954702	15.088191	0.46796743	13.822847	0.53259322	-14.533036	0.46695558	-166.88451	
	0.46796743	13.822847	0.48765426	14.991939	0.4667145	-166.82456	0.53978579	-14.238882	
	0.53259322	-14.533036	0.4667145	-166.82456	0.49399235	15.07911	0.46769324	13.741617	
	0.46695558	-166.88451	0.53978579	-14.238882	0.46769324	13.741617	0.48699211	15.1469	
	
0.114685915994083	0.49570031	14.679448	0.46823489	13.497548	0.53136026	-14.322549	0.46758429	-167.24804	
	0.46823489	13.497548	0.48792423	14.629535	0.46719687	-167.2363	0.5386805	-14.073577	
	0.53136026	-14.322549	0.46719687	-167.2363	0.49524064	14.823666	0.46895134	13.392935	
	0.46758429	-167.24804	0.5386805	-14.073577	0.46895134	13.392935	0.48808353	14.856411	
	
0.117335231783182	0.49675816	14.414201	0.4688601	13.172323	0.5295949	-14.252366	0.46757039	-167.54158	
	0.4688601	13.172323	0.48947442	14.481974	0.46752702	-167.5915	0.53653872	-13.973915	
	0.5295949	-14.252366	0.46752702	-167.5915	0.49589091	14.489969	0.46903817	13.118657	
	0.46757039	-167.54158	0.53653872	-13.973915	0.46903817	13.118657	0.48898103	14.574696	
	
0.120045748410147	0.49766083	14.20442	0.469311	12.814678	0.52831361	-13.99362	0.46860447	-167.96227	
	0.469311	12.814678	0.48865981	14.131624	0.46790001	-167.96487	0.53495602	-13.741074	
	0.52831361	-13.99362	0.46790001	-167.96487	0.49667235	14.266709	0.46974577	12.770018	
	0.46860447	-167.96227	0.53495602	-13.741074	0.46974577	12.770018	0.48974789	14.170121	
	
0.122818879652292	0.49803922	13.877636	0.47025117	12.484069	0.52613686	-13.814654	0.46921617	-168.30736	
	0.47025117	12.484069	0.490086	14.010503	0.46907393	-168.17371	0.53346495	-13.564596	
	0.52613686	-13.814654	0.46907393	-168.17371	0.49765295	14.0116	0.47088312	12.451534	
	0.46921617	-168.30736	0.53346495	-13.564596	0.47088312	12.451534	0.49052538	13.972459	
	
0.125656071946061	0.49901351	13.65454	0.47102773	12.192939	0.52453942	-13.666583	0.4696504	-168.6712	
	0.47102773	12.192939	0.4905381	13.681346	0.46919892	-168.59107	0.53166727	-13.406308	
	0.52453942	-13.666583	0.46919892	-168.59107	0.49831216	13.676402	0.47101754	12.194682	
	0.4696504	-168.6712	0.53166727	-13.406308	0.47101754	12.194682	0.49133527	13.71461	
	
0.128558805141477	0.49915111	13.47157	0.47138281	11.905245	0.52263326	-13.576698	0.47037904	-168.94296	
	0.47138281	11.905245	0.49151343	13.449971	0.4700419	-168.91442	0.53042596	-13.311255	
	0.52263326	-13.576698	0.4700419	-168.91442	0.49927392	13.367544	0.47156223	11.888977	
	0.47037904	-168.94296	0.53042596	-13.311255	0.47156223	11.888977	0.49096419	13.481584	
	
0.131528593274019	0.50006664	13.179418	0.47189088	11.608666	0.5216687	-13.38441	0.4714321	-169.18884	
	0.47189088	11.608666	0.4919731	13.214115	0.47088189	-169.20979	0.52880973	-13.137469	
	0.5216687	-13.38441	0.47088189	-169.20979	0.49897914	13.229968	0.47220555	11.525591	
	0.4714321	-169.18884	0.52880973	-13.137469	0.47220555	11.525591	0.49211496	13.27829	
	
0.134566985354323	0.50069285	12.876956	0.47181687	11.267807	0.51994656	-13.212907	0.4711412	-169.5645	
	0.47181687	11.267807	0.49273893	12.950225	0.4711407	-169.54062	0.52702551	-12.977868	
	0.51994656	-13.212907	0.4711407	-169.54062	0.50101862	12.981689	0.4729325	11.150413	
	0.4711412	-169.5645	0.52702551	-12.977868	0.4729325	11.150413	0.49197503	13.116125	
	
0.13767556617613	0.50146662	12.673644	0.47287216	11.049148	0.51862967	-13.049246	0.47118424	-169.92378	
	0.47287216	11.049148	0.49339469	12.701981	0.47163984	-169.87155	0.52606833	-12.78918	
	0.51862967	-13.049246	0.47163984	-169.87155	0.50049387	12.708824	0.47323673	10.901835	
	0.47118424	-169.92378	0.52606833	-12.78918	0.47323673	10.901835	0.49301643	12.774186	
	
0.140855957142902	0.50139077	12.449397	0.47370418	10.769164	0.51776343	-12.940863	0.47215466	-170.25607	
	0.47370418	10.769164	0.49494535	12.374537	0.47168837	-170.17294	0.52437929	-12.665611	
	0.51776343	-12.940863	0.47168837	-170.17294	0.50062073	12.486106	0.47313906	10.63101	
	0.47215466	-170.25607	0.52437929	-12.665611	0.47313906	10.63101	0.49404746	12.602112	
	
0.144109817113524	0.50235025	12.237942	0.47394113	10.470894	0.51618226	-12.725232	0.47268375	-170.51165	
	0.47394113	10.470894	0.49486272	12.28856	0.47241975	-170.50684	0.5234308	-12.522609	
	0.51618226	-12.725232	0.47241975	-170.50684	0.50132853	12.337828	0.4736646	10.321413	
	0.47268375	-170.51165	0.5234308	-12.522609	0.4736646	10.321413	0.4942085	12.35325	
	
0.147438843267552	0.50280003	12.002082	0.47485306	10.132856	0.51442847	-12.595289	0.47292536	-170.79153	
	0.47485306	10.132856	0.49518242	12.050374	0.47335979	-170.7753	0.52238923	-12.389527	
	0.51442847	-12.595289	0.47335979	-170.7753	0.50215778	12.102547	0.47433616	10.042874	
	0.47292536	-170.79153	0.52238923	-12.389527	0.47433616	10.042874	0.49461526	12.177405	
	
0.150844771990442	0.50379173	11.803067	0.47456384	9.8608409	0.5138068	-12.449796	0.47361953	-171.10294	
	0.47456384	9.8608409	0.49581687	11.858929	0.47311423	-171.10905	0.52101711	-12.230046	
	0.5138068	-12.449796	0.47311423	-171.10905	0.50327809	11.82144	0.47471457	9.7815906	
	0.47361953	-171.10294	0.52101711	-12.230046	0.47471457	9.7815906	0.49503612	11.935065	
	
0.154329379779229	0.50386628	11.579066	0.47480819	9.6114696	0.51231748	-12.281683	0.47355693	-171.43531	
	0.47480819	9.6114696	0.49567335	11.622907	0.47383433	-171.45639	0.51988282	-12.087039	
	0.51231748	-12.281683	0.47383433	-171.45639	0.50370966	11.678469	0.47563578	9.4930829	
	0.47355693	-171.43531	0.51988282	-12.087039	0.47563578	9.4930829	0.49588214	11.790369	
	
0.157894484169135	0.50483278	11.386932	0.47532827	9.3175819	0.511724	-12.164801	0.47436867	-171.74606	
	0.47532827	9.3175819	0.49670101	11.421932	0.47427455	-171.69485	0.51911452	-11.980621	
	0.511724	-12.164801	0.47427455	-171.69485	0.50324423	11.460455	0.4754846	9.2125686	
	0.47436867	-171.74606	0.51911452	-11.980621	0.4754846	9.2125686	0.49619481	11.510319	
	
0.16154194468157	0.50413545	11.16682	0.47688752	9.1248084	0.50964487	-11.949659	0.47437432	-171.99963	
	0.47688752	9.1248084	0.49720879	11.275694	0.47444792	-171.94863	0.51802718	-11.894263	
	0.50964487	-11.949659	0.47444792	-171.94863	0.50455216	11.225312	0.47606375	9.0559393	
	0.47437432	-171.99963	0.51802718	-11.894263	0.47606375	9.0559393	0.49647118	11.270043	
	
0.165273663794043	0.50496756	11.006433	0.47659182	8.8006838	0.50922261	-11.94883	0.47507582	-172.31254	
	0.47659182	8.8006838	0.49742465	11.004206	0.47485109	-172.25525	0.5171767	-11.741644	
	0.50922261	-11.94883	0.47485109	-172.25525	0.50459042	11.045459	0.47621183	8.7236485	
	0.47507582	-172.31254	0.5171767	-11.741644	0.47621183	8.7236485	0.49742385	11.155758	
	
0.169091587932473	0.50566681	10.859959	0.47680784	8.5355045	0.50810588	-11.762874	0.475295	-172.53193	
	0.47680784	8.5355045	0.49803078	10.913838	0.47534042	-172.53839	0.51565658	-11.625383	
	0.50810588	-11.762874	0.47534042	-172.53839	0.50511504	10.909165	0.47638526	8.4914505	
	0.475295	-172.53193	0.51565658	-11.625383	0.47638526	8.4914505	0.49799611	10.999285	
	
0.172997708486424	0.50598635	10.663897	0.47717837	8.3245708	0.50737369	-11.583696	0.47563761	-172.80435	
	0.47717837	8.3245708	0.49811142	10.602884	0.47503667	-172.77581	0.51470342	-11.54441	
	0.50737369	-11.583696	0.47503667	-172.77581	0.50631743	10.665025	0.47674272	8.2087097	
	0.47563761	-172.80435	0.51470342	-11.54441	0.47674272	8.2087097	0.49757963	10.805958	
	
0.176994062847797	0.50611581	10.469978	0.47753526	8.0247061	0.50614356	-11.472458	0.47619189	-173.0744	
	0.47753526	8.0247061	0.49869903	10.50971	0.4755955	-173.05795	0.51425456	-11.316829	
	0.50614356	-11.472458	0.4755955	-173.05795	0.50612833	10.537528	0.47729734	7.9534851	
	0.47619189	-173.0744	0.51425456	-11.316829	0.47729734	7.9534851	0.49806763	10.669421	
	
0.181082735473506	0.50687899	10.366491	0.47737513	7.811721	0.50564759	-11.412781	0.47636106	-173.34516	
	0.47737513	7.811721	0.49964407	10.386219	0.47582311	-173.28885	0.51314666	-11.238309	
	0.50564759	-11.412781	0.47582311	-173.28885	0.50599399	10.3253	0.47774308	7.7018643	
	0.47636106	-173.34516	0.51314666	-11.238309	0.47774308	7.7018643	0.49914395	10.44726	
	
0.185265858972714	0.50669263	10.124487	0.47783	7.4947109	0.50453661	-11.298883	0.47666641	-173.6238	
	0.47783	7.4947109	0.49939787	10.211546	0.4768606	-173.58095	0.51254972	-11.197316	
	0.50453661	-11.298883	0.4768606	-173.58095	0.50708338	10.158274	0.47768432	7.4997823	
	0.47666641	-173.6238	0.51254972	-11.197316	0.47768432	7.4997823	0.49939162	10.267604	
	
0.18954561521918	0.50782679	10.047201	0.47844869	7.3996995	0.50379048	-11.183979	0.47752658	-173.90893	
	0.47844869	7.3996995	0.50061503	9.9487028	0.47663183	-173.83324	0.51130389	-11.030195	
	0.50379048	-11.183979	0.47663183	-173.83324	0.50669556	10.034935	0.47856312	7.3208114	
	0.47752658	-173.90893	0.51130389	-11.030195	0.47856312	7.3208114	0.4995855	10.119662	
	
0.193924236489297	0.50841634	9.8302228	0.47820378	7.1098439	0.5029985	-11.081344	0.47695248	-174.14507	
	0.47820378	7.1098439	0.50011407	9.8577439	0.47749659	-174.13276	0.51081416	-10.929866	
	0.5029985	-11.081344	0.47749659	-174.13276	0.50745395	9.8627779	0.47838398	6.9800714	
	0.47695248	-174.14507	0.51081416	-10.929866	0.47838398	6.9800714	0.49986132	9.9659487	
	
0.19840400662643	0.50793413	9.6968298	0.47862617	6.8649939	0.5022514	-10.970785	0.47768791	-174.42673	
	0.47862617	6.8649939	0.50072227	9.7261052	0.47746504	-174.44537	0.51034929	-10.831604	
	0.5022514	-10.970785	0.47746504	-174.44537	0.5071791	9.6556546	0.47917558	6.7853457	
	0.47768791	-174.42673	0.51034929	-10.831604	0.47917558	6.7853457	0.5003365	9.777456	
	
0.202987262232139	0.50871309	9.5041269	0.47878674	6.6308497	0.50169655	-10.873428	0.47757356	-174.65307	
	0.47878674	6.6308497	0.50158788	9.6180596	0.47723844	-174.67399	0.50898921	-10.728042	
	0.50169655	-10.873428	0.47723844	-174.67399	0.50806856	9.4966756	0.47871157	6.5553148	
	0.47757356	-174.65307	0.50898921	-10.728042	0.47871157	6.5553148	0.50061236	9.6624551	
	
0.207676393884933	0.50802257	9.4196617	0.47942391	6.3976921	0.50063114	-10.788438	0.47780022	-174.94746	
	0.47942391	6.3976921	0.50152127	9.4731216	0.47739679	-174.88032	0.50855592	-10.642085	
	0.50063114	-10.788438	0.47739679	-174.88032	0.50788804	9.4040855	0.4787653	6.320696	
	0.47780022	-174.94746	0.50855592	-10.642085	0.4787653	6.320696	0.50172648	9.6100567	
	
0.212473847387164	0.50899422	9.2712976	0.47914638	6.1650342	0.50046063	-10.66621	0.47757533	-175.16294	
	0.47914638	6.1650342	0.5012522	9.2691468	0.47707637	-175.15389	0.50805727	-10.557676	
	0.50046063	-10.66621	0.47707637	-175.15389	0.50886829	9.2980415	0.47886515	6.1310397	
	0.47757533	-175.16294	0.50805727	-10.557676	0.47886515	6.1310397	0.5012141	9.490245	
	
0.217382125040737	0.50918567	9.175385	0.47940247	5.9099609	0.49988378	-10.606107	0.47805078	-175.45091	
	0.47940247	5.9099609	0.5020542	9.1725427	0.47780701	-175.45537	0.50736095	-10.503287	
	0.49988378	-10.606107	0.47780701	-175.45537	0.50867865	9.2175119	0.47946333	5.8725513	
	0.47805078	-175.45091	0.50736095	-10.503287	0.47946333	5.8725513	0.50183321	9.1588174	
	
0.222403786952283	0.51003893	8.992003	0.47952677	5.6752202	0.49903668	-10.563269	0.47828491	-175.62341	
	0.47952677	5.6752202	0.50216132	9.0206881	0.47790303	-175.66778	0.50680496	-10.387865	
	0.49903668	-10.563269	0.47790303	-175.66778	0.50922392	9.0591535	0.47941592	5.6320136	
	0.47828491	-175.62341	0.50680496	-10.387865	0.47941592	5.6320136	0.50150678	9.149868	
	
0.227541452368483	0.51068392	8.921736	0.47966491	5.531279	0.49845327	-10.391101	0.47830873	-175.93425	
	0.47966491	5.531279	0.5028691	9.0090054	0.47805504	-175.87614	0.50570421	-10.365017	
	0.49845327	-10.391101	0.47805504	-175.87614	0.50950076	8.8784803	0.47948913	5.45566	
	0.47830873	-175.93425	0.50570421	-10.365017	0.47948913	5.45566	0.50247859	8.9834691	
	
0.232797801042241	0.51031936	8.7886864	0.48013347	5.3516956	0.49782282	-10.370817	0.4782256	-176.20637	
	0.48013347	5.3516956	0.50284007	8.8582498	0.47830986	-176.15009	0.50539162	-10.259014	
	0.49782282	-10.370817	0.47830986	-176.15009	0.50983757	8.7819431	0.47953987	5.2294931	
	0.4782256	-176.20637	0.50539162	-10.259014	0.47953987	5.2294931	0.50253767	8.9421534	
	
0.238175574630416	0.51075467	8.6452014	0.48037266	5.1384891	0.4971718	-10.29256	0.4790587	-176.38072	
	0.48037266	5.1384891	0.50270231	8.7227231	0.478454	-176.39815	0.50481514	-10.215318	
	0.4971718	-10.29256	0.478454	-176.39815	0.51041949	8.6963433	0.4797356	5.0280443	
	0.4790587	-176.38072	0.50481514	-10.215318	0.4797356	5.0280443	0.50261781	8.792138	
	
0.24367757812384	0.51088206	8.5045167	0.48015495	4.8838415	0.49645024	-10.249537	0.47911169	-176.60792	
	0.48015495	4.8838415	0.50344299	8.5736635	0.47879777	-176.60425	0.50422495	-10.175721	
	0.49645024	-10.249537	0.47879777	-176.60425	0.51069908	8.5973173	0.47956875	4.8135018	
	0.47911169	-176.60792	0.50422495	-10.175721	0.47956875	4.8135018	0.50318815	8.6677382	
	
0.249306681310373	0.51144137	8.4162747	0.48024578	4.6575073	0.4957882	-10.19208	0.47880846	-176.88856	
	0.48024578	4.6575073	0.50409164	8.4538867	0.47883867	-176.87562	0.50378567	-10.15396	
	0.4957882	-10.19208	0.47883867	-176.87562	0.51113365	8.456086	0.47969097	4.5769731	
	0.47880846	-176.88856	0.50378567	-10.15396	0.47969097	4.5769731	0.50396365	8.5982346	
	
0.255065820271756	0.51154991	8.3258167	0.48030065	4.4602031	0.49540708	-10.187088	0.47911317	-177.07847	
	0.48030065	4.4602031	0.50358229	8.3468869	0.47854048	-177.09401	0.50298918	-10.041593	
	0.49540708	-10.187088	0.47854048	-177.09401	0.51133465	8.311221	0.48069698	4.3866623	
	0.47911317	-177.07847	0.50298918	-10.041593	0.48069698	4.3866623	0.50349629	8.5335758	
	
0.260957998915036	0.51131382	8.179249	0.48001637	4.3231437	0.49481845	-10.060871	0.47902333	-177.36827	
	0.48001637	4.3231437	0.50437765	8.3261907	0.47899062	-177.35417	0.50280557	-9.9957413	
	0.49481845	-10.060871	0.47899062	-177.35417	0.51159062	8.2394075	0.48025991	4.2369594	
	0.47902333	-177.36827	0.50280557	-9.9957413	0.48025991	4.2369594	0.50407936	8.3806826	
	
0.266986290539378	0.51239086	8.1202153	0.48035691	4.0639508	0.49477032	-10.024769	0.47901162	-177.60004	
	0.48035691	4.0639508	0.50434423	8.2769208	0.47938395	-177.59196	0.50213103	-9.9539641	
	0.49477032	-10.024769	0.47938395	-177.59196	0.51185452	8.0854219	0.48044078	4.0043208	
	0.47901162	-177.60004	0.50213103	-9.9539641	0.48044078	4.0043208	0.50417344	8.3763237	
	
0.273153839439064	0.51231628	8.0743858	0.48064518	3.9095189	0.4941897	-9.9780911	0.47969501	-177.84423	
	0.48064518	3.9095189	0.50447194	8.1413485	0.47959001	-177.77484	0.50196639	-9.8897793	
	0.4941897	-9.9780911	0.47959001	-177.77484	0.51214555	7.9830539	0.48010159	3.8471334	
	0.47969501	-177.84423	0.50196639	-9.8897793	0.48010159	3.8471334	0.50487739	8.2393835	
	
0.279463862543524	0.51287918	7.9120976	0.4804322	3.6723513	0.49391366	-9.9909687	0.47926699	-177.9756	
	0.4804322	3.6723513	0.50571736	7.9782038	0.47923177	-178.06274	0.5006952	-9.8919084	
	0.49391366	-9.9909687	0.47923177	-178.06274	0.51288029	7.9254966	0.4799849	3.6235803	
	0.47926699	-177.9756	0.5006952	-9.8919084	0.4799849	3.6235803	0.50455561	8.1698778	
	
0.285919651095252	0.51250707	7.9420947	0.48088514	3.4834268	0.49332115	-9.9471816	0.47910441	-178.29378	
	0.48088514	3.4834268	0.50439351	7.9874879	0.47952174	-178.28732	0.50119367	-9.8964158	
	0.49332115	-9.9471816	0.47952174	-178.28732	0.51255498	7.9068055	0.47990832	3.3852559	
	0.47910441	-178.29378	0.50119367	-9.8964158	0.47990832	3.3852559	0.50522704	8.0085573	
	
0.292524572366485	0.51340198	7.8329569	0.48087836	3.3034751	0.49281206	-9.9156644	0.47912441	-178.54486	
	0.48087836	3.3034751	0.50585018	7.9490416	0.47944027	-178.58968	0.5003314	-9.8213168	
	0.49281206	-9.9156644	0.47944027	-178.58968	0.51307943	7.8496118	0.48014562	3.1997342	
	0.47912441	-178.54486	0.5003314	-9.8213168	0.48014562	3.1997342	0.50534111	8.0474015	
	
0.299282071415539	0.51309511	7.7800034	0.48061026	3.1149029	0.49252658	-9.8583495	0.47928024	-178.76195	
	0.48061026	3.1149029	0.50538325	7.8939525	0.47931406	-178.72994	0.50062474	-9.8473918	
	0.49252658	-9.8583495	0.47931406	-178.72994	0.51357842	7.8184971	0.47988306	2.9485993	
	0.47928024	-178.76195	0.50062474	-9.8473918	0.47988306	2.9485993	0.50534325	8.0284622	
	
0.30619567288371	0.51325643	7.6755929	0.48067636	2.9912722	0.49237458	-9.8363055	0.4794053	-178.98981	
	0.48067636	2.9912722	0.50572416	7.821954	0.47901272	-178.90778	0.50004774	-9.8143718	
	0.49237458	-9.8363055	0.47901272	-178.90778	0.513799	7.764363	0.48005459	2.8548745	
	0.4794053	-178.98981	0.50004774	-9.8143718	0.48005459	2.8548745	0.50595343	7.9060156	
	
0.313268982833699	0.51394554	7.5745635	0.48078579	2.775268	0.49137507	-9.8280933	0.47962559	-179.18175	
	0.48078579	2.775268	0.50586278	7.6849834	0.47979539	-179.21436	0.49932564	-9.7825692	
	0.49137507	-9.8280933	0.47979539	-179.21436	0.51370916	7.5893841	0.48038737	2.6959665	
	0.47962559	-179.18175	0.49932564	-9.7825692	0.48038737	2.6959665	0.50616657	7.8464559	
	
0.320505690630487	0.5134175	7.4625797	0.48118732	2.6391161	0.49115567	-9.7288347	0.48017476	-179.36812	
	0.48118732	2.6391161	0.50649145	7.5451527	0.47950955	-179.38891	0.49930575	-9.7327292	
	0.49115567	-9.7288347	0.47950955	-179.38891	0.51362261	7.4881975	0.48022237	2.5273014	
	0.48017476	-179.36812	0.49930575	-9.7327292	0.48022237	2.5273014	0.50649671	7.6540537	
	
0.327909570865677	0.51343018	7.4302122	0.48116687	2.4225393	0.49095924	-9.7549906	0.48015228	-179.58048	
	0.48116687	2.4225393	0.5061134	7.4128654	0.47956456	-179.5898	0.49833008	-9.7224938	
	0.49095924	-9.7549906	0.47956456	-179.5898	0.51386909	7.3521211	0.48071019	2.4113524	
	0.48015228	-179.58048	0.49833008	-9.7224938	0.48071019	2.4113524	0.50580717	7.6149372	
	
0.335484485326279	0.51405478	7.3330415	0.48129417	2.2758405	0.49008941	-9.7381028	0.47979896	-179.86868	
	0.48129417	2.2758405	0.50647197	7.4295963	0.48003931	-179.74671	0.49874099	-9.7038306	
