# MHz S MA R 50

0.1	0.17037419	68.45205	0.17305985	69.056094	0.94465061	-9.8366905	0.17089179	-111.28854	
	0.17305985	69.056094	0.17022841	68.519855	0.17114009	-111.35168	0.9458612	-9.9168401	
	0.94465061	-9.8366905	0.17114009	-111.35168	0.17242373	68.651586	0.17353035	68.947939	
	0.17089179	-111.28854	0.9458612	-9.9168401	0.17353035	68.947939	0.17233136	68.428601	
	
0.102310062021247	0.17465295	68.111956	0.17650517	68.559058	0.94319635	-10.017981	0.1745035	-111.70618	
	0.17650517	68.559058	0.17455047	68.000468	0.17465038	-111.79338	0.94341223	-10.111823	
	0.94319635	-10.017981	0.17465038	-111.79338	0.17527899	68.438829	0.17671042	68.587591	
	0.1745035	-111.70618	0.94341223	-10.111823	0.17671042	68.587591	0.17664078	67.990851	
	
0.104673487907914	0.17891161	67.580576	0.18055028	68.247481	0.94127954	-10.234849	0.17816701	-112.1919	
	0.18055028	68.247481	0.17909578	67.44939	0.17786771	-112.16846	0.94176861	-10.310287	
	0.94127954	-10.234849	0.17786771	-112.16846	0.17875534	67.893077	0.18053736	68.208899	
	0.17816701	-112.1919	0.94176861	-10.310287	0.18053736	68.208899	0.17936297	67.959809	
	
0.107091510398389	0.18150169	67.221317	0.18353224	67.809913	0.93841272	-10.422976	0.18122828	-112.61232	
	0.18353224	67.809913	0.18137232	67.066156	0.18133348	-112.53114	0.93951816	-10.514809	
	0.93841272	-10.422976	0.18133348	-112.53114	0.18219554	67.537944	0.18370723	67.643892	
	0.18122828	-112.61232	0.93951816	-10.514809	0.18370723	67.643892	0.18312422	67.186627	
	
0.109565390708082	0.18611438	67.142965	0.18765905	67.354611	0.93687105	-10.609753	0.18518925	-113.19442	
	0.18765905	67.354611	0.1854572	66.626571	0.18498628	-112.96056	0.93737464	-10.703065	
	0.93687105	-10.609753	0.18498628	-112.96056	0.18604261	67.12208	0.18733653	67.15562	
	0.18518925	-113.19442	0.93737464	-10.703065	0.18733653	67.15562	0.18702785	66.951984	
	
0.112096419187261	0.18932895	66.666632	0.19148528	66.820338	0.93464126	-10.804863	0.18904248	-113.57923	
	0.19148528	66.820338	0.18918703	66.642546	0.18878291	-113.40374	0.93526173	-10.949758	
	0.93464126	-10.804863	0.18878291	-113.40374	0.1885408	66.910271	0.19143256	66.723951	
	0.18904248	-113.57923	0.93526173	-10.949758	0.19143256	66.723951	0.1903247	66.89855	
	
0.114685915994083	0.19228745	65.821891	0.19490719	66.389055	0.93266192	-10.99872	0.19246622	-113.99422	
	0.19490719	66.389055	0.19236399	65.790585	0.19234441	-113.90026	0.93291554	-11.127219	
	0.93266192	-10.99872	0.19234441	-113.90026	0.19274421	66.563576	0.19541308	66.268743	
	0.19246622	-113.99422	0.93291554	-11.127219	0.19541308	66.268743	0.19431169	66.189129	
	
0.117335231783182	0.1955069	65.384837	0.19827749	65.913958	0.93035364	-11.227887	0.19593859	-114.41878	
	0.19827749	65.913958	0.1965051	65.253474	0.19602937	-114.38245	0.93083145	-11.335998	
	0.93035364	-11.227887	0.19602937	-114.38245	0.19657988	65.817276	0.19891396	65.951167	
	0.19593859	-114.41878	0.93083145	-11.335998	0.19891396	65.951167	0.19721932	65.681179	
	
0.120045748410147	0.19979877	64.717203	0.2021327	65.420539	0.92827018	-11.391702	0.1996688	-114.91673	
	0.2021327	65.420539	0.19938555	65.037998	0.19967322	-115.04704	0.92758431	-11.516902	
	0.92827018	-11.391702	0.19967322	-115.04704	0.19993085	65.243191	0.20214814	65.517183	
	0.1996688	-114.91673	0.92758431	-11.516902	0.20214814	65.517183	0.20056	65.087078	
	
0.122818879652292	0.20349087	64.523724	0.20638467	64.972563	0.92571518	-11.627131	0.20370725	-115.34604	
	0.20638467	64.972563	0.20366838	64.570069	0.20350832	-115.32904	0.92597371	-11.721504	
	0.92571518	-11.627131	0.20350832	-115.32904	0.20470843	64.940041	0.20637795	64.900932	
	0.20370725	-115.34604	0.92597371	-11.721504	0.20637795	64.900932	0.20496534	64.76814	
	
0.125656071946061	0.20773659	64.006004	0.21026723	64.576603	0.92309628	-11.846323	0.20731835	-115.88513	
	0.21026723	64.576603	0.20754371	63.977074	0.20729704	-115.79672	0.92347322	-11.967902	
	0.92309628	-11.846323	0.20729704	-115.79672	0.20811011	64.085452	0.21014078	64.489113	
	0.20731835	-115.88513	0.92347322	-11.967902	0.21014078	64.489113	0.20918291	64.220455	
	
0.128558805141477	0.21085407	63.563033	0.21409965	64.013199	0.91950152	-12.052214	0.21091386	-116.36967	
	0.21409965	64.013199	0.21164917	63.328637	0.21094161	-116.33745	0.92067929	-12.165001	
	0.91950152	-12.052214	0.21094161	-116.33745	0.21128299	63.775024	0.21416092	64.03536	
	0.21091386	-116.36967	0.92067929	-12.165001	0.21416092	64.03536	0.21250296	63.695876	
	
0.131528593274019	0.21535046	62.945435	0.21811896	63.55221	0.91756026	-12.253514	0.21557371	-116.83252	
	0.21811896	63.55221	0.21462557	63.076746	0.2151963	-116.82653	0.91808811	-12.391097	
	0.91756026	-12.253514	0.2151963	-116.82653	0.21573188	63.237853	0.21813447	63.48374	
	0.21557371	-116.83252	0.91808811	-12.391097	0.21813447	63.48374	0.21621727	63.501403	
	
0.134566985354323	0.21902588	62.37149	0.22186411	63.065817	0.91430565	-12.464014	0.2194159	-117.43327	
	0.22186411	63.065817	0.21942637	62.464965	0.21869232	-117.33199	0.91501141	-12.601647	
	0.91430565	-12.464014	0.21869232	-117.33199	0.21953048	62.579877	0.22205725	62.843199	
	0.2194159	-117.43327	0.91501141	-12.601647	0.22205725	62.843199	0.22129274	62.968096	
	
0.13767556617613	0.22272971	61.910917	0.22572107	62.660659	0.91115804	-12.685808	0.22273515	-118.00772	
	0.22572107	62.660659	0.22348957	62.044559	0.22295645	-117.84744	0.91214292	-12.784847	
	0.91115804	-12.685808	0.22295645	-117.84744	0.22323795	62.200019	0.22625465	62.419045	
	0.22273515	-118.00772	0.91214292	-12.784847	0.22625465	62.419045	0.22485488	62.219777	
	
0.140855957142902	0.22661081	61.386118	0.229641	62.197532	0.90863392	-12.896597	0.22673884	-118.49522	
	0.229641	62.197532	0.22848298	61.35446	0.22645248	-118.35989	0.90838945	-13.024977	
	0.90863392	-12.896597	0.22645248	-118.35989	0.22722501	61.6837	0.22991592	61.8904	
	0.22673884	-118.49522	0.90838945	-13.024977	0.22991592	61.8904	0.22971674	61.60316	
	
0.144109817113524	0.23119876	60.693093	0.23373225	61.595512	0.90492715	-13.113101	0.23114711	-118.98996	
	0.23373225	61.595512	0.23138815	60.790536	0.2307066	-119.00191	0.905217	-13.238941	
	0.90492715	-13.113101	0.2307066	-119.00191	0.23161045	61.02353	0.23425016	61.355553	
	0.23114711	-118.98996	0.905217	-13.238941	0.23425016	61.355553	0.23332492	61.008757	
	
0.147438843267552	0.23511843	60.458335	0.23846561	61.006981	0.90180964	-13.324807	0.23502171	-119.54404	
	0.23846561	61.006981	0.23577279	60.329187	0.2350931	-119.52899	0.90190004	-13.492779	
	0.90180964	-13.324807	0.2350931	-119.52899	0.23524368	60.699743	0.23830965	60.855484	
	0.23502171	-119.54404	0.90190004	-13.492779	0.23830965	60.855484	0.2373555	60.622814	
	
0.150844771990442	0.2393965	59.653962	0.24208405	60.470266	0.8983335	-13.500025	0.23914329	-120.0576	
	0.24208405	60.470266	0.24045224	59.603677	0.23856173	-120.00629	0.89876678	-13.667065	
	0.8983335	-13.500025	0.23856173	-120.00629	0.23964249	59.848034	0.24216973	60.326064	
	0.23914329	-120.0576	0.89876678	-13.667065	0.24216973	60.326064	0.2403099	60.013357	
	
0.154329379779229	0.2433772	59.19647	0.24619802	59.943767	0.8949182	-13.740491	0.24285271	-120.68083	
	0.24619802	59.943767	0.24484395	59.128949	0.24297633	-120.55347	0.89558024	-13.899278	
	0.8949182	-13.740491	0.24297633	-120.55347	0.24407053	59.547703	0.24622343	59.712299	
	0.24285271	-120.68083	0.89558024	-13.899278	0.24622343	59.712299	0.24527589	59.398213	
	
0.157894484169135	0.24747296	58.689299	0.2504779	59.329495	0.89210959	-13.964239	0.24732073	-121.18045	
	0.2504779	59.329495	0.24854845	58.672007	0.24746862	-121.21023	0.89238427	-14.147716	
	0.89210959	-13.964239	0.24746862	-121.21023	0.2483116	59.138344	0.25082355	59.197469	
	0.24732073	-121.18045	0.89238427	-14.147716	0.25082355	59.197469	0.24990484	58.991224	
	
0.16154194468157	0.25211783	58.254224	0.25511421	58.8309	0.8878085	-14.202582	0.25174336	-121.80358	
	0.25511421	58.8309	0.2522079	58.315652	0.25158331	-121.57262	0.88941614	-14.374919	
	0.8878085	-14.202582	0.25158331	-121.57262	0.25180208	58.538956	0.25536625	58.796133	
	0.25174336	-121.80358	0.88941614	-14.374919	0.25536625	58.796133	0.2536898	58.247902	
	
0.165273663794043	0.25601776	57.693933	0.25942788	58.237064	0.88447251	-14.404743	0.25566815	-122.44485	
	0.25942788	58.237064	0.25683713	57.496999	0.25567987	-122.29708	0.8849596	-14.563459	
	0.88447251	-14.404743	0.25567987	-122.29708	0.25608336	57.808598	0.25950757	58.083685	
	0.25566815	-122.44485	0.8849596	-14.563459	0.25950757	58.083685	0.25827259	57.71399	
	
0.169091587932473	0.26016575	57.06975	0.263231	57.638269	0.88097491	-14.617742	0.2598437	-122.98065	
	0.263231	57.638269	0.26163626	57.188098	0.26000718	-122.91376	0.88123883	-14.794718	
	0.88097491	-14.617742	0.26000718	-122.91376	0.26129334	57.155	0.26352295	57.457121	
	0.2598437	-122.98065	0.88123883	-14.794718	0.26352295	57.457121	0.26266885	57.05141	
	
0.172997708486424	0.26466212	56.497089	0.26798177	57.184747	0.87753275	-14.827032	0.26397486	-123.56146	
	0.26798177	57.184747	0.26515113	56.350647	0.26379199	-123.3709	0.87756844	-15.016117	
	0.87753275	-14.827032	0.26379199	-123.3709	0.26572357	56.60328	0.26758449	56.938669	
	0.26397486	-123.56146	0.87756844	-15.016117	0.26758449	56.938669	0.26642874	56.572656	
	
0.176994062847797	0.26878625	55.905701	0.27214752	56.489781	0.87348201	-15.034809	0.26876534	-124.17812	
	0.27214752	56.489781	0.27019166	55.83488	0.26831037	-124.045	0.87279778	-15.172633	
	0.87348201	-15.034809	0.26831037	-124.045	0.2696794	55.993028	0.27241051	56.335081	
	0.26876534	-124.17812	0.87279778	-15.172633	0.27241051	56.335081	0.26998346	56.143292	
	
0.181082735473506	0.27303532	55.237083	0.27606243	55.902229	0.86914177	-15.256591	0.27266076	-124.71266	
	0.27606243	55.902229	0.27424586	55.053828	0.27255412	-124.61382	0.8691988	-15.42978	
	0.86914177	-15.256591	0.27255412	-124.61382	0.27328827	55.598217	0.27683633	55.741703	
	0.27266076	-124.71266	0.8691988	-15.42978	0.27683633	55.741703	0.27526769	55.434626	
	
0.185265858972714	0.27674784	54.71422	0.28077895	55.288249	0.86518397	-15.473973	0.27690063	-125.3088	
	0.28077895	55.288249	0.27870814	54.705112	0.27731897	-125.15223	0.86483684	-15.598539	
	0.86518397	-15.473973	0.27731897	-125.15223	0.27710373	54.91943	0.28100912	55.23929	
	0.27690063	-125.3088	0.86483684	-15.598539	0.28100912	55.23929	0.27878364	54.750597	
	
0.18954561521918	0.28135672	54.080019	0.28516249	54.790233	0.86104235	-15.684167	0.28137948	-125.95746	
	0.28516249	54.790233	0.28230771	54.070711	0.2810624	-125.75386	0.86096105	-15.826974	
	0.86104235	-15.684167	0.2810624	-125.75386	0.28219876	54.348213	0.28579107	54.573748	
	0.28137948	-125.95746	0.86096105	-15.826974	0.28579107	54.573748	0.28306824	54.329544	
	
0.193924236489297	0.28579772	53.469745	0.28890418	54.16071	0.85617962	-15.896433	0.28515282	-126.4769	
	0.28890418	54.16071	0.28669757	53.341311	0.28590299	-126.37897	0.85657668	-16.026274	
	0.85617962	-15.896433	0.28590299	-126.37897	0.28626323	53.670763	0.28979401	54.05048	
	0.28515282	-126.4769	0.85657668	-16.026274	0.28979401	54.05048	0.28831696	53.627134	
	
0.19840400662643	0.29005888	53.002592	0.29361845	53.530171	0.85232791	-16.094975	0.29034269	-127.11029	
	0.29361845	53.530171	0.29150892	52.951628	0.28963813	-127.14031	0.85260276	-16.299948	
	0.85232791	-16.094975	0.28963813	-127.14031	0.29068366	53.097224	0.29467222	53.367106	
	0.29034269	-127.11029	0.85260276	-16.299948	0.29467222	53.367106	0.29237475	52.910394	
	
0.202987262232139	0.29453137	52.231164	0.29765804	52.873557	0.84807109	-16.271259	0.29410493	-127.79147	
	0.29765804	52.873557	0.29604052	52.193825	0.29393157	-127.73902	0.84733579	-16.445083	
	0.84807109	-16.271259	0.29393157	-127.73902	0.29458873	52.379881	0.29833874	52.807499	
	0.29410493	-127.79147	0.84733579	-16.445083	0.29833874	52.807499	0.29703793	52.39953	
	
0.207676393884933	0.29820932	51.682333	0.30248029	52.264352	0.84335513	-16.501158	0.29793331	-128.5117	
	0.30248029	52.264352	0.30021095	51.489197	0.29807656	-128.38676	0.84304876	-16.644889	
	0.84335513	-16.501158	0.29807656	-128.38676	0.29841281	51.890947	0.30239797	52.184174	
	0.29793331	-128.5117	0.84304876	-16.644889	0.30239797	52.184174	0.30124839	51.90266	
	
0.212473847387164	0.30310402	50.857965	0.30663201	51.707115	0.83877031	-16.666792	0.30233678	-129.06373	
	0.30663201	51.707115	0.30388775	50.873829	0.30193548	-128.92946	0.83840543	-16.833871	
	0.83877031	-16.666792	0.30193548	-128.92946	0.30343175	51.128931	0.30673628	51.564324	
	0.30233678	-129.06373	0.83840543	-16.833871	0.30673628	51.564324	0.30469627	51.042199	
	
0.217382125040737	0.30692859	50.395813	0.3108746	50.981626	0.83418331	-16.864262	0.30675934	-129.71157	
	0.3108746	50.981626	0.30909222	50.345217	0.30636803	-129.61267	0.83413393	-17.055215	
	0.83418331	-16.864262	0.30636803	-129.61267	0.30689766	50.614283	0.31160417	50.949694	
	0.30675934	-129.71157	0.83413393	-17.055215	0.31160417	50.949694	0.30923165	50.475405	
	
0.222403786952283	0.31107737	49.627892	0.31484233	50.407109	0.82952269	-17.074705	0.31066863	-130.31889	
	0.31484233	50.407109	0.31342113	49.69316	0.31068982	-130.24708	0.82897554	-17.216329	
	0.82952269	-17.074705	0.31068982	-130.24708	0.31128419	49.882211	0.31532568	50.20141	
	0.31066863	-130.31889	0.82897554	-17.216329	0.31532568	50.20141	0.31358298	49.778337	
	
0.227541452368483	0.31595863	49.130013	0.31906007	49.839175	0.82448069	-17.206337	0.31523164	-130.94961	
	0.31906007	49.839175	0.31819736	49.086389	0.31465276	-130.79778	0.82461645	-17.434964	
	0.82448069	-17.206337	0.31465276	-130.79778	0.31515593	49.146351	0.31974303	49.727229	
	0.31523164	-130.94961	0.82461645	-17.434964	0.31974303	49.727229	0.31788357	49.305903	
	
0.232797801042241	0.31945918	48.473093	0.32403392	49.186643	0.81928109	-17.389773	0.31878176	-131.59076	
	0.32403392	49.186643	0.32184079	48.503309	0.31926655	-131.52101	0.81945315	-17.595356	
	0.81928109	-17.389773	0.31926655	-131.52101	0.32018859	48.614804	0.32377592	48.980704	
	0.31878176	-131.59076	0.81945315	-17.595356	0.32377592	48.980704	0.32178904	48.523683	
	
0.238175574630416	0.32381596	47.806515	0.32788375	48.586278	0.81493091	-17.556787	0.3236342	-132.16574	
	0.32788375	48.586278	0.32554053	47.791692	0.32307552	-132.1145	0.81397524	-17.759632	
	0.81493091	-17.556787	0.32307552	-132.1145	0.3245531	47.898151	0.32795311	48.479636	
	0.3236342	-132.16574	0.81397524	-17.759632	0.32795311	48.479636	0.32641647	47.953327	
	
0.24367757812384	0.32813659	47.161259	0.33208351	47.813881	0.80930984	-17.737624	0.32735527	-132.90143	
	0.33208351	47.813881	0.32900956	47.145869	0.32748078	-132.79748	0.8094735	-17.968276	
	0.80930984	-17.737624	0.32748078	-132.79748	0.32790324	47.347294	0.33188108	47.799912	
	0.32735527	-132.90143	0.8094735	-17.968276	0.33188108	47.799912	0.329673	47.284569	
	
0.249306681310373	0.33228056	46.538649	0.33613206	47.27769	0.80388931	-17.913105	0.3313472	-133.51496	
	0.33613206	47.27769	0.33436065	46.483029	0.33070158	-133.45734	0.80417753	-18.072566	
	0.80388931	-17.913105	0.33070158	-133.45734	0.33253444	46.769313	0.3362046	47.142507	
	0.3313472	-133.51496	0.80417753	-18.072566	0.3362046	47.142507	0.33436749	46.609833	
	
0.255065820271756	0.33614047	45.986069	0.34029258	46.640173	0.79965608	-18.047452	0.33583773	-134.15023	
	0.34029258	46.640173	0.33848227	45.923617	0.33547959	-134.1374	0.79906827	-18.23678	
	0.79965608	-18.047452	0.33547959	-134.1374	0.33607402	45.92512	0.34088048	46.494605	
	0.33583773	-134.15023	0.79906827	-18.23678	0.34088048	46.494605	0.33879143	46.023568	
	
0.260957998915036	0.34020461	45.223309	0.34413344	46.065196	0.79407311	-18.212262	0.33964293	-134.86079	
	0.34413344	46.065196	0.34258841	45.17561	0.33941249	-134.7371	0.79403586	-18.408755	
	0.79407311	-18.212262	0.33941249	-134.7371	0.34046041	45.394997	0.34452308	45.944472	
	0.33964293	-134.86079	0.79403586	-18.408755	0.34452308	45.944472	0.34221901	45.360486	
	
0.266986290539378	0.34414688	44.49673	0.34854875	45.264128	0.78935798	-18.328931	0.343195	-135.53802	
	0.34854875	45.264128	0.34625498	44.560156	0.34371914	-135.42777	0.78832785	-18.544948	
	0.78935798	-18.328931	0.34371914	-135.42777	0.34430427	44.693954	0.34842929	45.247877	
	0.343195	-135.53802	0.78832785	-18.544948	0.34842929	45.247877	0.34632282	44.636877	
	
0.273153839439064	0.34809607	43.976575	0.35257507	44.698294	0.7843101	-18.469987	0.34761918	-136.17641	
	0.35257507	44.698294	0.34992652	43.882763	0.34775447	-136.05241	0.78343455	-18.685014	
	0.7843101	-18.469987	0.34775447	-136.05241	0.34792654	44.044955	0.35244801	44.645402	
	0.34761918	-136.17641	0.78343455	-18.685014	0.35244801	44.645402	0.35050059	43.97819	
	
0.279463862543524	0.35181608	43.198979	0.35612601	44.159997	0.77891956	-18.624344	0.35111274	-136.77786	
	0.35612601	44.159997	0.35454216	43.229941	0.35113487	-136.691	0.77740571	-18.828979	
	0.77891956	-18.624344	0.35113487	-136.691	0.35259429	43.337342	0.35579967	43.97098	
	0.35111274	-136.77786	0.77740571	-18.828979	0.35579967	43.97098	0.35422759	43.345042	
	
0.285919651095252	0.35589214	42.626098	0.36032981	43.388053	0.77314959	-18.724916	0.35478964	-137.48141	
	0.36032981	43.388053	0.35788763	42.677696	0.35482693	-137.42819	0.77207448	-18.935554	
	0.77314959	-18.724916	0.35482693	-137.42819	0.35626823	42.778002	0.36001679	43.256638	
	0.35478964	-137.48141	0.77207448	-18.935554	0.36001679	43.256638	0.35839448	42.645313	
	
0.292524572366485	0.3598403	41.957822	0.36361357	42.854939	0.76763044	-18.862918	0.35859144	-138.22149	
	0.36361357	42.854939	0.36277401	41.990392	0.35876677	-138.14784	0.76684851	-19.028951	
	0.76763044	-18.862918	0.35876677	-138.14784	0.3605496	42.168294	0.36391936	42.589337	
	0.35859144	-138.22149	0.76684851	-19.028951	0.36391936	42.589337	0.36328517	42.14818	
	
0.299282071415539	0.36356096	41.379306	0.36744524	42.148892	0.76231687	-18.914747	0.36239576	-138.90605	
	0.36744524	42.148892	0.36483901	41.327231	0.36207611	-138.75742	0.76138649	-19.139528	
	0.76231687	-18.914747	0.36207611	-138.75742	0.36395414	41.57182	0.36770445	41.906681	
	0.36239576	-138.90605	0.76138649	-19.139528	0.36770445	41.906681	0.36662634	41.410591	
	
0.30619567288371	0.36695211	40.719649	0.37106907	41.562864	0.75651786	-19.017067	0.36588794	-139.53734	
	0.37106907	41.562864	0.36892108	40.626421	0.36593868	-139.35495	0.75650239	-19.207802	
	0.75651786	-19.017067	0.36593868	-139.35495	0.36757771	40.849401	0.37154151	41.300441	
	0.36588794	-139.53734	0.75650239	-19.207802	0.37154151	41.300441	0.36987958	40.80893	
	
0.313268982833699	0.37116365	40.102474	0.37524142	40.958681	0.75159701	-19.153414	0.37015897	-140.13576	
	0.37524142	40.958681	0.37259866	40.041882	0.37040163	-140.03136	0.75141646	-19.333665	
	0.75159701	-19.153414	0.37040163	-140.03136	0.37118521	40.239463	0.37535492	40.769086	
	0.37015897	-140.13576	0.75141646	-19.333665	0.37535492	40.769086	0.37325612	40.222013	
	
0.320505690630487	0.37347796	39.42283	0.37901816	40.390883	0.74631701	-19.191501	0.37422738	-140.66143	
	0.37901816	40.390883	0.37619383	39.390045	0.37351485	-140.57118	0.74620028	-19.448368	
	0.74631701	-19.191501	0.37351485	-140.57118	0.37421109	39.54683	0.37908511	40.227801	
	0.37422738	-140.66143	0.74620028	-19.448368	0.37908511	40.227801	0.37696588	39.509368	
	
0.327909570865677	0.37757729	38.708849	0.3831442	39.688402	0.7411653	-19.31036	0.37825401	-141.36392	
	0.3831442	39.688402	0.37970803	38.678214	0.3775747	-141.19076	0.73995583	-19.565472	
	0.7411653	-19.31036	0.3775747	-141.19076	0.37737321	38.920352	0.38274001	39.55627	
	0.37825401	-141.36392	0.73995583	-19.565472	0.38274001	39.55627	0.3803525	38.875417	
	
0.335484485326279	0.38030048	38.088272	0.38635214	39.153131	0.73575847	-19.369978	0.38072434	-141.98642	
	0.38635214	39.153131	0.38294024	38.167114	0.38132629	-141.76654	0.73481385	-19.563523	
