# MHz S MA R 50

0.1	0.30063125	51.798687	0.29711674	52.15917	0.84288716	-16.513985	0.29558941	-128.23579	
	0.29711674	52.15917	0.29997879	52.007271	0.29565334	-128.17479	0.84391527	-16.548408	
	0.84288716	-16.513985	0.29565334	-128.17479	0.30252369	51.953396	0.29810244	51.947853	
	0.29558941	-128.23579	0.84391527	-16.548408	0.29810244	51.947853	0.30053587	51.809225	
	
0.102310062021247	0.30580157	51.247791	0.3018422	51.529005	0.83778435	-16.691881	0.29981429	-128.98031	
	0.3018422	51.529005	0.3046079	51.29855	0.29943141	-128.88417	0.8388568	-16.734771	
	0.83778435	-16.691881	0.29943141	-128.88417	0.30644601	51.39584	0.30204138	51.437738	
	0.29981429	-128.98031	0.8388568	-16.734771	0.30204138	51.437738	0.30609479	51.23991	
	
0.104673487907914	0.31062662	50.622628	0.30603898	50.865391	0.83322483	-16.895417	0.30431564	-129.55069	
	0.30603898	50.865391	0.30934342	50.542511	0.30370323	-129.53787	0.83479141	-16.932034	
	0.83322483	-16.895417	0.30370323	-129.53787	0.31053513	50.753096	0.30650721	50.701019	
	0.30431564	-129.55069	0.83479141	-16.932034	0.30650721	50.701019	0.30927735	50.853324	
	
0.107091510398389	0.31432758	50.0591	0.31038753	50.27465	0.82866333	-17.115984	0.30797292	-130.13252	
	0.31038753	50.27465	0.31314913	49.947931	0.30817417	-130.145	0.82988222	-17.103772	
	0.82866333	-17.115984	0.30817417	-130.145	0.31456571	50.185758	0.31040747	50.069015	
	0.30797292	-130.13252	0.82988222	-17.103772	0.31040747	50.069015	0.31414219	50.173739	
	
0.109565390708082	0.31960174	49.606231	0.31494355	49.630848	0.82400603	-17.27511	0.31245861	-130.90027	
	0.31494355	49.630848	0.31749502	49.342178	0.31226448	-130.85516	0.82491874	-17.281936	
	0.82400603	-17.27511	0.31226448	-130.85516	0.31888882	49.523954	0.31443038	49.449588	
	0.31245861	-130.90027	0.82491874	-17.281936	0.31443038	49.449588	0.31899457	49.638451	
	
0.112096419187261	0.32328345	48.954096	0.3191347	48.962947	0.81906574	-17.46204	0.3167605	-131.47286	
	0.3191347	48.962947	0.32233412	48.863764	0.31698826	-131.36979	0.82011857	-17.532778	
	0.81906574	-17.46204	0.31698826	-131.36979	0.32277184	49.02505	0.31938831	48.859495	
	0.3167605	-131.47286	0.82011857	-17.532778	0.31938831	48.859495	0.32289972	49.051704	
	
0.114685915994083	0.32698152	48.182853	0.32294595	48.35822	0.8138933	-17.613653	0.32091602	-132.07364	
	0.32294595	48.35822	0.32552356	48.087327	0.3209516	-132.10307	0.81490972	-17.662829	
	0.8138933	-17.613653	0.3209516	-132.10307	0.3268003	48.454503	0.32356281	48.204074	
	0.32091602	-132.07364	0.81490972	-17.662829	0.32356281	48.204074	0.32707312	48.330047	
	
0.117335231783182	0.33112408	47.48476	0.32647089	47.728804	0.8095262	-17.822707	0.32484461	-132.66913	
	0.32647089	47.728804	0.33049108	47.501576	0.32480432	-132.7396	0.81041521	-17.854342	
	0.8095262	-17.822707	0.32480432	-132.7396	0.33133042	47.745552	0.32753139	47.604184	
	0.32484461	-132.66913	0.81041521	-17.854342	0.32753139	47.604184	0.33083482	47.760023	
	
0.120045748410147	0.33594364	46.931288	0.3308213	47.056908	0.80448755	-17.921859	0.32922851	-133.40805	
	0.3308213	47.056908	0.33412101	46.87948	0.32882887	-133.39482	0.80505564	-17.976817	
	0.80448755	-17.921859	0.32882887	-133.39482	0.33545389	47.184216	0.33120814	47.017242	
	0.32922851	-133.40805	0.80505564	-17.976817	0.33120814	47.017242	0.33491747	46.998735	
	
0.122818879652292	0.33976095	46.32126	0.33508479	46.393406	0.79950462	-18.107961	0.33297197	-133.99567	
	0.33508479	46.393406	0.33879247	46.273365	0.3331983	-133.9208	0.79998528	-18.148989	
	0.79950462	-18.107961	0.3331983	-133.9208	0.33989959	46.511555	0.33564453	46.364496	
	0.33297197	-133.99567	0.79998528	-18.148989	0.33564453	46.364496	0.33967118	46.48767	
	
0.125656071946061	0.34429123	45.691321	0.33935532	45.788158	0.79399578	-18.299797	0.33730162	-134.71313	
	0.33935532	45.788158	0.34205985	45.699616	0.33673416	-134.65242	0.79520121	-18.328928	
	0.79399578	-18.299797	0.33673416	-134.65242	0.3437894	45.790557	0.33932933	45.733172	
	0.33730162	-134.71313	0.79520121	-18.328928	0.33932933	45.733172	0.34393852	45.759784	
	
0.128558805141477	0.34783953	45.078781	0.34287181	45.104815	0.78889076	-18.43351	0.34083125	-135.34768	
	0.34287181	45.104815	0.34686437	45.087356	0.34069187	-135.21209	0.79036819	-18.476238	
	0.78889076	-18.43351	0.34069187	-135.21209	0.3479673	45.162066	0.34385913	45.096542	
	0.34083125	-135.34768	0.79036819	-18.476238	0.34385913	45.096542	0.34701142	45.21552	
	
0.131528593274019	0.35165972	44.395252	0.34726072	44.497222	0.78382512	-18.576339	0.3452688	-135.93554	
	0.34726072	44.497222	0.35065099	44.546143	0.34484235	-135.96902	0.78475892	-18.628023	
	0.78382512	-18.576339	0.34484235	-135.96902	0.35172363	44.567125	0.34766057	44.37964	
	0.3452688	-135.93554	0.78475892	-18.628023	0.34766057	44.37964	0.35080385	44.618005	
	
0.134566985354323	0.35601307	43.634826	0.35090929	43.848777	0.77845669	-18.688414	0.3488934	-136.65473	
	0.35090929	43.848777	0.35494216	43.755883	0.34828022	-136.52443	0.77931967	-18.741566	
	0.77845669	-18.688414	0.34828022	-136.52443	0.35622064	43.923012	0.35124432	43.748541	
	0.3488934	-136.65473	0.77931967	-18.741566	0.35124432	43.748541	0.35554836	44.015701	
	
0.13767556617613	0.35970801	43.169114	0.35473942	43.255626	0.7735711	-18.839703	0.35249688	-137.36682	
	0.35473942	43.255626	0.35896302	43.161472	0.35269095	-137.19788	0.77427361	-18.8543	
	0.7735711	-18.839703	0.35269095	-137.19788	0.35971525	43.256418	0.35559845	43.117772	
	0.35249688	-137.36682	0.77427361	-18.8543	0.35559845	43.117772	0.35928266	43.348771	
	
0.140855957142902	0.36327774	42.433047	0.35845737	42.660376	0.76820825	-18.951908	0.3566724	-138.05488	
	0.35845737	42.660376	0.36331198	42.417635	0.35569103	-137.8913	0.76820863	-18.988848	
	0.76820825	-18.951908	0.35569103	-137.8913	0.3627764	42.531912	0.35869116	42.391541	
	0.3566724	-138.05488	0.76820863	-18.988848	0.35869116	42.391541	0.36373366	42.70926	
	
0.144109817113524	0.367208	41.800903	0.36221313	41.984402	0.76236755	-19.043221	0.35990517	-138.60598	
	0.36221313	41.984402	0.36646576	41.864051	0.35948881	-138.57401	0.7634943	-19.092029	
	0.76236755	-19.043221	0.35948881	-138.57401	0.36712727	41.985255	0.3625807	41.788329	
	0.35990517	-138.60598	0.7634943	-19.092029	0.3625807	41.788329	0.36764907	42.025153	
	
0.147438843267552	0.37137428	41.247835	0.3662524	41.290938	0.75695283	-19.175248	0.36328026	-139.24009	
	0.3662524	41.290938	0.37063827	41.248732	0.36370094	-139.17873	0.75799821	-19.248098	
	0.75695283	-19.175248	0.36370094	-139.17873	0.37130705	41.5906	0.36618036	41.159347	
	0.36328026	-139.24009	0.75799821	-19.248098	0.36618036	41.159347	0.37063224	41.447864	
	
0.150844771990442	0.3750739	40.589268	0.36945596	40.604157	0.75192641	-19.235231	0.36720378	-139.94059	
	0.36945596	40.604157	0.37408204	40.554572	0.36698303	-139.88482	0.75232719	-19.327867	
	0.75192641	-19.235231	0.36698303	-139.88482	0.37510591	40.690683	0.36982688	40.562816	
	0.36720378	-139.94059	0.75232719	-19.327867	0.36982688	40.562816	0.37405539	40.81312	
	
0.154329379779229	0.3790434	39.9575	0.37329218	39.988237	0.74678614	-19.36343	0.37063827	-140.55641	
	0.37329218	39.988237	0.37771902	39.978222	0.37077372	-140.59926	0.74744119	-19.392182	
	0.74678614	-19.36343	0.37077372	-140.59926	0.37878802	40.23016	0.37396258	39.833133	
	0.37063827	-140.55641	0.74744119	-19.392182	0.37396258	39.833133	0.37862262	40.159813	
	
0.157894484169135	0.38250482	39.415633	0.37677515	39.411598	0.74134899	-19.427779	0.374545	-141.22911	
	0.37677515	39.411598	0.38159789	39.349813	0.37434586	-141.19418	0.74239188	-19.521192	
	0.74134899	-19.427779	0.37434586	-141.19418	0.3819215	39.606097	0.37726661	39.221078	
	0.374545	-141.22911	0.74239188	-19.521192	0.37726661	39.221078	0.38166677	39.519428	
	
0.16154194468157	0.38612006	38.80111	0.38133561	38.760231	0.73551696	-19.519583	0.37822182	-141.86596	
	0.38133561	38.760231	0.38492025	38.860159	0.37808818	-141.80701	0.73741251	-19.602315	
	0.73551696	-19.519583	0.37808818	-141.80701	0.38499394	38.938619	0.38105822	38.761759	
	0.37822182	-141.86596	0.73741251	-19.602315	0.38105822	38.761759	0.38537165	38.948312	
	
0.165273663794043	0.38906022	38.17341	0.3841493	38.112038	0.73047822	-19.592509	0.38140356	-142.5418	
	0.3841493	38.112038	0.3887125	38.170009	0.38102686	-142.43491	0.73153264	-19.649549	
	0.73047822	-19.592509	0.38102686	-142.43491	0.38873755	38.29623	0.38420575	37.990255	
	0.38140356	-142.5418	0.73153264	-19.649549	0.38420575	37.990255	0.38943053	38.304414	
	
0.169091587932473	0.39268663	37.553221	0.38705814	37.470321	0.72519983	-19.635782	0.38433643	-143.10515	
	0.38705814	37.470321	0.39209243	37.645688	0.3846707	-143.11498	0.72615604	-19.719812	
	0.72519983	-19.635782	0.3846707	-143.11498	0.39332889	37.66486	0.38681648	37.355489	
	0.38433643	-143.10515	0.72615604	-19.719812	0.38681648	37.355489	0.39267688	37.687078	
	
0.172997708486424	0.3957044	36.926194	0.39089212	36.854155	0.72016642	-19.670627	0.38747281	-143.77597	
	0.39089212	36.854155	0.39482965	36.890454	0.38741187	-143.6797	0.72007979	-19.802725	
	0.72016642	-19.670627	0.38741187	-143.6797	0.3961154	36.998925	0.39079885	36.752359	
	0.38747281	-143.77597	0.72007979	-19.802725	0.39079885	36.752359	0.39509885	37.112594	
	
0.176994062847797	0.39943547	36.327632	0.39398857	36.223194	0.71433153	-19.721224	0.39129554	-144.47242	
	0.39398857	36.223194	0.39913279	36.368344	0.39083245	-144.37097	0.71539362	-19.781677	
	0.71433153	-19.721224	0.39083245	-144.37097	0.3998096	36.398304	0.39456056	36.111773	
	0.39129554	-144.47242	0.71539362	-19.781677	0.39456056	36.111773	0.39815551	36.465223	
	
0.181082735473506	0.40253016	35.739535	0.39668575	35.631466	0.70960927	-19.738153	0.39381433	-145.04278	
	0.39668575	35.631466	0.40228836	35.733943	0.39405966	-144.95806	0.71038302	-19.830555	
	0.70960927	-19.738153	0.39405966	-144.95806	0.40201784	35.874536	0.39717046	35.472633	
	0.39381433	-145.04278	0.71038302	-19.830555	0.39717046	35.472633	0.40213045	35.900425	
	
0.185265858972714	0.40506887	35.194703	0.39996251	34.989421	0.70421915	-19.798159	0.39714119	-145.64711	
	0.39996251	34.989421	0.40532479	35.170753	0.39753811	-145.57979	0.70505357	-19.861502	
	0.70421915	-19.798159	0.39753811	-145.57979	0.40516037	35.274265	0.40018735	34.954624	
	0.39714119	-145.64711	0.70505357	-19.861502	0.40018735	34.954624	0.40469455	35.304235	
	
0.18954561521918	0.40889186	34.54796	0.40340302	34.462964	0.69892715	-19.809262	0.40093732	-146.26198	
	0.40340302	34.462964	0.40811939	34.570815	0.40016759	-146.15339	0.6998103	-19.87255	
	0.69892715	-19.809262	0.40016759	-146.15339	0.40832241	34.63922	0.40378409	34.342528	
	0.40093732	-146.26198	0.6998103	-19.87255	0.40378409	34.342528	0.40825233	34.761085	
	
0.193924236489297	0.41191325	33.964297	0.40557057	33.814602	0.69347497	-19.831477	0.40302168	-146.87849	
	0.40557057	33.814602	0.41142765	33.917704	0.40370996	-146.79895	0.694547	-19.870529	
	0.69347497	-19.831477	0.40370996	-146.79895	0.41140572	34.085514	0.40647183	33.695571	
	0.40302168	-146.87849	0.694547	-19.870529	0.40647183	33.695571	0.41164943	34.110047	
	
0.19840400662643	0.4147995	33.413852	0.4094056	33.126201	0.68845665	-19.84036	0.40685034	-147.58356	
	0.4094056	33.126201	0.41453695	33.42296	0.40612749	-147.5137	0.68940844	-19.87506	
	0.68845665	-19.84036	0.40612749	-147.5137	0.41418313	33.444188	0.40999521	33.020408	
	0.40685034	-147.58356	0.68940844	-19.87506	0.40999521	33.020408	0.41441632	33.410695	
	
0.202987262232139	0.41776973	32.833233	0.41176394	32.561372	0.68389217	-19.817346	0.4089505	-148.17256	
	0.41176394	32.561372	0.41748264	32.834531	0.40882733	-148.13258	0.68426784	-19.871091	
	0.68389217	-19.817346	0.40882733	-148.13258	0.41773742	32.876615	0.41218039	32.4996	
	0.4089505	-148.17256	0.68426784	-19.871091	0.41218039	32.4996	0.41774142	32.954073	
	
0.207676393884933	0.41996134	32.146193	0.41469328	31.951463	0.67869026	-19.805319	0.41146349	-148.76006	
	0.41469328	31.951463	0.41998609	32.190594	0.41169208	-148.71976	0.67904695	-19.838744	
	0.67869026	-19.805319	0.41169208	-148.71976	0.42039499	32.381931	0.41461247	31.862137	
	0.41146349	-148.76006	0.67904695	-19.838744	0.41461247	31.862137	0.42047118	32.426445	
	
0.212473847387164	0.42330878	31.58084	0.41705077	31.407895	0.67368202	-19.750778	0.41378928	-149.38379	
	0.41705077	31.407895	0.42257053	31.616588	0.41376464	-149.27049	0.67438995	-19.800587	
	0.67368202	-19.750778	0.41376464	-149.27049	0.42264999	31.667772	0.41712916	31.279399	
	0.41378928	-149.38379	0.67438995	-19.800587	0.41712916	31.279399	0.42271247	31.760354	
	
0.217382125040737	0.42577759	31.134649	0.41962335	30.819011	0.66933576	-19.72408	0.4173434	-149.96788	
	0.41962335	30.819011	0.42581345	31.10854	0.41703972	-149.91048	0.66979635	-19.821446	
	0.66933576	-19.72408	0.41703972	-149.91048	0.42555403	31.132294	0.42049996	30.700395	
	0.4173434	-149.96788	0.66979635	-19.821446	0.42049996	30.700395	0.42560685	31.205658	
	
0.222403786952283	0.42851303	30.501248	0.42208427	30.232292	0.66410524	-19.727556	0.41945699	-150.56158	
	0.42208427	30.232292	0.42837459	30.541458	0.41895892	-150.51525	0.6646652	-19.707199	
	0.66410524	-19.727556	0.41895892	-150.51525	0.42804219	30.613552	0.42251281	30.060131	
	0.41945699	-150.56158	0.6646652	-19.707199	0.42251281	30.060131	0.42809013	30.622318	
	
0.227541452368483	0.4316205	29.989925	0.42507866	29.6778	0.65954921	-19.647752	0.4221076	-151.15125	
	0.42507866	29.6778	0.43084893	30.033658	0.42157626	-151.03488	0.65986828	-19.748707	
	0.65954921	-19.647752	0.42157626	-151.03488	0.43053477	30.00816	0.42514015	29.625915	
	0.4221076	-151.15125	0.65986828	-19.748707	0.42514015	29.625915	0.43086065	30.126963	
	
0.232797801042241	0.43321277	29.425502	0.42763236	29.115929	0.65448881	-19.586865	0.42386538	-151.71432	
	0.42763236	29.115929	0.43336498	29.470591	0.42421476	-151.65654	0.65534303	-19.674342	
	0.65448881	-19.586865	0.42421476	-151.65654	0.43308638	29.417952	0.4275186	29.007804	
	0.42386538	-151.71432	0.65534303	-19.674342	0.4275186	29.007804	0.43312393	29.523999	
	
0.238175574630416	0.43583977	28.851397	0.42957148	28.588315	0.65025585	-19.508693	0.42673632	-152.25566	
	0.42957148	28.588315	0.43547001	28.896225	0.42651539	-152.21755	0.65045903	-19.578509	
	0.65025585	-19.508693	0.42651539	-152.21755	0.4358691	28.952315	0.4300823	28.447376	
	0.42673632	-152.25566	0.65045903	-19.578509	0.4300823	28.447376	0.43594774	29.002354	
	
0.24367757812384	0.43816213	28.379459	0.43231201	27.996282	0.64554632	-19.436166	0.4288646	-152.83956	
	0.43231201	27.996282	0.43743893	28.3316	0.42862795	-152.7756	0.64600023	-19.536332	
	0.64554632	-19.436166	0.42862795	-152.7756	0.43772144	28.426835	0.43171978	27.85756	
	0.4288646	-152.83956	0.64600023	-19.536332	0.43171978	27.85756	0.43710709	28.485549	
	
0.249306681310373	0.44096916	27.808944	0.43394963	27.459382	0.64056023	-19.386751	0.43102454	-153.43831	
	0.43394963	27.459382	0.44085875	27.842418	0.43104123	-153.35528	0.64169656	-19.413388	
	0.64056023	-19.386751	0.43104123	-153.35528	0.44066524	27.976015	0.43429075	27.314419	
	0.43102454	-153.43831	0.64169656	-19.413388	0.43429075	27.314419	0.43993076	27.922691	
	
0.255065820271756	0.44249252	27.339523	0.43619627	26.896244	0.63666822	-19.307332	0.43329014	-153.9574	
	0.43619627	26.896244	0.44287616	27.356155	0.43279494	-153.91106	0.63715853	-19.327873	
	0.63666822	-19.307332	0.43279494	-153.91106	0.44207293	27.360922	0.4369249	26.780135	
	0.43329014	-153.9574	0.63715853	-19.327873	0.4369249	26.780135	0.44224668	27.455574	
	
0.260957998915036	0.44459788	26.757994	0.4378584	26.424674	0.63189871	-19.182228	0.43489218	-154.54217	
	0.4378584	26.424674	0.44529378	26.790092	0.43504892	-154.42415	0.63269597	-19.280436	
	0.63189871	-19.182228	0.43504892	-154.42415	0.44473219	26.856632	0.43839298	26.276365	
	0.43489218	-154.54217	0.63269597	-19.280436	0.43839298	26.276365	0.44460482	26.843586	
	
0.266986290539378	0.44703467	26.254852	0.44026852	25.858333	0.62817677	-19.058729	0.4371697	-155.09623	
	0.44026852	25.858333	0.44688884	26.347002	0.43742828	-155.02052	0.62831829	-19.178281	
	0.62817677	-19.058729	0.43742828	-155.02052	0.44701762	26.382494	0.44019919	25.720536	
	0.4371697	-155.09623	0.62831829	-19.178281	0.44019919	25.720536	0.44686572	26.403073	
	
0.273153839439064	0.44918151	25.840322	0.4420747	25.335349	0.62414831	-18.950599	0.43905231	-155.60774	
	0.4420747	25.335349	0.4485752	25.747522	0.43920171	-155.53347	0.62453309	-19.069565	
	0.62414831	-18.950599	0.43920171	-155.53347	0.44782632	25.841004	0.44201072	25.229725	
	0.43905231	-155.60774	0.62453309	-19.069565	0.44201072	25.229725	0.44886711	25.868211	
	
0.279463862543524	0.45111264	25.228474	0.44383165	24.860313	0.6202711	-18.855586	0.4407261	-156.06145	
	0.44383165	24.860313	0.45157411	25.319559	0.44083121	-156.02796	0.61999931	-18.999537	
	0.6202711	-18.855586	0.44083121	-156.02796	0.45054707	25.359229	0.44376367	24.718768	
	0.4407261	-156.06145	0.61999931	-18.999537	0.44376367	24.718768	0.45038406	25.453886	
	
0.285919651095252	0.45301869	24.833846	0.44541486	24.301046	0.61605216	-18.735141	0.44232269	-156.67448	
	0.44541486	24.301046	0.45221065	24.881526	0.44217893	-156.60051	0.61632334	-18.797576	
	0.61605216	-18.735141	0.44217893	-156.60051	0.45257793	24.931911	0.44562825	24.198518	
	0.44232269	-156.67448	0.61632334	-18.797576	0.44562825	24.198518	0.45267469	24.957855	
	
0.292524572366485	0.45502119	24.329732	0.44737974	23.863386	0.61221619	-18.625186	0.44379803	-157.23889	
	0.44737974	23.863386	0.45485426	24.38509	0.44428884	-157.1824	0.61270412	-18.676758	
	0.61221619	-18.625186	0.44428884	-157.1824	0.45447478	24.379161	0.44732587	23.634847	
	0.44379803	-157.23889	0.61270412	-18.676758	0.44732587	23.634847	0.4549666	24.542898	
	
0.299282071415539	0.45639804	23.920384	0.44884688	23.310088	0.60829833	-18.4788	0.4458989	-157.79436	
	0.44884688	23.310088	0.45582966	23.935336	0.445406	-157.64248	0.6087982	-18.563774	
	0.60829833	-18.4788	0.445406	-157.64248	0.45652792	24.029385	0.44913421	23.098519	
	0.4458989	-157.79436	0.6087982	-18.563774	0.44913421	23.098519	0.45610123	24.021615	
	
0.30619567288371	0.45857197	23.438226	0.45058693	22.88374	0.60481842	-18.360274	0.44747345	-158.25361	
	0.45058693	22.88374	0.45729349	23.445171	0.44708362	-158.16618	0.6053994	-18.439431	
	0.60481842	-18.360274	0.44708362	-158.16618	0.4581847	23.540277	0.4509852	22.680377	
	0.44747345	-158.25361	0.6053994	-18.439431	0.4509852	22.680377	0.45854275	23.54303	
	
0.313268982833699	0.45994756	22.987646	0.45220905	22.398039	0.60093664	-18.218986	0.44918123	-158.71978	
	0.45220905	22.398039	0.45907272	22.930812	0.44979477	-158.62761	0.6016576	-18.278176	
	0.60093664	-18.218986	0.44979477	-158.62761	0.45969469	23.059235	0.45294229	22.252886	
	0.44918123	-158.71978	0.6016576	-18.278176	0.45294229	22.252886	0.45937859	23.123785	
	
0.320505690630487	0.46083159	22.500627	0.45408268	21.997301	0.59721016	-18.038783	0.45105735	-159.12133	
	0.45408268	21.997301	0.46101683	22.436645	0.45028109	-159.09151	0.59820863	-18.18878	
	0.59721016	-18.038783	0.45028109	-159.09151	0.4609522	22.49514	0.45417584	21.81369	
	0.45105735	-159.12133	0.59820863	-18.18878	0.45417584	21.81369	0.46117212	22.545635	
	
0.327909570865677	0.46292488	21.996584	0.45626664	21.558146	0.59408503	-17.908854	0.45314824	-159.66966	
	0.45626664	21.558146	0.4623153	22.033831	0.45244658	-159.52112	0.59407061	-18.011286	
	0.59408503	-17.908854	0.45244658	-159.52112	0.46217541	22.095735	0.45644665	21.355628	
	0.45314824	-159.66966	0.59407061	-18.011286	0.45644665	21.355628	0.46219785	22.097594	
	
0.335484485326279	0.46416966	21.595506	0.45768167	21.073532	0.59052954	-17.755419	0.45376636	-160.09701	
	0.45768167	21.073532	0.46384209	21.587826	0.453964	-159.94809	0.5909073	-17.828882	
	0.59052954	-17.755419	0.453964	-159.94809	0.46362468	21.688841	0.45732199	20.911084	
