# MHz S MA R 50

0.1	0.017309027	88.735909	0.019359778	86.940517	0.99396672	-1.0970996	0.01757707	-93.938592	
	0.019359778	86.940517	0.015664889	91.233851	0.018057817	-92.827049	0.99462573	-1.0714165	
	0.99396672	-1.0970996	0.018057817	-92.827049	0.019885239	91.318086	0.019152724	88.505664	
	0.01757707	-93.938592	0.99462573	-1.0714165	0.019152724	88.505664	0.016862142	89.682108	
	
0.102310062021247	0.018678974	90.891467	0.019628004	85.934533	0.99409084	-1.1206176	0.018246524	-92.842878	
	0.019628004	85.934533	0.016793864	90.036312	0.018183533	-93.062307	0.99455302	-1.1110105	
	0.99409084	-1.1206176	0.018183533	-93.062307	0.019760504	92.788199	0.019507691	87.046307	
	0.018246524	-92.842878	0.99455302	-1.1110105	0.019507691	87.046307	0.018334109	89.546838	
	
0.104673487907914	0.019457017	88.549504	0.019969038	86.221509	0.99436782	-1.1715843	0.018367004	-92.863608	
	0.019969038	86.221509	0.017421731	88.347755	0.018577153	-93.385039	0.99529514	-1.1348734	
	0.99436782	-1.1715843	0.018577153	-93.385039	0.020198956	91.374157	0.020092207	86.632927	
	0.018367004	-92.863608	0.99529514	-1.1348734	0.020092207	86.632927	0.018371579	95.537592	
	
0.107091510398389	0.01948214	90.303676	0.02041052	86.545247	0.99435559	-1.1871056	0.019066668	-93.225262	
	0.02041052	86.545247	0.016950696	88.268363	0.019266701	-93.123752	0.9946033	-1.159973	
	0.99435559	-1.1871056	0.019266701	-93.123752	0.020968244	91.543922	0.020430536	86.368969	
	0.019066668	-93.225262	0.9946033	-1.159973	0.020430536	86.368969	0.018982763	91.942688	
	
0.109565390708082	0.021050727	93.267181	0.021126957	87.159479	0.99439819	-1.2143477	0.019573214	-93.16764	
	0.021126957	87.159479	0.017506386	89.416291	0.019477242	-93.486734	0.99466362	-1.1807127	
	0.99439819	-1.2143477	0.019477242	-93.486734	0.0206434	92.674224	0.021255336	86.510318	
	0.019573214	-93.16764	0.99466362	-1.1807127	0.021255336	86.510318	0.019795296	91.349837	
	
0.112096419187261	0.020811212	92.607088	0.021476461	86.636498	0.99412706	-1.2143229	0.020022779	-93.27298	
	0.021476461	86.636498	0.01811145	91.680678	0.019877469	-92.454289	0.99514617	-1.221779	
	0.99412706	-1.2143229	0.019877469	-92.454289	0.021070858	95.95027	0.021455195	87.110874	
	0.020022779	-93.27298	0.99514617	-1.221779	0.021455195	87.110874	0.01992372	95.125583	
	
0.114685915994083	0.020810331	90.142394	0.021951888	86.292657	0.99447449	-1.2173086	0.020105545	-93.904904	
	0.021951888	86.292657	0.017969519	90.786346	0.020347211	-92.486709	0.99472053	-1.2387781	
	0.99447449	-1.2173086	0.020347211	-92.486709	0.021814375	96.855601	0.022018997	86.315161	
	0.020105545	-93.904904	0.99472053	-1.2387781	0.022018997	86.315161	0.020483227	92.58887	
	
0.117335231783182	0.020344856	88.575653	0.022314544	86.908033	0.99405717	-1.308619	0.021005696	-93.231119	
	0.022314544	86.908033	0.019207924	89.036334	0.02100282	-93.544525	0.99470752	-1.2725718	
	0.99405717	-1.308619	0.02100282	-93.544525	0.021631505	93.099296	0.022732036	86.817503	
	0.021005696	-93.231119	0.99470752	-1.2725718	0.022732036	86.817503	0.019980042	93.024724	
	
0.120045748410147	0.022445533	87.709865	0.023094907	87.222926	0.99437229	-1.3081327	0.021213286	-94.107726	
	0.023094907	87.222926	0.018962197	89.812975	0.021199049	-93.254515	0.99451014	-1.260488	
	0.99437229	-1.3081327	0.021199049	-93.254515	0.0225422	90.719143	0.022849463	86.172502	
	0.021213286	-94.107726	0.99451014	-1.260488	0.022849463	86.172502	0.020755036	89.367106	
	
0.122818879652292	0.02196657	90.651415	0.023317668	86.524855	0.99479276	-1.3235667	0.021959681	-93.754939	
	0.023317668	86.524855	0.01988081	90.438314	0.021851949	-93.527625	0.99470998	-1.3078642	
	0.99479276	-1.3235667	0.021851949	-93.527625	0.023608343	93.128506	0.023710786	86.358767	
	0.021959681	-93.754939	0.99470998	-1.3078642	0.023710786	86.358767	0.021340121	92.006698	
	
0.125656071946061	0.023248623	89.866302	0.023861775	86.273401	0.99408795	-1.4055005	0.022230254	-93.40757	
	0.023861775	86.273401	0.020101839	90.611039	0.022335296	-94.032712	0.99448435	-1.3369058	
	0.99408795	-1.4055005	0.022335296	-94.032712	0.023727937	90.685915	0.023960694	86.253878	
	0.022230254	-93.40757	0.99448435	-1.3369058	0.023960694	86.253878	0.022369006	91.820798	
	
0.128558805141477	0.023159335	89.309785	0.024569165	87.053017	0.99358339	-1.4115912	0.022632748	-93.559245	
	0.024569165	87.053017	0.02096346	87.375302	0.022919506	-94.041602	0.9949333	-1.3767095	
	0.99358339	-1.4115912	0.022919506	-94.041602	0.023039279	92.018381	0.024643633	87.280115	
	0.022632748	-93.559245	0.9949333	-1.3767095	0.024643633	87.280115	0.021937282	93.219187	
	
0.131528593274019	0.024117922	88.12261	0.025234745	86.05925	0.99400035	-1.4668882	0.023293174	-93.652136	
	0.025234745	86.05925	0.02085674	90.232823	0.023363704	-93.665736	0.99495489	-1.3987266	
	0.99400035	-1.4668882	0.023363704	-93.665736	0.024763033	91.266376	0.024992919	86.048915	
	0.023293174	-93.652136	0.99495489	-1.3987266	0.024992919	86.048915	0.02247386	94.685775	
	
0.134566985354323	0.02427049	87.239325	0.025787848	85.423265	0.99365583	-1.5049823	0.023867229	-94.03837	
	0.025787848	85.423265	0.021842498	89.096624	0.023548754	-93.728981	0.994787	-1.4647983	
	0.99365583	-1.5049823	0.023548754	-93.728981	0.025161054	89.019498	0.025932024	86.520945	
	0.023867229	-94.03837	0.994787	-1.4647983	0.025932024	86.520945	0.024412475	93.326863	
	
0.13767556617613	0.024609774	88.11339	0.026264424	85.909879	0.993331	-1.5437144	0.024387617	-93.758754	
	0.026264424	85.909879	0.02206189	89.199896	0.024350238	-93.89632	0.99462364	-1.4278875	
	0.993331	-1.5437144	0.024350238	-93.89632	0.025550465	91.185965	0.026386113	86.34042	
	0.024387617	-93.758754	0.99462364	-1.4278875	0.026386113	86.34042	0.024697791	92.011777	
	
0.140855957142902	0.024405962	88.46246	0.026862459	86.535608	0.99383245	-1.5783825	0.024816667	-94.069418	
	0.026862459	86.535608	0.023167569	85.014937	0.025128334	-94.163163	0.99380872	-1.5275902	
	0.99383245	-1.5783825	0.025128334	-94.163163	0.026499528	88.297191	0.027174235	85.614247	
	0.024816667	-94.069418	0.99380872	-1.5275902	0.027174235	85.614247	0.024958017	89.898486	
	
0.144109817113524	0.02595363	86.093087	0.027479059	86.426147	0.99319911	-1.5879079	0.025480395	-94.744864	
	0.027479059	86.426147	0.023126796	87.367529	0.025486086	-93.966942	0.99408006	-1.5464053	
	0.99319911	-1.5879079	0.025486086	-93.966942	0.026906103	89.556045	0.027702479	85.796418	
	0.025480395	-94.744864	0.99408006	-1.5464053	0.027702479	85.796418	0.025571258	90.021102	
	
0.147438843267552	0.025970265	87.618162	0.028224265	86.472994	0.99259547	-1.6317802	0.026037292	-94.079131	
	0.028224265	86.472994	0.023867564	86.859815	0.026215547	-94.323362	0.99398613	-1.6252792	
	0.99259547	-1.6317802	0.026215547	-94.323362	0.027245945	91.333038	0.027992605	85.726182	
	0.026037292	-94.079131	0.99398613	-1.6252792	0.027992605	85.726182	0.025924786	89.349141	
	
0.150844771990442	0.027173687	85.373662	0.028857944	86.070076	0.99295582	-1.66207	0.026672942	-94.661777	
	0.028857944	86.070076	0.024904064	86.475595	0.026769231	-94.288292	0.99400421	-1.6164906	
	0.99295582	-1.66207	0.026769231	-94.288292	0.027968292	88.156456	0.028781614	86.013432	
	0.026672942	-94.661777	0.99400421	-1.6164906	0.028781614	86.013432	0.025660025	90.200107	
	
0.154329379779229	0.028017357	86.954434	0.029523896	86.055658	0.9935679	-1.7002199	0.027334771	-94.971087	
	0.029523896	86.055658	0.026192712	87.853426	0.027265316	-94.917946	0.99436242	-1.6611415	
	0.9935679	-1.7002199	0.027265316	-94.917946	0.028882827	90.410147	0.029606264	85.301076	
	0.027334771	-94.971087	0.99436242	-1.6611415	0.029606264	85.301076	0.027329639	89.866283	
	
0.157894484169135	0.028523387	87.206664	0.030092311	86.305119	0.99376639	-1.7280956	0.028020387	-94.604813	
	0.030092311	86.305119	0.026081995	87.120479	0.027982992	-94.684029	0.99443478	-1.7380169	
	0.99376639	-1.7280956	0.027982992	-94.684029	0.029608787	90.638165	0.030026582	85.371113	
	0.028020387	-94.604813	0.99443478	-1.7380169	0.030026582	85.371113	0.028018722	91.843191	
	
0.16154194468157	0.029234711	88.721184	0.03086553	85.332761	0.99219104	-1.7935824	0.02881746	-94.579872	
	0.03086553	85.332761	0.026133288	88.359988	0.028272324	-94.735593	0.99442888	-1.7865844	
	0.99219104	-1.7935824	0.028272324	-94.735593	0.029222961	88.998736	0.030946735	85.955559	
	0.02881746	-94.579872	0.99442888	-1.7865844	0.030946735	85.955559	0.027404224	89.148684	
	
0.165273663794043	0.029638529	87.848226	0.031499042	85.932463	0.99261218	-1.8369588	0.029445528	-94.956827	
	0.031499042	85.932463	0.027446212	85.323467	0.029130992	-94.778906	0.99351552	-1.8045621	
	0.99261218	-1.8369588	0.029130992	-94.778906	0.030182018	88.531486	0.031351438	85.547433	
	0.029445528	-94.956827	0.99351552	-1.8045621	0.031351438	85.547433	0.029094971	88.687289	
	
0.169091587932473	0.030592735	87.682949	0.032386514	85.897143	0.99326542	-1.8580606	0.029934963	-94.797754	
	0.032386514	85.897143	0.028295088	88.810044	0.029841724	-94.558479	0.99390726	-1.8410519	
	0.99326542	-1.8580606	0.029841724	-94.558479	0.03205763	87.975887	0.032182381	85.506604	
	0.029934963	-94.797754	0.99390726	-1.8410519	0.032182381	85.506604	0.029728759	88.634366	
	
0.172997708486424	0.030675786	87.204275	0.03269989	85.900739	0.99315392	-1.9249508	0.030350597	-95.227555	
	0.03269989	85.900739	0.027744804	87.297648	0.030648646	-94.729881	0.99330311	-1.8887397	
	0.99315392	-1.9249508	0.030648646	-94.729881	0.032747405	86.672031	0.032673369	85.576451	
	0.030350597	-95.227555	0.99330311	-1.8887397	0.032673369	85.576451	0.030334566	89.203381	
	
0.176994062847797	0.032251067	88.68	0.033780778	85.825378	0.9932551	-1.9540676	0.031478317	-94.844011	
	0.033780778	85.825378	0.029979346	86.210048	0.031391541	-94.549329	0.99373405	-1.9086162	
	0.9932551	-1.9540676	0.031391541	-94.549329	0.033273155	88.686568	0.033575704	85.351561	
	0.031478317	-94.844011	0.99373405	-1.9086162	0.033575704	85.351561	0.030172166	90.615966	
	
0.181082735473506	0.032871517	86.972036	0.034430342	85.212905	0.9927444	-1.9988622	0.031890681	-95.286503	
	0.034430342	85.212905	0.030162675	84.526899	0.032129205	-95.330387	0.99321575	-1.9659965	
	0.9927444	-1.9988622	0.032129205	-95.330387	0.033329344	89.344287	0.034470764	85.176396	
	0.031890681	-95.286503	0.99321575	-1.9659965	0.034470764	85.176396	0.032294679	88.987678	
	
0.185265858972714	0.032763875	87.582801	0.035026234	85.41403	0.99288119	-2.0508064	0.032576595	-95.187139	
	0.035026234	85.41403	0.031418739	87.445385	0.032408149	-95.123914	0.99321154	-2.0047105	
	0.99288119	-2.0508064	0.032408149	-95.123914	0.033588225	89.541577	0.035269205	85.558135	
	0.032576595	-95.187139	0.99321154	-2.0047105	0.035269205	85.558135	0.031738626	87.969437	
	
0.18954561521918	0.033868726	86.394774	0.036001635	85.276314	0.99280143	-2.1128202	0.033275122	-94.5755	
	0.036001635	85.276314	0.030626207	86.43534	0.033457146	-95.387775	0.9938907	-2.0068762	
	0.99280143	-2.1128202	0.033457146	-95.387775	0.034730503	89.001726	0.036068269	85.232171	
	0.033275122	-94.5755	0.9938907	-2.0068762	0.036068269	85.232171	0.032000314	89.648908	
	
0.193924236489297	0.035073453	85.451607	0.036832665	85.37213	0.99170187	-2.1680184	0.034098226	-95.417015	
	0.036832665	85.37213	0.031887185	84.895892	0.034256277	-95.451241	0.99307642	-2.0794478	
	0.99170187	-2.1680184	0.034256277	-95.451241	0.036269939	89.243424	0.036866229	84.746822	
	0.034098226	-95.417015	0.99307642	-2.0794478	0.036866229	84.746822	0.034344556	88.592656	
	
0.19840400662643	0.035413234	87.207832	0.037811302	84.662227	0.9928347	-2.2163068	0.035240594	-95.481843	
	0.037811302	84.662227	0.033489393	87.440081	0.034804827	-95.428371	0.99376265	-2.1596572	
	0.9928347	-2.2163068	0.034804827	-95.428371	0.037370862	88.633423	0.038130624	85.137525	
	0.035240594	-95.481843	0.99376265	-2.1596572	0.038130624	85.137525	0.034113193	87.3044	
	
0.202987262232139	0.036878675	86.163453	0.03867889	84.822365	0.99240144	-2.2408984	0.036080259	-95.478586	
	0.03867889	84.822365	0.03443358	85.36935	0.035621835	-95.423731	0.99290376	-2.1960074	
	0.99240144	-2.2408984	0.035621835	-95.423731	0.037108075	87.666237	0.038751069	84.766696	
	0.036080259	-95.478586	0.99290376	-2.1960074	0.038751069	84.766696	0.035798698	87.495327	
	
0.207676393884933	0.037218269	85.552385	0.039592205	84.498393	0.99236328	-2.3128887	0.036756852	-95.762876	
	0.039592205	84.498393	0.035206591	85.15073	0.03658376	-95.560168	0.99326335	-2.2326162	
	0.99236328	-2.3128887	0.03658376	-95.560168	0.037458539	88.557454	0.03914829	84.748492	
	0.036756852	-95.762876	0.99326335	-2.2326162	0.03914829	84.748492	0.03687208	88.72095	
	
0.212473847387164	0.0381201	85.03989	0.040346212	84.653842	0.99184884	-2.3786433	0.037438925	-95.518231	
	0.040346212	84.653842	0.034888544	84.690071	0.037410377	-95.432231	0.99257391	-2.2724305	
	0.99184884	-2.3786433	0.037410377	-95.432231	0.039364098	86.620842	0.040228785	84.834883	
	0.037438925	-95.518231	0.99257391	-2.2724305	0.040228785	84.834883	0.036964726	87.062865	
	
0.217382125040737	0.039282163	86.057686	0.041248993	84.43983	0.9917554	-2.4205668	0.03805125	-95.824504	
	0.041248993	84.43983	0.036609014	84.539775	0.038042573	-96.053006	0.99296649	-2.3522684	
	0.9917554	-2.4205668	0.038042573	-96.053006	0.039025204	88.170661	0.041096777	84.639369	
	0.03805125	-95.824504	0.99296649	-2.3522684	0.041096777	84.639369	0.037753735	87.937637	
	
0.222403786952283	0.040000231	84.600505	0.042000181	84.382553	0.99141442	-2.5122912	0.03913692	-95.929307	
	0.042000181	84.382553	0.037137578	85.689818	0.038998108	-96.015017	0.99274569	-2.4009722	
	0.99141442	-2.5122912	0.038998108	-96.015017	0.041009511	86.886896	0.042233763	84.194712	
	0.03913692	-95.929307	0.99274569	-2.4009722	0.042233763	84.194712	0.038957516	86.645346	
	
0.227541452368483	0.041130222	85.695663	0.042844576	84.70616	0.9920397	-2.5161555	0.039970239	-96.44059	
	0.042844576	84.70616	0.038944381	85.080142	0.04005671	-95.9988	0.99304235	-2.4824431	
	0.9920397	-2.5161555	0.04005671	-95.9988	0.04116245	86.085461	0.042916895	84.326269	
	0.039970239	-96.44059	0.99304235	-2.4824431	0.042916895	84.326269	0.038958974	87.913614	
	
0.232797801042241	0.04157464	84.974098	0.043911746	84.287417	0.99111361	-2.5788583	0.040823329	-96.113693	
	0.043911746	84.287417	0.038696508	86.379319	0.041021759	-96.015591	0.99231584	-2.525264	
	0.99111361	-2.5788583	0.041021759	-96.015591	0.042858502	86.351251	0.044195988	84.082968	
	0.040823329	-96.113693	0.99231584	-2.525264	0.044195988	84.082968	0.041508624	86.777993	
	
0.238175574630416	0.042156184	84.869397	0.044970521	84.21253	0.99148028	-2.6238136	0.041815181	-96.295627	
	0.044970521	84.21253	0.040090372	85.557356	0.041935188	-95.937054	0.99236138	-2.5693145	
	0.99148028	-2.6238136	0.041935188	-95.937054	0.044196657	85.600135	0.044971009	84.001132	
	0.041815181	-96.295627	0.99236138	-2.5693145	0.044971009	84.001132	0.041281903	85.999904	
	
0.24367757812384	0.044110019	85.061463	0.046016847	84.036603	0.99129217	-2.7132469	0.042565739	-96.68384	
	0.046016847	84.036603	0.040124455	85.245374	0.042585494	-96.283154	0.99260145	-2.6368772	
	0.99129217	-2.7132469	0.042585494	-96.283154	0.044614709	85.659668	0.046000984	83.645052	
	0.042565739	-96.68384	0.99260145	-2.6368772	0.046000984	83.645052	0.0417031	87.010401	
	
0.249306681310373	0.044871833	84.202765	0.047081721	83.788583	0.991091	-2.7869803	0.043761115	-96.587872	
	0.047081721	83.788583	0.041902595	83.616968	0.043623293	-96.791231	0.99190925	-2.6923465	
	0.991091	-2.7869803	0.043623293	-96.791231	0.046400625	86.378579	0.047148816	83.777507	
	0.043761115	-96.587872	0.99190925	-2.6923465	0.047148816	83.777507	0.043585838	86.507005	
	
0.255065820271756	0.045720763	85.00431	0.048179234	83.522621	0.99097597	-2.8337399	0.044788573	-96.691491	
	0.048179234	83.522621	0.043079434	84.256714	0.04467248	-96.615511	0.99200803	-2.7465059	
	0.99097597	-2.8337399	0.04467248	-96.615511	0.046131348	85.494995	0.048067267	83.565909	
	0.044788573	-96.691491	0.99200803	-2.7465059	0.048067267	83.565909	0.044586891	87.193791	
	
0.260957998915036	0.046564972	84.247909	0.049145641	83.52568	0.99017983	-2.9020178	0.045705996	-96.875845	
	0.049145641	83.52568	0.044404893	83.58833	0.045653661	-96.767914	0.99163252	-2.8120073	
	0.99017983	-2.9020178	0.045653661	-96.767914	0.04748286	85.262727	0.049403784	83.384921	
	0.045705996	-96.875845	0.99163252	-2.8120073	0.049403784	83.384921	0.044234488	85.816879	
	
0.266986290539378	0.047986484	83.746384	0.050634051	83.548611	0.99079538	-2.954931	0.046757274	-96.990242	
	0.050634051	83.548611	0.044695153	84.659145	0.046801948	-96.694852	0.99140315	-2.9076791	
	0.99079538	-2.954931	0.046801948	-96.694852	0.049161288	84.90814	0.050208019	82.968657	
	0.046757274	-96.990242	0.99140315	-2.9076791	0.050208019	82.968657	0.046261456	85.401364	
	
0.273153839439064	0.048950179	84.222088	0.051764815	83.204096	0.99041208	-3.0179615	0.047968871	-97.406645	
	0.051764815	83.204096	0.045589389	84.241914	0.047786466	-96.753141	0.99114428	-2.9658834	
	0.99041208	-3.0179615	0.047786466	-96.753141	0.049161543	85.129551	0.051621512	83.393456	
	0.047968871	-97.406645	0.99114428	-2.9658834	0.051621512	83.393456	0.04811908	84.86953	
	
0.279463862543524	0.049483299	83.394284	0.052453161	82.935725	0.99033522	-3.0991442	0.048942789	-97.20284	
	0.052453161	82.935725	0.047841801	82.980474	0.048725144	-97.524116	0.99059337	-3.0200407	
	0.99033522	-3.0991442	0.048725144	-97.524116	0.051414994	84.357898	0.052783236	82.703411	
	0.048942789	-97.20284	0.99059337	-3.0200407	0.052783236	82.703411	0.047835732	85.333969	
	
0.285919651095252	0.051762484	83.869845	0.053933453	83.166643	0.98985205	-3.1623425	0.049883531	-97.163602	
	0.053933453	83.166643	0.048575155	84.267998	0.050079396	-97.468869	0.99067187	-3.1037456	
	0.98985205	-3.1623425	0.050079396	-97.468869	0.052544881	84.447403	0.053779745	82.778755	
	0.049883531	-97.163602	0.99067187	-3.1037456	0.053779745	82.778755	0.050053906	84.603707	
	
0.292524572366485	0.052716983	83.125235	0.054954322	83.327657	0.98938452	-3.2543915	0.051379318	-97.509031	
	0.054954322	83.327657	0.050680131	84.070591	0.051070727	-98.149486	0.99063696	-3.1766103	
	0.98938452	-3.2543915	0.051070727	-98.149486	0.054801419	84.773862	0.055334957	82.57419	
	0.051379318	-97.509031	0.99063696	-3.1766103	0.055334957	82.57419	0.052458073	86.03936	
	
0.299282071415539	0.054141528	83.620592	0.05626143	82.65517	0.98888814	-3.2938643	0.052453486	-98.02084	
	0.05626143	82.65517	0.050963316	83.667161	0.052249785	-97.763674	0.98991027	-3.2301379	
	0.98888814	-3.2938643	0.052249785	-97.763674	0.055989382	84.062346	0.056297193	82.477536	
	0.052453486	-98.02084	0.98991027	-3.2301379	0.056297193	82.477536	0.054117954	84.487885	
	
0.30619567288371	0.055300235	83.321123	0.057210703	82.723681	0.98858219	-3.3985178	0.053421191	-97.878688	
	0.057210703	82.723681	0.050833642	81.990539	0.053137392	-97.799182	0.98979029	-3.2765709	
	0.98858219	-3.3985178	0.053137392	-97.799182	0.057492668	84.208798	0.057460151	82.58914	
	0.053421191	-97.878688	0.98979029	-3.2765709	0.057460151	82.58914	0.053835933	84.691385	
	
0.313268982833699	0.055974129	83.689214	0.058917846	82.836448	0.98859697	-3.4789896	0.054424391	-97.997336	
	0.058917846	82.836448	0.052508794	83.41697	0.054555458	-97.792447	0.99001194	-3.3539923	
	0.98859697	-3.4789896	0.054555458	-97.792447	0.057266221	84.410866	0.059091181	82.212025	
	0.054424391	-97.997336	0.99001194	-3.3539923	0.059091181	82.212025	0.055119685	84.945902	
	
0.320505690630487	0.056426982	83.244138	0.060302828	82.670052	0.98872634	-3.4875107	0.056094796	-98.010139	
	0.060302828	82.670052	0.053038336	83.04061	0.05576172	-98.089718	0.99031636	-3.4225756	
	0.98872634	-3.4875107	0.05576172	-98.089718	0.058282496	83.856171	0.060289649	82.30943	
	0.056094796	-98.010139	0.99031636	-3.4225756	0.060289649	82.30943	0.05441786	84.907108	
	
