# MHz S MA R 50

0.1	0.37904257	39.756564	0.3706464	39.99815	0.74537551	-19.295694	0.36880589	-140.41288	
	0.3706464	39.99815	0.38012228	39.893323	0.36951303	-140.45291	0.74626097	-19.51593	
	0.74537551	-19.295694	0.36951303	-140.45291	0.37832229	39.988117	0.37134149	39.946979	
	0.36880589	-140.41288	0.74626097	-19.51593	0.37134149	39.946979	0.38041985	40.193553	
	
0.102310062021247	0.38287979	39.132585	0.37474872	39.395359	0.73939904	-19.349713	0.37285185	-141.10571	
	0.37474872	39.395359	0.38266499	39.31209	0.37253008	-141.01118	0.74025696	-19.58354	
	0.73939904	-19.349713	0.37253008	-141.01118	0.38361444	39.258512	0.3747915	39.234152	
	0.37285185	-141.10571	0.74025696	-19.58354	0.3747915	39.234152	0.38375569	39.590491	
	
0.104673487907914	0.38645925	38.627076	0.37838512	38.693377	0.73461019	-19.441596	0.37596856	-141.80129	
	0.37838512	38.693377	0.3865046	38.768453	0.37607271	-141.7245	0.73551585	-19.658927	
	0.73461019	-19.441596	0.37607271	-141.7245	0.38715124	38.753418	0.37841248	38.677924	
	0.37596856	-141.80129	0.73551585	-19.658927	0.37841248	38.677924	0.38827982	38.990723	
	
0.107091510398389	0.39014504	38.028703	0.38107791	38.12815	0.72894594	-19.52855	0.37933924	-142.43945	
	0.38107791	38.12815	0.39038744	38.003316	0.37940698	-142.3548	0.73020111	-19.736167	
	0.72894594	-19.52855	0.37940698	-142.3548	0.38974748	38.182453	0.38164487	37.949975	
	0.37933924	-142.43945	0.73020111	-19.736167	0.38164487	37.949975	0.39145113	38.418417	
	
0.109565390708082	0.39351974	37.375539	0.38488457	37.445933	0.72356609	-19.554261	0.38245855	-143.01514	
	0.38488457	37.445933	0.39379419	37.454595	0.38302428	-143.0034	0.72467206	-19.763843	
	0.72356609	-19.554261	0.38302428	-143.0034	0.39317839	37.567786	0.38541987	37.399808	
	0.38245855	-143.01514	0.72467206	-19.763843	0.38541987	37.399808	0.39488129	37.663522	
	
0.112096419187261	0.3966947	36.778543	0.38813279	36.864659	0.71835793	-19.597551	0.38599325	-143.7102	
	0.38813279	36.864659	0.39690267	36.968237	0.38591778	-143.63169	0.71955905	-19.824226	
	0.71835793	-19.597551	0.38591778	-143.63169	0.39713658	36.851791	0.38859705	36.803693	
	0.38599325	-143.7102	0.71955905	-19.824226	0.38859705	36.803693	0.39770081	37.083716	
	
0.114685915994083	0.40012307	36.217168	0.39135574	36.237076	0.71302953	-19.641126	0.38966879	-144.34791	
	0.39135574	36.237076	0.40094568	36.233322	0.38894403	-144.26085	0.71415152	-19.860104	
	0.71302953	-19.641126	0.38894403	-144.26085	0.40043322	36.345749	0.39176795	36.149815	
	0.38966879	-144.34791	0.71415152	-19.860104	0.39176795	36.149815	0.40116005	36.543649	
	
0.117335231783182	0.40342873	35.592581	0.39432965	35.587999	0.7080767	-19.670938	0.39264525	-144.98511	
	0.39432965	35.587999	0.40400226	35.729402	0.3918864	-144.85691	0.70890616	-19.912748	
	0.7080767	-19.670938	0.3918864	-144.85691	0.40340941	35.758027	0.39471266	35.495645	
	0.39264525	-144.98511	0.70890616	-19.912748	0.39471266	35.495645	0.40407623	35.921006	
	
0.120045748410147	0.40585565	34.972409	0.39693961	35.017158	0.70209868	-19.698235	0.39529913	-145.63786	
	0.39693961	35.017158	0.40761575	35.093392	0.39554147	-145.52197	0.70346176	-19.900098	
	0.70209868	-19.698235	0.39554147	-145.52197	0.40653636	35.100789	0.39775008	34.856187	
	0.39529913	-145.63786	0.70346176	-19.900098	0.39775008	34.856187	0.40723243	35.29514	
	
0.122818879652292	0.40969731	34.350713	0.40049495	34.419275	0.69708082	-19.705608	0.397591	-146.16923	
	0.40049495	34.419275	0.410332	34.449207	0.39873304	-146.0895	0.69852066	-19.991875	
	0.69708082	-19.705608	0.39873304	-146.0895	0.4094034	34.476455	0.4008437	34.241665	
	0.397591	-146.16923	0.69852066	-19.991875	0.4008437	34.241665	0.41071547	34.705656	
	
0.125656071946061	0.41304012	33.818798	0.40334414	33.821525	0.69226589	-19.723684	0.4011555	-146.84518	
	0.40334414	33.821525	0.41354591	33.938312	0.40146138	-146.7033	0.69314751	-19.980228	
	0.69226589	-19.723684	0.40146138	-146.7033	0.41207386	33.933504	0.40412471	33.688566	
	0.4011555	-146.84518	0.69314751	-19.980228	0.40412471	33.688566	0.4138564	34.122631	
	
0.128558805141477	0.41576926	33.320871	0.4063594	33.211606	0.68741037	-19.735382	0.40499566	-147.4033	
	0.4063594	33.211606	0.41742454	33.463694	0.40446463	-147.3176	0.68802834	-19.987853	
	0.68741037	-19.735382	0.40446463	-147.3176	0.41543811	33.442228	0.40715014	33.100966	
	0.40499566	-147.4033	0.68802834	-19.987853	0.40715014	33.100966	0.41662865	33.485698	
	
0.131528593274019	0.41881468	32.652912	0.40829909	32.595799	0.68231142	-19.719065	0.40678843	-148.02782	
	0.40829909	32.595799	0.41886559	32.940472	0.4068224	-147.87402	0.68208547	-19.967786	
	0.68231142	-19.719065	0.4068224	-147.87402	0.41837501	32.740212	0.40931383	32.603636	
	0.40678843	-148.02782	0.68208547	-19.967786	0.40931383	32.603636	0.41961574	33.010372	
	
0.134566985354323	0.42178395	32.094677	0.41249547	31.985274	0.67757255	-19.695941	0.41003042	-148.6257	
	0.41249547	31.985274	0.42260775	32.280995	0.40980763	-148.56376	0.67811043	-19.931221	
	0.67757255	-19.695941	0.40980763	-148.56376	0.4208204	32.250116	0.41226007	31.870651	
	0.41003042	-148.6257	0.67811043	-19.931221	0.41226007	31.870651	0.42248479	32.440636	
	
0.13767556617613	0.42368279	31.545841	0.41428929	31.396925	0.67252037	-19.676928	0.4123644	-149.19646	
	0.41428929	31.396925	0.42520765	31.675329	0.41212251	-149.14085	0.67278687	-19.957583	
	0.67252037	-19.676928	0.41212251	-149.14085	0.42399418	31.61652	0.41542621	31.330824	
	0.4123644	-149.19646	0.67278687	-19.957583	0.41542621	31.330824	0.42592045	31.903129	
	
0.140855957142902	0.42741759	30.953254	0.41749435	30.777688	0.66769642	-19.636045	0.41535502	-149.7593	
	0.41749435	30.777688	0.42787801	31.223936	0.41504625	-149.69867	0.66781128	-19.876679	
	0.66769642	-19.636045	0.41504625	-149.69867	0.42570805	30.986373	0.41731271	30.777882	
	0.41535502	-149.7593	0.66781128	-19.876679	0.41731271	30.777882	0.42796702	31.414103	
	
0.144109817113524	0.42953787	30.539926	0.41986627	30.227593	0.66285358	-19.615469	0.41788295	-150.36775	
	0.41986627	30.227593	0.43072835	30.594903	0.41751285	-150.38434	0.66329057	-19.879054	
	0.66285358	-19.615469	0.41751285	-150.38434	0.42951598	30.635063	0.42037381	30.20382	
	0.41788295	-150.36775	0.66329057	-19.879054	0.42037381	30.20382	0.43034712	30.763866	
	
0.147438843267552	0.43187526	29.892458	0.42159528	29.712417	0.65822614	-19.584996	0.42018925	-151.00179	
	0.42159528	29.712417	0.43337612	30.134444	0.41990091	-150.89208	0.65830914	-19.869824	
	0.65822614	-19.584996	0.41990091	-150.89208	0.43204344	30.061038	0.42254248	29.62305	
	0.42018925	-151.00179	0.65830914	-19.869824	0.42254248	29.62305	0.4334866	30.241287	
	
0.150844771990442	0.43483658	29.356492	0.42459834	29.085019	0.65339837	-19.447616	0.42235062	-151.53417	
	0.42459834	29.085019	0.43541969	29.462341	0.4224042	-151.54984	0.65350869	-19.752719	
	0.65339837	-19.447616	0.4224042	-151.54984	0.43401127	29.451551	0.42476036	29.011418	
	0.42235062	-151.53417	0.65350869	-19.752719	0.42476036	29.011418	0.43618881	29.742198	
	
0.154329379779229	0.43657169	28.839065	0.42730948	28.534804	0.64883241	-19.429592	0.42474595	-152.20774	
	0.42730948	28.534804	0.43820092	28.916442	0.42502416	-152.06958	0.64947261	-19.702896	
	0.64883241	-19.429592	0.42502416	-152.06958	0.4369508	28.869321	0.42768907	28.458923	
	0.42474595	-152.20774	0.64947261	-19.702896	0.42768907	28.458923	0.43824188	29.169166	
	
0.157894484169135	0.43893485	28.27633	0.42941722	27.944946	0.64414893	-19.332308	0.42734255	-152.70153	
	0.42941722	27.944946	0.44072197	28.422411	0.42720471	-152.66409	0.64425656	-19.603477	
	0.64414893	-19.332308	0.42720471	-152.66409	0.43913345	28.341259	0.42948763	27.872034	
	0.42734255	-152.70153	0.64425656	-19.603477	0.42948763	27.872034	0.44075098	28.593556	
	
0.16154194468157	0.44134756	27.753154	0.43088923	27.507561	0.63975106	-19.224578	0.42913608	-153.23258	
	0.43088923	27.507561	0.44323547	27.952377	0.42934825	-153.21412	0.6404769	-19.622126	
	0.63975106	-19.224578	0.42934825	-153.21412	0.44032051	27.90268	0.43204268	27.373681	
	0.42913608	-153.23258	0.6404769	-19.622126	0.43204268	27.373681	0.44290047	28.059839	
	
0.165273663794043	0.44368689	27.203175	0.43372087	26.89642	0.63531263	-19.154954	0.43140534	-153.78913	
	0.43372087	26.89642	0.44461712	27.394697	0.4311931	-153.76402	0.63558074	-19.466783	
	0.63531263	-19.154954	0.4311931	-153.76402	0.44330422	27.334187	0.43437988	26.789977	
	0.43140534	-153.78913	0.63558074	-19.466783	0.43437988	26.789977	0.44516699	27.583999	
	
0.169091587932473	0.44598841	26.678859	0.43593605	26.359733	0.63151445	-19.072037	0.43351657	-154.38588	
	0.43593605	26.359733	0.4472669	26.884036	0.43294392	-154.35542	0.63127447	-19.364707	
	0.63151445	-19.072037	0.43294392	-154.35542	0.44481432	26.873985	0.43610396	26.272194	
	0.43351657	-154.38588	0.63127447	-19.364707	0.43610396	26.272194	0.446943	27.017465	
	
0.172997708486424	0.44751327	26.239774	0.43771272	25.850266	0.6270482	-18.913174	0.43543048	-154.93747	
	0.43771272	25.850266	0.44968314	26.402387	0.43552725	-154.85508	0.6272252	-19.313565	
	0.6270482	-18.913174	0.43552725	-154.85508	0.44745718	26.305381	0.43816861	25.733673	
	0.43543048	-154.93747	0.6272252	-19.313565	0.43816861	25.733673	0.44955203	26.55689	
	
0.176994062847797	0.44960085	25.78274	0.43929894	25.34037	0.62324191	-18.843176	0.43761835	-155.39943	
	0.43929894	25.34037	0.45174901	25.961016	0.437132	-155.44752	0.62307308	-19.196336	
	0.62324191	-18.843176	0.437132	-155.44752	0.44917295	25.839391	0.44048207	25.260304	
	0.43761835	-155.39943	0.62307308	-19.196336	0.44048207	25.260304	0.45160102	26.0459	
	
0.181082735473506	0.45190674	25.256798	0.44144484	24.792718	0.61880608	-18.755535	0.43904785	-155.94755	
	0.44144484	24.792718	0.45422521	25.357	0.43958361	-155.94776	0.61885777	-19.064924	
	0.61880608	-18.755535	0.43958361	-155.94776	0.45078133	25.429719	0.44255015	24.780481	
	0.43904785	-155.94755	0.61885777	-19.064924	0.44255015	24.780481	0.45340921	25.593571	
	
0.185265858972714	0.45352097	24.819342	0.44337539	24.293082	0.61524339	-18.631794	0.44086886	-156.49328	
	0.44337539	24.293082	0.45565625	24.970921	0.44094678	-156.45469	0.61478291	-18.982881	
	0.61524339	-18.631794	0.44094678	-156.45469	0.45299936	24.814443	0.44399201	24.230694	
	0.44086886	-156.49328	0.61478291	-18.982881	0.44399201	24.230694	0.45597061	25.130813	
	
0.18954561521918	0.45572531	24.306171	0.44495916	23.811682	0.61162474	-18.559395	0.44279522	-157.04501	
	0.44495916	23.811682	0.45709477	24.505536	0.44278063	-156.96736	0.61122046	-18.850703	
	0.61162474	-18.559395	0.44278063	-156.96736	0.45480778	24.400068	0.44593518	23.767092	
	0.44279522	-157.04501	0.61122046	-18.850703	0.44593518	23.767092	0.45700691	24.54533	
	
0.193924236489297	0.45724847	23.863848	0.44666522	23.343238	0.60757011	-18.395168	0.44417364	-157.52084	
	0.44666522	23.343238	0.45929972	24.018165	0.44483072	-157.45419	0.60664089	-18.703389	
	0.60757011	-18.395168	0.44483072	-157.45419	0.45662603	23.961661	0.44748584	23.22583	
	0.44417364	-157.52084	0.60664089	-18.703389	0.44748584	23.22583	0.45920228	24.129938	
	
0.19840400662643	0.45844941	23.474109	0.44844374	22.889	0.60423146	-18.224926	0.44599251	-158.03719	
	0.44844374	22.889	0.46215725	23.488134	0.44638494	-157.95138	0.60311639	-18.615073	
	0.60423146	-18.224926	0.44638494	-157.95138	0.45806149	23.541477	0.44940908	22.698788	
	0.44599251	-158.03719	0.60311639	-18.615073	0.44940908	22.698788	0.46078147	23.785649	
	
0.202987262232139	0.46034437	22.976653	0.4497386	22.349949	0.60064116	-18.09796	0.44802157	-158.51805	
	0.4497386	22.349949	0.46288821	23.167708	0.44740059	-158.48876	0.59986538	-18.43757	
	0.60064116	-18.09796	0.44740059	-158.48876	0.45969001	22.976132	0.45083437	22.283359	
	0.44802157	-158.51805	0.59986538	-18.43757	0.45083437	22.283359	0.46238835	23.227297	
	
0.207676393884933	0.462575	22.562299	0.45159789	21.850475	0.59689417	-17.952823	0.44948316	-158.98665	
	0.45159789	21.850475	0.46496912	22.620934	0.44937707	-159.03905	0.59637238	-18.331897	
	0.59689417	-17.952823	0.44937707	-159.03905	0.46125526	22.671184	0.45282083	21.747506	
	0.44948316	-158.98665	0.59637238	-18.331897	0.45282083	21.747506	0.46402162	22.840372	
	
0.212473847387164	0.4641159	22.053408	0.45265483	21.393713	0.59321014	-17.820133	0.45018786	-159.51816	
	0.45265483	21.393713	0.46650972	22.240418	0.45044164	-159.46273	0.59281434	-18.198926	
	0.59321014	-17.820133	0.45044164	-159.46273	0.46348373	22.154921	0.45356482	21.323439	
	0.45018786	-159.51816	0.59281434	-18.198926	0.45356482	21.323439	0.46555707	22.375898	
	
0.217382125040737	0.46545026	21.675523	0.45429208	20.944517	0.58955198	-17.686314	0.45218703	-159.98243	
	0.45429208	20.944517	0.46724394	21.807659	0.45217253	-159.8904	0.58927265	-17.990064	
	0.58955198	-17.686314	0.45217253	-159.8904	0.46513895	21.764347	0.45529809	20.900021	
	0.45218703	-159.98243	0.58927265	-17.990064	0.45529809	20.900021	0.46773679	22.009194	
	
0.222403786952283	0.46633355	21.285079	0.45540471	20.467624	0.58670446	-17.534063	0.45343762	-160.45344	
	0.45540471	20.467624	0.46896511	21.322748	0.45329491	-160.38607	0.58593922	-17.841311	
	0.58670446	-17.534063	0.45329491	-160.38607	0.4661301	21.310474	0.45634249	20.407948	
	0.45343762	-160.45344	0.58593922	-17.841311	0.45634249	20.407948	0.4689026	21.464729	
	
0.227541452368483	0.4684872	20.823587	0.45716314	20.021022	0.58364272	-17.333976	0.45492175	-160.95141	
	0.45716314	20.021022	0.47070461	20.843931	0.45427778	-160.79773	0.58244283	-17.672374	
	0.58364272	-17.333976	0.45427778	-160.79773	0.46793658	20.968841	0.45752894	19.995121	
	0.45492175	-160.95141	0.58244283	-17.672374	0.45752894	19.995121	0.47006516	21.16148	
	
0.232797801042241	0.46954182	20.460099	0.45795133	19.573854	0.58092055	-17.213038	0.45575956	-161.36812	
	0.45795133	19.573854	0.47161194	20.514163	0.45597854	-161.35879	0.57991297	-17.529792	
	0.58092055	-17.213038	0.45597854	-161.35879	0.4688051	20.546373	0.4591356	19.477185	
	0.45575956	-161.36812	0.57991297	-17.529792	0.4591356	19.477185	0.47150064	20.707482	
	
0.238175574630416	0.47063307	20.018619	0.45953223	19.144994	0.5777136	-17.07164	0.4571821	-161.80747	
	0.45953223	19.144994	0.47345781	20.208043	0.45703992	-161.75518	0.57656506	-17.423969	
	0.5777136	-17.07164	0.45703992	-161.75518	0.47080303	20.16014	0.46014001	19.047428	
	0.4571821	-161.80747	0.57656506	-17.423969	0.46014001	19.047428	0.47320551	20.32586	
	
0.24367757812384	0.47206019	19.677857	0.46088135	18.761857	0.57432586	-16.862542	0.45903823	-162.26523	
	0.46088135	18.761857	0.47507262	19.638753	0.4585075	-162.26352	0.57362793	-17.277872	
	0.57432586	-16.862542	0.4585075	-162.26352	0.47115052	19.746955	0.46148254	18.641782	
	0.45903823	-162.26523	0.57362793	-17.277872	0.46148254	18.641782	0.47399965	19.85727	
	
0.249306681310373	0.47330323	19.284606	0.46190715	18.331587	0.57162478	-16.670316	0.4594157	-162.67693	
	0.46190715	18.331587	0.47521854	19.405097	0.45876502	-162.67271	0.57068425	-17.074962	
	0.57162478	-16.670316	0.45876502	-162.67271	0.47260785	19.275643	0.46256724	18.205605	
	0.4594157	-162.67693	0.57068425	-17.074962	0.46256724	18.205605	0.47547947	19.446103	
	
0.255065820271756	0.47370445	18.884932	0.46347086	17.952708	0.56962025	-16.593747	0.46075798	-163.16727	
	0.46347086	17.952708	0.47682222	19.071419	0.46067131	-163.08033	0.56774255	-16.928319	
	0.56962025	-16.593747	0.46067131	-163.08033	0.47435449	18.946955	0.4635394	17.848433	
	0.46075798	-163.16727	0.56774255	-16.928319	0.4635394	17.848433	0.4770404	19.07557	
	
0.260957998915036	0.47570835	18.517149	0.46436018	17.507271	0.56671754	-16.412865	0.4619776	-163.52007	
	0.46436018	17.507271	0.47888229	18.652862	0.46169373	-163.56979	0.56507833	-16.753351	
	0.56671754	-16.412865	0.46169373	-163.56979	0.47477326	18.659835	0.4651637	17.407512	
	0.4619776	-163.52007	0.56507833	-16.753351	0.4651637	17.407512	0.47802181	18.720145	
	
0.266986290539378	0.47704243	18.173985	0.46507027	17.119476	0.56415479	-16.223454	0.46296274	-163.94632	
	0.46507027	17.119476	0.4791461	18.321243	0.46249262	-163.94698	0.56299297	-16.59284	
	0.56415479	-16.223454	0.46249262	-163.94698	0.47626391	18.269136	0.46576097	17.034533	
	0.46296274	-163.94632	0.56299297	-16.59284	0.46576097	17.034533	0.47899033	18.39764	
	
0.273153839439064	0.47740341	17.837139	0.46585487	16.720905	0.56169563	-16.05696	0.46400744	-164.37884	
	0.46585487	16.720905	0.48014011	17.978202	0.4630044	-164.37315	0.55989498	-16.37273	
	0.56169563	-16.05696	0.4630044	-164.37315	0.47758686	17.85899	0.46647403	16.618543	
	0.46400744	-164.37884	0.55989498	-16.37273	0.46647403	16.618543	0.47944229	17.986919	
	
0.279463862543524	0.47855978	17.495995	0.46608	16.405701	0.55855636	-15.936976	0.46403067	-164.83473	
	0.46608	16.405701	0.48192105	17.509468	0.46468248	-164.70613	0.55819091	-16.324348	
	0.55855636	-15.936976	0.46468248	-164.70613	0.47751642	17.456895	0.46735472	16.201275	
	0.46403067	-164.83473	0.55819091	-16.324348	0.46735472	16.201275	0.48068443	17.658924	
	
0.285919651095252	0.47980983	17.119806	0.46765585	15.967195	0.55717642	-15.729468	0.46521054	-165.26477	
	0.46765585	15.967195	0.48296314	17.223466	0.46525549	-165.21267	0.55534423	-16.095634	
	0.55717642	-15.729468	0.46525549	-165.21267	0.47915554	17.220043	0.4679142	15.838396	
	0.46521054	-165.26477	0.55534423	-16.095634	0.4679142	15.838396	0.48234283	17.337681	
	
0.292524572366485	0.48121823	16.847095	0.46892228	15.586319	0.55434409	-15.566173	0.46633449	-165.63518	
	0.46892228	15.586319	0.48344318	16.925815	0.46633088	-165.58843	0.55349909	-15.933555	
	0.55434409	-15.566173	0.46633088	-165.58843	0.4802504	16.914888	0.46907446	15.437873	
	0.46633449	-165.63518	0.55349909	-15.933555	0.46907446	15.437873	0.48300728	17.05685	
	
0.299282071415539	0.48208405	16.471482	0.46893818	15.212281	0.55235363	-15.423413	0.46680384	-166.08719	
	0.46893818	15.212281	0.48389378	16.577879	0.46708375	-166.04313	0.55087566	-15.73623	
	0.55235363	-15.423413	0.46708375	-166.04313	0.48144026	16.599895	0.46993566	15.044257	
	0.46680384	-166.08719	0.55087566	-15.73623	0.46993566	15.044257	0.48464164	16.831704	
	
0.30619567288371	0.48239397	16.119529	0.46998326	14.828423	0.55057434	-15.234715	0.46776448	-166.47287	
	0.46998326	14.828423	0.48560003	16.290601	0.46767641	-166.34269	0.54850578	-15.554009	
	0.55057434	-15.234715	0.46767641	-166.34269	0.48238679	16.236234	0.47038322	14.749367	
	0.46776448	-166.47287	0.54850578	-15.554009	0.47038322	14.749367	0.48485226	16.42343	
	
0.313268982833699	0.48366244	15.825666	0.47114051	14.551415	0.54820942	-15.033515	0.46857308	-166.75884	
	0.47114051	14.551415	0.48639664	15.965874	0.46903882	-166.76788	0.54635758	-15.388497	
	0.54820942	-15.033515	0.46903882	-166.76788	0.48252445	15.897599	0.47200998	14.400763	
	0.46857308	-166.75884	0.54635758	-15.388497	0.47200998	14.400763	0.48589676	15.997744	
	
0.320505690630487	0.48339372	15.452012	0.47170408	14.201532	0.5464954	-14.843257	0.46984438	-167.15616	
	0.47170408	14.201532	0.48666589	15.514532	0.46991587	-167.05626	0.54413067	-15.201903	
	0.5464954	-14.843257	0.46991587	-167.05626	0.48311194	15.534378	0.47279243	14.064164	
	0.46984438	-167.15616	0.54413067	-15.201903	0.47279243	14.064164	0.48647032	15.625845	
	
0.327909570865677	0.48453394	15.154362	0.47251883	13.855299	0.54400741	-14.726133	0.47071806	-167.50313	
	0.47251883	13.855299	0.48721974	15.180614	0.47102313	-167.37142	0.5425878	-15.013004	
	0.54400741	-14.726133	0.47102313	-167.37142	0.48343731	15.202048	0.47332976	13.818217	
	0.47071806	-167.50313	0.5425878	-15.013004	0.47332976	13.818217	0.48752004	15.323123	
	
0.335484485326279	0.48558848	14.898892	0.47342614	13.537993	0.54264936	-14.546415	0.47150038	-167.8765	
	0.47342614	13.537993	0.48824244	14.958607	0.47109695	-167.82039	0.54025148	-14.870925	
