# MHz S MA R 50

0.1	0.093668704	77.994965	0.096568408	78.505164	0.97930095	-5.5955815	0.094130198	-101.88161	
	0.096568408	78.505164	0.091869405	78.359139	0.093886073	-101.90069	0.98016	-5.5089628	
	0.97930095	-5.5955815	0.093886073	-101.90069	0.09655336	78.65124	0.096656502	78.588816	
	0.094130198	-101.88161	0.98016	-5.5089628	0.096656502	78.588816	0.093632375	78.197444	
	
0.102310062021247	0.096865474	78.230352	0.098833519	78.253461	0.97834082	-5.7004517	0.09637547	-102.26273	
	0.098833519	78.253461	0.094683073	77.79189	0.096339735	-102.31395	0.97889402	-5.676832	
	0.97834082	-5.7004517	0.096339735	-102.31395	0.098111315	78.855278	0.098953454	78.176455	
	0.09637547	-102.26273	0.97889402	-5.676832	0.098953454	78.176455	0.096493182	77.641181	
	
0.104673487907914	0.099502591	77.670069	0.10129535	78.058482	0.97754469	-5.8514299	0.098441757	-102.41089	
	0.10129535	78.058482	0.09726198	77.35754	0.098134661	-102.30086	0.97924463	-5.7858672	
	0.97754469	-5.8514299	0.098134661	-102.30086	0.10026541	78.22821	0.10128253	77.854571	
	0.098441757	-102.41089	0.97924463	-5.7858672	0.10128253	77.854571	0.09751211	78.570631	
	
0.107091510398389	0.1016201	77.500218	0.10326556	77.732225	0.97710713	-5.9863703	0.10034627	-102.74872	
	0.10326556	77.732225	0.098533259	77.158766	0.10079471	-102.81892	0.97791866	-5.9128428	
	0.97710713	-5.9863703	0.10079471	-102.81892	0.10256098	77.985954	0.10326568	77.692966	
	0.10034627	-102.74872	0.97791866	-5.9128428	0.10326568	77.692966	0.10042398	77.651954	
	
0.109565390708082	0.104478	77.870378	0.1058237	77.367057	0.97612549	-6.099546	0.1031452	-103.19031	
	0.1058237	77.367057	0.10118289	77.032079	0.10266018	-102.76151	0.97727503	-6.0301042	
	0.97612549	-6.099546	0.10266018	-102.76151	0.10449278	77.985817	0.10582764	77.402432	
	0.1031452	-103.19031	0.97727503	-6.0301042	0.10582764	77.402432	0.10327606	77.40758	
	
0.112096419187261	0.10622162	77.85832	0.10828886	77.300754	0.97612102	-6.2256348	0.1053404	-103.22722	
	0.10828886	77.300754	0.10355175	77.143243	0.10548189	-103.18389	0.97681947	-6.2016516	
	0.97612102	-6.2256348	0.10548189	-103.18389	0.10591739	78.051743	0.10839248	77.073976	
	0.1053404	-103.22722	0.97681947	-6.2016516	0.10839248	77.073976	0.10491363	78.034773	
	
0.114685915994083	0.10800528	76.768458	0.11028625	76.887913	0.97556569	-6.3541647	0.10767078	-103.51528	
	0.11028625	76.887913	0.10519291	76.568402	0.10770385	-103.44583	0.97589421	-6.310279	
	0.97556569	-6.3541647	0.10770385	-103.44583	0.10895753	77.73747	0.11063032	76.781218	
	0.10767078	-103.51528	0.97589421	-6.310279	0.11063032	76.781218	0.10785651	77.19362	
	
0.117335231783182	0.10989018	76.336256	0.11257857	76.612985	0.97434139	-6.5068145	0.10981476	-103.74835	
	0.11257857	76.612985	0.10809924	76.188892	0.1098433	-103.70418	0.97522786	-6.4703713	
	0.97434139	-6.5068145	0.1098433	-103.70418	0.11094729	77.28235	0.11287182	76.593797	
	0.10981476	-103.74835	0.97522786	-6.4703713	0.11287182	76.593797	0.10856913	77.077203	
	
0.120045748410147	0.11329095	75.859353	0.11535572	76.326307	0.97397575	-6.6137746	0.1124182	-104.0386	
	0.11535572	76.326307	0.10979455	76.224026	0.11197019	-104.01102	0.9738807	-6.5699462	
	0.97397575	-6.6137746	0.11197019	-104.01102	0.11338705	76.435956	0.11536188	76.36655	
	0.1124182	-104.0386	0.9738807	-6.5699462	0.11536188	76.36655	0.11077184	76.227333	
	
0.122818879652292	0.11533283	76.143383	0.11774811	75.95588	0.97329895	-6.7575737	0.11465385	-104.33988	
	0.11774811	75.95588	0.11240816	75.903408	0.11465235	-104.18102	0.97351207	-6.7064897	
	0.97329895	-6.7575737	0.11465235	-104.18102	0.11612406	76.503989	0.11794738	76.042127	
	0.11465385	-104.33988	0.97351207	-6.7064897	0.11794738	76.042127	0.11416493	76.338823	
	
0.125656071946061	0.11831709	75.703312	0.12048942	75.699904	0.9718772	-6.9529991	0.11707697	-104.55775	
	0.12048942	75.699904	0.11462626	75.63825	0.11672402	-104.64853	0.97254303	-6.866078	
	0.9718772	-6.9529991	0.11672402	-104.64853	0.11887551	75.837801	0.12069627	75.68987	
	0.11707697	-104.55775	0.97254303	-6.866078	0.12069627	75.68987	0.11685889	75.934912	
	
0.128558805141477	0.12048706	75.491261	0.12263242	75.53568	0.97057893	-7.0915448	0.11980236	-104.89342	
	0.12263242	75.53568	0.11761717	74.941711	0.11936398	-104.85188	0.97216217	-7.0176366	
	0.97057893	-7.0915448	0.11936398	-104.85188	0.12018119	75.941176	0.12305947	75.554216	
	0.11980236	-104.89342	0.97216217	-7.0176366	0.12305947	75.554216	0.11884836	76.002675	
	
0.131528593274019	0.12320027	74.743856	0.12548808	75.067611	0.96996064	-7.2246639	0.12240721	-105.13265	
	0.12548808	75.067611	0.11957568	75.230848	0.12179518	-105.17209	0.97060517	-7.1692983	
	0.96996064	-7.2246639	0.12179518	-105.17209	0.12398004	75.35444	0.12600454	75.040815	
	0.12240721	-105.13265	0.97060517	-7.1692983	0.12600454	75.040815	0.12136409	75.80101	
	
0.134566985354323	0.12553975	74.41721	0.12817595	74.846428	0.96870719	-7.3760583	0.12464073	-105.52245	
	0.12817595	74.846428	0.12229437	74.535425	0.12445653	-105.50042	0.96966071	-7.3257045	
	0.96870719	-7.3760583	0.12445653	-105.50042	0.1267022	74.800342	0.12815103	74.681465	
	0.12464073	-105.52245	0.96966071	-7.3257045	0.12815103	74.681465	0.12538233	75.422499	
	
0.13767556617613	0.12854325	74.111363	0.13107011	74.57639	0.96768189	-7.5415206	0.12733392	-105.92125	
	0.13107011	74.57639	0.12563198	74.186595	0.12739601	-105.88321	0.96883655	-7.4638431	
	0.96768189	-7.5415206	0.12739601	-105.88321	0.12880997	74.619288	0.13123756	74.431204	
	0.12733392	-105.92125	0.96883655	-7.4638431	0.13123756	74.431204	0.12727747	74.78722	
	
0.140855957142902	0.12941852	73.562469	0.13369576	74.474993	0.96645231	-7.7134068	0.12964229	-106.39778	
	0.13369576	74.474993	0.12885584	73.409185	0.12941031	-106.36469	0.96649121	-7.6400102	
	0.96645231	-7.7134068	0.12941031	-106.36469	0.1318191	74.122033	0.13395054	74.111821	
	0.12964229	-106.39778	0.96649121	-7.6400102	0.13395054	74.111821	0.13056321	74.156454	
	
0.144109817113524	0.13366917	73.247268	0.1363461	73.942901	0.96482669	-7.8539855	0.13275182	-106.67534	
	0.1363461	73.942901	0.13087687	73.099329	0.13276043	-106.62627	0.96579022	-7.7930469	
	0.96482669	-7.8539855	0.13276043	-106.62627	0.13452098	73.984278	0.13671342	73.792327	
	0.13275182	-106.67534	0.96579022	-7.7930469	0.13671342	73.792327	0.13313231	73.848943	
	
0.147438843267552	0.13655373	73.06517	0.13945381	73.624763	0.96360752	-8.0231512	0.1354541	-107.09469	
	0.13945381	73.624763	0.13352599	73.084011	0.13552169	-106.93921	0.96454454	-7.9829114	
	0.96360752	-8.0231512	0.13552169	-106.93921	0.13724413	73.982813	0.13913485	73.322359	
	0.1354541	-107.09469	0.96454454	-7.9829114	0.13913485	73.322359	0.13587271	73.512437	
	
0.150844771990442	0.13969343	72.333884	0.14231609	73.274614	0.96251416	-8.1566561	0.13860529	-107.16621	
	0.14231609	73.274614	0.13719026	72.27563	0.13806841	-107.31859	0.96321144	-8.0986357	
	0.96251416	-8.1566561	0.13806841	-107.31859	0.13973	72.819156	0.14219923	73.142593	
	0.13860529	-107.16621	0.96321144	-8.0986357	0.14219923	73.142593	0.13727043	73.198524	
	
0.154329379779229	0.14236999	72.245005	0.14489144	72.867854	0.96076164	-8.3265437	0.14148429	-107.61329	
	0.14489144	72.867854	0.14064681	72.12991	0.14132491	-107.84471	0.96200929	-8.2912195	
	0.96076164	-8.3265437	0.14132491	-107.84471	0.14324574	73.039834	0.14535647	72.787783	
	0.14148429	-107.61329	0.96200929	-8.2912195	0.14535647	72.787783	0.14091568	72.642705	
	
0.157894484169135	0.14534651	72.096034	0.14796597	72.518365	0.96022791	-8.5193804	0.14435628	-108.03242	
	0.14796597	72.518365	0.14241962	71.977267	0.14413813	-108.09246	0.96106157	-8.479468	
	0.96022791	-8.5193804	0.14413813	-108.09246	0.14635392	72.757989	0.14848487	72.290904	
	0.14435628	-108.03242	0.96106157	-8.479468	0.14848487	72.290904	0.14465473	72.50245	
	
0.16154194468157	0.14893022	71.868346	0.1516902	72.100343	0.95833695	-8.7158904	0.14725394	-108.47607	
	0.1516902	72.100343	0.14538496	71.888409	0.14709643	-108.33585	0.96033121	-8.6786822	
	0.95833695	-8.7158904	0.14709643	-108.33585	0.14825732	72.160279	0.15158708	72.225288	
	0.14725394	-108.47607	0.96033121	-8.6786822	0.15158708	72.225288	0.14623304	71.941283	
	
0.165273663794043	0.15154159	71.546678	0.15440161	71.796065	0.95686405	-8.8849135	0.15032185	-108.84206	
	0.15440161	71.796065	0.14903776	71.135611	0.15019494	-108.78046	0.95814492	-8.8338253	
	0.95686405	-8.8849135	0.15019494	-108.78046	0.15166455	71.701708	0.15453784	71.651385	
	0.15032185	-108.84206	0.95814492	-8.8338253	0.15453784	71.651385	0.14972632	71.521351	
	
0.169091587932473	0.15480117	71.134487	0.15777237	71.349355	0.95534941	-9.0589076	0.15331401	-109.28955	
	0.15777237	71.349355	0.15221413	71.152467	0.15365194	-109.16317	0.95618035	-9.0068191	
	0.95534941	-9.0589076	0.15365194	-109.16317	0.15608321	71.078301	0.15740546	71.250085	
	0.15331401	-109.28955	0.95618035	-9.0068191	0.15740546	71.250085	0.15332514	71.067706	
	
0.172997708486424	0.15790729	70.599632	0.16085373	71.063207	0.95439258	-9.2379331	0.15656655	-109.6557	
	0.16085373	71.063207	0.15405213	70.443791	0.15627499	-109.54236	0.95463738	-9.2003873	
	0.95439258	-9.2379331	0.15627499	-109.54236	0.15917477	70.666202	0.16093473	70.869547	
	0.15656655	-109.6557	0.95463738	-9.2003873	0.16093473	70.869547	0.15599784	70.934754	
	
0.176994062847797	0.16137397	70.348674	0.16445066	70.603432	0.95258988	-9.4316877	0.16003217	-110.08154	
	0.16445066	70.603432	0.15844488	69.895403	0.15999544	-109.90154	0.9531118	-9.3467916	
	0.95258988	-9.4316877	0.15999544	-109.90154	0.16243497	70.401953	0.16451141	70.52022	
	0.16003217	-110.08154	0.9531118	-9.3467916	0.16451141	70.52022	0.15905545	70.710688	
	
0.181082735473506	0.16482187	69.665972	0.1674141	70.219764	0.95038092	-9.6012734	0.16316391	-110.48716	
	0.1674141	70.219764	0.16138257	69.146122	0.16299307	-110.34209	0.95110555	-9.5579057	
	0.95038092	-9.6012734	0.16299307	-110.34209	0.16492839	70.222058	0.16785997	70.079395	
	0.16316391	-110.48716	0.95110555	-9.5579057	0.16785997	70.079395	0.16303478	70.068802	
	
0.185265858972714	0.16715705	69.506808	0.17111698	69.720813	0.94913263	-9.819157	0.16642907	-110.84276	
	0.17111698	69.720813	0.16514421	69.189039	0.16635676	-110.73372	0.94968364	-9.7376889	
	0.94913263	-9.819157	0.16635676	-110.73372	0.16719764	69.783489	0.17122851	69.623796	
	0.16642907	-110.84276	0.94968364	-9.7376889	0.17122851	69.623796	0.16588856	69.477329	
	
0.18954561521918	0.17075306	68.786807	0.1745955	69.525223	0.94729616	-10.026269	0.17026423	-111.25797	
	0.1745955	69.525223	0.16760137	68.978988	0.1697892	-111.12318	0.94798196	-9.9045125	
	0.94729616	-10.026269	0.1697892	-111.12318	0.17163555	69.1757	0.17513223	69.365938	
	0.17026423	-111.25797	0.94798196	-9.9045125	0.17513223	69.365938	0.16871661	69.387141	
	
0.193924236489297	0.17475018	68.350465	0.17768291	68.999593	0.94485641	-10.218873	0.17311368	-111.72482	
	0.17768291	68.999593	0.17135787	68.159275	0.17314441	-111.6154	0.94605808	-10.092415	
	0.94485641	-10.218873	0.17314441	-111.6154	0.1753405	68.851561	0.17817748	68.971652	
	0.17311368	-111.72482	0.94605808	-10.092415	0.17817748	68.971652	0.17258743	68.806627	
	
0.19840400662643	0.1779092	68.181309	0.18182267	68.515002	0.94338044	-10.429594	0.17677195	-111.98384	
	0.18182267	68.515002	0.17540647	68.217407	0.17666429	-112.108	0.94415983	-10.349466	
	0.94338044	-10.429594	0.17666429	-112.108	0.17903219	68.399468	0.18219289	68.554287	
	0.17677195	-111.98384	0.94415983	-10.349466	0.18219289	68.554287	0.17594975	68.37336	
	
0.202987262232139	0.18182524	67.679829	0.18476453	68.064976	0.94095161	-10.601466	0.18017814	-112.65817	
	0.18476453	68.064976	0.17930928	67.520941	0.18012212	-112.53846	0.94182233	-10.497799	
	0.94095161	-10.601466	0.18012212	-112.53846	0.18163003	67.961354	0.18524048	68.072399	
	0.18017814	-112.65817	0.94182233	-10.497799	0.18524048	68.072399	0.17988423	67.848261	
	
0.207676393884933	0.18457544	67.138426	0.18851063	67.652059	0.93870623	-10.795536	0.18384529	-113.04968	
	0.18851063	67.652059	0.18246483	66.915169	0.1835571	-113.01233	0.93986145	-10.728826	
	0.93870623	-10.795536	0.1835571	-113.01233	0.18564265	67.545054	0.1890107	67.499785	
	0.18384529	-113.04968	0.93986145	-10.728826	0.1890107	67.499785	0.18356329	67.501917	
	
0.212473847387164	0.1887781	66.492161	0.1924307	67.268304	0.93622087	-11.01496	0.18719953	-113.62157	
	0.1924307	67.268304	0.18495258	66.48166	0.18688641	-113.45487	0.93714132	-10.885413	
	0.93622087	-11.01496	0.18688641	-113.45487	0.18961725	66.780267	0.1927266	67.077007	
	0.18719953	-113.62157	0.93714132	-10.885413	0.1927266	67.077007	0.18694273	66.720107	
	
0.217382125040737	0.19277836	66.222225	0.1962173	66.732598	0.93438009	-11.236316	0.19069195	-114.04831	
	0.1962173	66.732598	0.1894536	66.007097	0.19097499	-113.93118	0.93559419	-11.12328	
	0.93438009	-11.236316	0.19097499	-113.93118	0.1923043	66.64031	0.19671695	66.720627	
	0.19069195	-114.04831	0.93559419	-11.12328	0.19671695	66.720627	0.19024182	66.474461	
	
0.222403786952283	0.19612354	65.583719	0.2000339	66.284597	0.93187421	-11.447963	0.19464915	-114.41758	
	0.2000339	66.284597	0.19302265	65.575194	0.19452084	-114.49798	0.93304796	-11.32075	
	0.93187421	-11.447963	0.19452084	-114.49798	0.19680477	65.992719	0.20016136	66.054276	
	0.19464915	-114.41758	0.93304796	-11.32075	0.20016136	66.054276	0.1941736	65.894415	
	
0.227541452368483	0.2007804	65.348063	0.20384153	65.850721	0.92953782	-11.620639	0.19839038	-114.97257	
	0.20384153	65.850721	0.19769222	65.024686	0.19836262	-114.81078	0.93059455	-11.581401	
	0.92953782	-11.620639	0.19836262	-114.81078	0.19996096	65.437297	0.20391141	65.676019	
	0.19839038	-114.97257	0.93059455	-11.581401	0.20391141	65.676019	0.19743051	65.640167	
	
0.232797801042241	0.20357251	64.661812	0.20790208	65.309616	0.92635227	-11.861439	0.20177243	-115.52698	
	0.20790208	65.309616	0.20036239	64.658691	0.20215704	-115.39688	0.92792746	-11.774011	
	0.92635227	-11.861439	0.20215704	-115.39688	0.20413675	64.969706	0.20776619	65.260455	
	0.20177243	-115.52698	0.92792746	-11.774011	0.20776619	65.260455	0.20221731	64.893295	
	
0.238175574630416	0.20716213	64.058855	0.21184551	64.843509	0.92420973	-12.054143	0.20591137	-115.88506	
	0.21184551	64.843509	0.20443898	64.184693	0.20575047	-115.86428	0.925273	-11.977364	
	0.92420973	-12.054143	0.20575047	-115.86428	0.20828636	64.313752	0.21202036	64.757397	
	0.20591137	-115.88506	0.925273	-11.977364	0.21202036	64.757397	0.20539638	64.358013	
	
0.24367757812384	0.21179739	63.682281	0.21558177	64.392372	0.92100382	-12.299718	0.20933175	-116.46221	
	0.21558177	64.392372	0.20779072	63.596395	0.20984211	-116.369	0.92290579	-12.189741	
	0.92100382	-12.299718	0.20984211	-116.369	0.21208007	63.881803	0.21539651	64.221203	
	0.20933175	-116.46221	0.92290579	-12.189741	0.21539651	64.221203	0.20861798	64.100873	
	
0.249306681310373	0.2153664	63.229425	0.21950807	63.908938	0.91821025	-12.51424	0.21355318	-117.02939	
	0.21950807	63.908938	0.21190316	62.945206	0.21338176	-116.95925	0.91983188	-12.418389	
	0.91821025	-12.51424	0.21338176	-116.95925	0.21640868	63.557633	0.21983953	63.774471	
	0.21355318	-117.02939	0.91983188	-12.418389	0.21983953	63.774471	0.21277336	63.321368	
	
0.255065820271756	0.21946449	62.805599	0.22350093	63.297137	0.9157189	-12.712207	0.21768233	-117.50723	
	0.22350093	63.297137	0.21626639	62.518605	0.21751273	-117.4171	0.91723116	-12.622638	
	0.9157189	-12.712207	0.21751273	-117.4171	0.21939729	62.862647	0.22406118	63.250205	
	0.21768233	-117.50723	0.91723116	-12.622638	0.22406118	63.250205	0.21704869	62.98576	
	
0.260957998915036	0.22329895	62.049769	0.22742843	62.895389	0.91249828	-12.956618	0.22153254	-118.08241	
	0.22742843	62.895389	0.22006423	61.993606	0.22149478	-118.00611	0.91399543	-12.822461	
	0.91249828	-12.956618	0.22149478	-118.00611	0.22399137	62.263447	0.22782533	62.759019	
	0.22153254	-118.08241	0.91399543	-12.822461	0.22782533	62.759019	0.22048336	62.256047	
	
0.266986290539378	0.22738001	61.357417	0.23156596	62.268473	0.90976727	-13.151383	0.22540194	-118.71466	
	0.23156596	62.268473	0.22371382	61.629322	0.2256188	-118.4982	0.9107267	-13.039036	
	0.90976727	-13.151383	0.2256188	-118.4982	0.22830206	61.784241	0.23182245	62.214842	
	0.22540194	-118.71466	0.9107267	-13.039036	0.23182245	62.214842	0.22449581	61.722797	
	
0.273153839439064	0.2317203	61.077928	0.23599103	61.761301	0.90722141	-13.377167	0.22961037	-119.23888	
	0.23599103	61.761301	0.22775076	60.959849	0.22973217	-119.03364	0.90799933	-13.266045	
	0.90722141	-13.377167	0.22973217	-119.03364	0.23107998	61.333502	0.23590604	61.718306	
	0.22961037	-119.23888	0.90799933	-13.266045	0.23590604	61.718306	0.22907174	61.068797	
	
0.279463862543524	0.23533841	60.395869	0.24033456	61.326322	0.90376769	-13.609214	0.23381191	-119.67059	
	0.24033456	61.326322	0.23247024	60.402711	0.23336187	-119.59412	0.90446721	-13.481297	
	0.90376769	-13.609214	0.23336187	-119.59412	0.2360627	60.567434	0.23998314	61.174037	
	0.23381191	-119.67059	0.90446721	-13.481297	0.23998314	61.174037	0.23257709	60.717921	
	
0.285919651095252	0.2399605	59.852214	0.24421725	60.681213	0.89986136	-13.850014	0.23747294	-120.3149	
	0.24421725	60.681213	0.23615493	59.914382	0.23759512	-120.28524	0.90076511	-13.717345	
	0.89986136	-13.850014	0.23759512	-120.28524	0.24011859	59.971137	0.24446696	60.485949	
	0.23747294	-120.3149	0.90076511	-13.717345	0.24446696	60.485949	0.23728933	60.016451	
	
0.292524572366485	0.24398632	59.240029	0.2483895	60.153864	0.89669613	-14.040921	0.24132179	-120.9246	
	0.2483895	60.153864	0.2410447	59.356312	0.24143256	-120.9146	0.89765497	-13.935139	
	0.89669613	-14.040921	0.24143256	-120.9146	0.24543587	59.670948	0.24844346	59.910449	
	0.24132179	-120.9246	0.89765497	-13.935139	0.24844346	59.910449	0.24310798	59.646972	
	
0.299282071415539	0.24842535	58.845308	0.25253515	59.532742	0.89278323	-14.23652	0.24567138	-121.50517	
	0.25253515	59.532742	0.24419542	58.752406	0.24548501	-121.40663	0.89391552	-14.142111	
	0.89278323	-14.23652	0.24548501	-121.40663	0.24929381	58.970846	0.2527087	59.315683	
	0.24567138	-121.50517	0.89391552	-14.142111	0.2527087	59.315683	0.24683422	58.935598	
	
0.30619567288371	0.25256569	58.219327	0.25642574	59.039904	0.8885389	-14.48594	0.24960916	-122.04616	
	0.25642574	59.039904	0.24754128	58.013925	0.24930084	-121.891	0.89073554	-14.31504	
	0.8885389	-14.48594	0.24930084	-121.891	0.25320644	58.472239	0.25725824	58.878384	
	0.24960916	-122.04616	0.89073554	-14.31504	0.25725824	58.878384	0.25003496	58.31995	
	
0.313268982833699	0.25655373	57.750654	0.26101518	58.47652	0.88575457	-14.722639	0.2540762	-122.58277	
	0.26101518	58.47652	0.25243413	57.626562	0.25446579	-122.53261	0.88730196	-14.562205	
	0.88575457	-14.722639	0.25446579	-122.53261	0.25723423	57.86567	0.26167294	58.326323	
	0.2540762	-122.58277	0.88730196	-14.562205	0.26167294	58.326323	0.2541839	57.843059	
	
0.320505690630487	0.25948729	57.159888	0.265556	58.0299	0.88232913	-14.889247	0.25855433	-123.03808	
	0.265556	58.0299	0.25631347	56.975268	0.25824259	-122.97584	0.88426792	-14.76779	
	0.88232913	-14.889247	0.25824259	-122.97584	0.2609435	57.251527	0.26600431	57.843066	
	0.25855433	-123.03808	0.88426792	-14.76779	0.26600431	57.843066	0.2571314	57.295648	
	
0.327909570865677	0.26443545	56.457136	0.27047722	57.519225	0.87818269	-15.139733	0.26342775	-123.73428	
	0.27047722	57.519225	0.26025908	56.577402	0.26332536	-123.44994	0.88031045	-15.046008	
	0.87818269	-15.139733	0.26332536	-123.44994	0.26454749	56.829036	0.27074069	57.228198	
	0.26342775	-123.73428	0.88031045	-15.046008	0.27074069	57.228198	0.26188656	56.769874	
	
0.335484485326279	0.26805793	55.831588	0.27476121	56.938005	0.87440062	-15.347276	0.26722324	-124.23711	
	0.27476121	56.938005	0.26370509	55.870355	0.26736682	-124.13996	0.87622102	-15.219751	
