# MHz S MA R 50

0.1	0.44508257	26.500482	0.43481434	27.222145	0.62949161	-18.857768	0.43319609	-153.36096	
	0.43481434	27.222145	0.44480905	26.605953	0.43364912	-153.40206	0.63084954	-18.88363	
	0.62949161	-18.857768	0.43364912	-153.40206	0.44524313	26.581873	0.43523876	27.054563	
	0.43319609	-153.36096	0.63084954	-18.88363	0.43523876	27.054563	0.44411619	26.513093	
	
0.102310062021247	0.4476616	26.007683	0.437263	26.683467	0.6250482	-18.717763	0.43556586	-153.98137	
	0.437263	26.683467	0.4470003	26.087809	0.43509576	-153.9178	0.62622856	-18.772424	
	0.6250482	-18.717763	0.43509576	-153.9178	0.44707342	26.113362	0.43746057	26.584033	
	0.43556586	-153.98137	0.62622856	-18.772424	0.43746057	26.584033	0.447181	26.158967	
	
0.104673487907914	0.44997601	25.496966	0.43921688	26.073684	0.62054016	-18.622789	0.43782626	-154.48378	
	0.43921688	26.073684	0.4487695	25.499259	0.43692954	-154.41776	0.62218099	-18.614694	
	0.62054016	-18.622789	0.43692954	-154.41776	0.44939012	25.599704	0.43935658	26.011658	
	0.43782626	-154.48378	0.62218099	-18.614694	0.43935658	26.011658	0.44881607	25.634973	
	
0.107091510398389	0.4519745	25.037755	0.44102096	25.620789	0.61668663	-18.496674	0.43923339	-154.98946	
	0.44102096	25.620789	0.45093934	24.974135	0.4395538	-154.95358	0.61800138	-18.53644	
	0.61668663	-18.496674	0.4395538	-154.95358	0.45141823	25.169592	0.44091792	25.489816	
	0.43923339	-154.98946	0.61800138	-18.53644	0.44091792	25.489816	0.45100974	25.139818	
	
0.109565390708082	0.45400604	24.649541	0.44304714	25.147752	0.61286353	-18.379506	0.4414903	-155.55643	
	0.44304714	25.147752	0.45250004	24.478641	0.44130966	-155.43335	0.61404401	-18.387209	
	0.61286353	-18.379506	0.44130966	-155.43335	0.45348808	24.687398	0.44305804	24.946612	
	0.4414903	-155.55643	0.61404401	-18.387209	0.44305804	24.946612	0.45300298	24.701114	
	
0.112096419187261	0.45592906	24.222693	0.44555795	24.611699	0.60865948	-18.266471	0.44378747	-156.04857	
	0.44555795	24.611699	0.455393	24.09295	0.4435285	-155.94321	0.60977656	-18.270171	
	0.60865948	-18.266471	0.4435285	-155.94321	0.45440964	24.176005	0.44550648	24.515864	
	0.44378747	-156.04857	0.60977656	-18.270171	0.44550648	24.515864	0.45455354	24.198894	
	
0.114685915994083	0.45727387	23.593838	0.44719472	24.121815	0.60486262	-18.040913	0.44518501	-156.53466	
	0.44719472	24.121815	0.4560921	23.612422	0.4455231	-156.46413	0.60613481	-18.144769	
	0.60486262	-18.040913	0.4455231	-156.46413	0.45668493	23.707897	0.44726858	24.069223	
	0.44518501	-156.53466	0.60613481	-18.144769	0.44726858	24.069223	0.45654359	23.72673	
	
0.117335231783182	0.45897257	23.122556	0.44829709	23.68781	0.60137061	-17.970287	0.44679354	-156.98601	
	0.44829709	23.68781	0.45888056	23.120873	0.44641315	-156.99034	0.6027421	-18.047947	
	0.60137061	-17.970287	0.44641315	-156.99034	0.45830602	23.254126	0.44877272	23.549358	
	0.44679354	-156.98601	0.6027421	-18.047947	0.44877272	23.549358	0.45776641	23.283416	
	
0.120045748410147	0.46128431	22.695642	0.44974426	23.202678	0.5980951	-17.819557	0.44843866	-157.55957	
	0.44974426	23.202678	0.45906424	22.67198	0.44767144	-157.53062	0.59848438	-17.850522	
	0.5980951	-17.819557	0.44767144	-157.53062	0.4601899	22.796225	0.44999308	23.159374	
	0.44843866	-157.55957	0.59848438	-17.850522	0.44999308	23.159374	0.45954299	22.739486	
	
0.122818879652292	0.46238981	22.272889	0.45181045	22.669208	0.59401643	-17.636887	0.44992812	-157.98656	
	0.45181045	22.669208	0.46147594	22.287959	0.45002287	-157.91845	0.59532799	-17.694694	
	0.59401643	-17.636887	0.45002287	-157.91845	0.46224611	22.291673	0.45227925	22.595607	
	0.44992812	-157.98656	0.59532799	-17.694694	0.45227925	22.595607	0.46179283	22.340813	
	
0.125656071946061	0.46427377	21.797717	0.45381929	22.243925	0.59068566	-17.503699	0.4515771	-158.47353	
	0.45381929	22.243925	0.4629443	21.829478	0.45164739	-158.38349	0.59166702	-17.565718	
	0.59068566	-17.503699	0.45164739	-158.38349	0.46407868	21.842529	0.4539032	22.196409	
	0.4515771	-158.47353	0.59166702	-17.565718	0.4539032	22.196409	0.46407298	21.914205	
	
0.128558805141477	0.4652912	21.368096	0.45462892	21.781893	0.58688017	-17.366024	0.45282491	-158.89938	
	0.45462892	21.781893	0.46487431	21.375752	0.45296521	-158.86591	0.58810375	-17.434142	
	0.58688017	-17.366024	0.45296521	-158.86591	0.46513116	21.399244	0.45568671	21.719301	
	0.45282491	-158.89938	0.58810375	-17.434142	0.45568671	21.719301	0.4642867	21.387297	
	
0.131528593274019	0.46734986	20.928621	0.45623637	21.372164	0.5839319	-17.165538	0.4545286	-159.27946	
	0.45623637	21.372164	0.46538264	20.990341	0.45449339	-159.31467	0.58501131	-17.235769	
	0.5839319	-17.165538	0.45449339	-159.31467	0.46663598	20.990887	0.45685112	21.292317	
	0.4545286	-159.27946	0.58501131	-17.235769	0.45685112	21.292317	0.46606892	21.073839	
	
0.134566985354323	0.46859641	20.44357	0.45740893	20.931397	0.58074292	-16.990256	0.45573768	-159.81356	
	0.45740893	20.931397	0.46749383	20.55195	0.45546168	-159.76813	0.58193037	-17.049767	
	0.58074292	-16.990256	0.45546168	-159.76813	0.46876941	20.56393	0.45790317	20.812025	
	0.45573768	-159.81356	0.58193037	-17.049767	0.45790317	20.812025	0.46770026	20.636435	
	
0.13767556617613	0.47017462	20.093727	0.4588556	20.51129	0.57761179	-16.837444	0.4569053	-160.26161	
	0.4588556	20.51129	0.46939504	20.046328	0.45716291	-160.23825	0.57874591	-16.857993	
	0.57761179	-16.837444	0.45716291	-160.23825	0.4693736	20.145849	0.45991775	20.341715	
	0.4569053	-160.26161	0.57874591	-16.857993	0.45991775	20.341715	0.46871825	20.188611	
	
0.140855957142902	0.47086783	19.650143	0.46019977	20.091633	0.57519834	-16.650251	0.45821761	-160.74392	
	0.46019977	20.091633	0.47086651	19.612035	0.45788906	-160.67336	0.57560209	-16.717045	
	0.57519834	-16.650251	0.45788906	-160.67336	0.47095797	19.702358	0.46038618	19.957512	
	0.45821761	-160.74392	0.57560209	-16.717045	0.46038618	19.957512	0.47089277	19.815768	
	
0.144109817113524	0.47257261	19.232265	0.46120656	19.684223	0.57152553	-16.440118	0.45962875	-161.15582	
	0.46120656	19.684223	0.47178146	19.331073	0.45934876	-161.09534	0.57225971	-16.559606	
	0.57152553	-16.440118	0.45934876	-161.09534	0.47222538	19.34662	0.46186583	19.551743	
	0.45962875	-161.15582	0.57225971	-16.559606	0.46186583	19.551743	0.47170615	19.388666	
	
0.147438843267552	0.47375177	18.830339	0.46256855	19.22126	0.5683967	-16.283363	0.46044106	-161.60253	
	0.46256855	19.22126	0.47247771	18.836546	0.46117186	-161.54044	0.56944564	-16.388419	
	0.5683967	-16.283363	0.46117186	-161.54044	0.47358565	18.976072	0.46294768	19.155337	
	0.46044106	-161.60253	0.56944564	-16.388419	0.46294768	19.155337	0.47308165	18.976461	
	
0.150844771990442	0.47554028	18.389082	0.46361465	18.820494	0.56619079	-16.102997	0.4622935	-161.94735	
	0.46361465	18.820494	0.47441303	18.453282	0.46148239	-161.99165	0.56702805	-16.139897	
	0.56619079	-16.102997	0.46148239	-161.99165	0.47459662	18.548611	0.46422653	18.763046	
	0.4622935	-161.94735	0.56702805	-16.139897	0.46422653	18.763046	0.47369535	18.627094	
	
0.154329379779229	0.47639198	18.106724	0.46466657	18.448288	0.56338115	-15.890632	0.46299754	-162.45776	
	0.46466657	18.448288	0.47548124	18.076288	0.46339563	-162.45793	0.56454303	-15.989562	
	0.56338115	-15.890632	0.46339563	-162.45793	0.47591562	18.212422	0.46554526	18.342275	
	0.46299754	-162.45776	0.56454303	-15.989562	0.46554526	18.342275	0.47484161	18.247761	
	
0.157894484169135	0.47757178	17.719473	0.46601631	18.053747	0.56115112	-15.701556	0.4643313	-162.82672	
	0.46601631	18.053747	0.47682635	17.754143	0.46432584	-162.75552	0.56174687	-15.835154	
	0.56115112	-15.701556	0.46432584	-162.75552	0.47653241	17.834396	0.46649123	17.889846	
	0.4643313	-162.82672	0.56174687	-15.835154	0.46649123	17.889846	0.47614863	17.837184	
	
0.16154194468157	0.47801299	17.307755	0.46799838	17.672086	0.55761106	-15.538449	0.46525668	-163.24237	
	0.46799838	17.672086	0.47793075	17.513429	0.46502794	-163.14072	0.55927249	-15.700493	
	0.55761106	-15.538449	0.46502794	-163.14072	0.47780649	17.413289	0.46803618	17.679542	
	0.46525668	-163.24237	0.55927249	-15.700493	0.46803618	17.679542	0.47779654	17.414252	
	
0.165273663794043	0.47905344	16.992296	0.46843883	17.313633	0.55555763	-15.346682	0.46602711	-163.67069	
	0.46843883	17.313633	0.47888346	16.986019	0.46583869	-163.60651	0.55689736	-15.439288	
	0.55555763	-15.346682	0.46583869	-163.60651	0.47877275	17.12725	0.46863755	17.195759	
	0.46602711	-163.67069	0.55689736	-15.439288	0.46863755	17.195759	0.47809289	17.14321	
	
0.169091587932473	0.48067056	16.671014	0.46913165	16.926575	0.55346613	-15.158583	0.46697185	-164.00458	
	0.46913165	16.926575	0.48030706	16.738314	0.46698384	-164.01234	0.55412301	-15.270236	
	0.55346613	-15.158583	0.46698384	-164.01234	0.48019735	16.714594	0.468976	16.829383	
	0.46697185	-164.00458	0.55412301	-15.270236	0.468976	16.829383	0.47987144	16.764245	
	
0.172997708486424	0.48112115	16.264322	0.47032912	16.546847	0.55129966	-14.952162	0.46845844	-164.37585	
	0.47032912	16.546847	0.48096131	16.241325	0.46772947	-164.3075	0.55168537	-15.12389	
	0.55129966	-14.952162	0.46772947	-164.3075	0.4815612	16.371424	0.47023895	16.480113	
	0.46845844	-164.37585	0.55168537	-15.12389	0.47023895	16.480113	0.4804117	16.420008	
	
0.176994062847797	0.48210484	15.929969	0.4711047	16.156726	0.54871704	-14.752458	0.46929563	-164.77769	
	0.4711047	16.156726	0.48126815	15.976266	0.46899303	-164.72486	0.54935069	-14.849314	
	0.54871704	-14.752458	0.46899303	-164.72486	0.48214388	15.974638	0.47138393	16.114722	
	0.46929563	-164.77769	0.54935069	-14.849314	0.47138393	16.114722	0.48035408	16.048068	
	
0.181082735473506	0.48293816	15.618157	0.47143104	15.854154	0.54653852	-14.550786	0.46963943	-165.10669	
	0.47143104	15.854154	0.48289366	15.614498	0.46964148	-165.06776	0.54798205	-14.699502	
	0.54653852	-14.550786	0.46964148	-165.06776	0.48196844	15.68851	0.47199718	15.71628	
	0.46963943	-165.10669	0.54798205	-14.699502	0.47199718	15.71628	0.48182028	15.700774	
	
0.185265858972714	0.48325526	15.263087	0.47268847	15.510068	0.54453444	-14.404258	0.47070094	-165.4664	
	0.47268847	15.510068	0.4836143	15.327886	0.47043529	-165.42069	0.54569725	-14.502569	
	0.54453444	-14.404258	0.47043529	-165.42069	0.48296149	15.289763	0.47304119	15.394544	
	0.47070094	-165.4664	0.54569725	-14.502569	0.47304119	15.394544	0.48310755	15.448367	
	
0.18954561521918	0.48431276	14.995441	0.47342229	15.23372	0.54239001	-14.226522	0.47225462	-165.86816	
	0.47342229	15.23372	0.48498513	14.955868	0.47112771	-165.79105	0.54314522	-14.339911	
	0.54239001	-14.226522	0.47112771	-165.79105	0.48361816	15.076042	0.47416201	15.11626	
	0.47225462	-165.86816	0.54314522	-14.339911	0.47416201	15.11626	0.48329263	15.018343	
	
0.193924236489297	0.48543205	14.65684	0.47356289	14.851084	0.5405083	-14.071837	0.47180231	-166.14666	
	0.47356289	14.851084	0.48511224	14.620477	0.47240131	-166.14979	0.5414534	-14.121709	
	0.5405083	-14.071837	0.47240131	-166.14979	0.48453367	14.66514	0.47427127	14.739569	
	0.47180231	-166.14666	0.5414534	-14.121709	0.47427127	14.739569	0.48494485	14.7375	
	
0.19840400662643	0.48611633	14.354272	0.47504699	14.486114	0.53856998	-13.834368	0.47308788	-166.59028	
	0.47504699	14.486114	0.48567391	14.336464	0.47293424	-166.56968	0.54003611	-13.950003	
	0.53856998	-13.834368	0.47293424	-166.56968	0.48542033	14.30344	0.47580017	14.421557	
	0.47308788	-166.59028	0.54003611	-13.950003	0.47580017	14.421557	0.48513395	14.417199	
	
0.202987262232139	0.48668216	14.043683	0.47538838	14.182416	0.53676485	-13.666696	0.47382811	-166.92898	
	0.47538838	14.182416	0.48672548	14.098824	0.47338699	-166.87789	0.53739717	-13.759865	
	0.53676485	-13.666696	0.47338699	-166.87789	0.4861246	14.006819	0.47587568	14.138841	
	0.47382811	-166.92898	0.53739717	-13.759865	0.47587568	14.138841	0.48665584	14.150047	
	
0.207676393884933	0.48715709	13.718484	0.47621191	13.877529	0.53520531	-13.471283	0.47435354	-167.3159	
	0.47621191	13.877529	0.48715419	13.812032	0.47434658	-167.18112	0.53596545	-13.586587	
	0.53520531	-13.471283	0.47434658	-167.18112	0.48702892	13.792699	0.47629514	13.762408	
	0.47435354	-167.3159	0.53596545	-13.586587	0.47629514	13.762408	0.48708692	13.882737	
	
0.212473847387164	0.48829148	13.455513	0.47658063	13.586287	0.53370457	-13.260657	0.47470152	-167.55853	
	0.47658063	13.586287	0.48760175	13.440385	0.47416568	-167.52995	0.53445673	-13.361248	
	0.53370457	-13.260657	0.47416568	-167.52995	0.48754262	13.503137	0.47704515	13.489005	
	0.47470152	-167.55853	0.53445673	-13.361248	0.47704515	13.489005	0.48758081	13.606622	
	
0.217382125040737	0.48832452	13.24632	0.47742839	13.220592	0.53197858	-13.117946	0.47515985	-167.8759	
	0.47742839	13.220592	0.48845578	13.180359	0.47516933	-167.87675	0.53272848	-13.194072	
	0.53197858	-13.117946	0.47516933	-167.87675	0.48773749	13.208502	0.47795744	13.175465	
	0.47515985	-167.8759	0.53272848	-13.194072	0.47795744	13.175465	0.48882797	13.265055	
	
0.222403786952283	0.48957403	12.852404	0.47805753	12.954246	0.53040737	-12.960986	0.47594752	-168.16697	
	0.47805753	12.954246	0.48927081	12.907625	0.47548584	-168.15514	0.53129719	-13.005544	
	0.53040737	-12.960986	0.47548584	-168.15514	0.48878622	12.974914	0.47837877	12.875023	
	0.47594752	-168.16697	0.53129719	-13.005544	0.47837877	12.875023	0.48842596	13.0034	
	
0.227541452368483	0.49039573	12.603314	0.4789637	12.716034	0.52878024	-12.742155	0.47662409	-168.53854	
	0.4789637	12.716034	0.49000402	12.623029	0.4765097	-168.45169	0.52927421	-12.893155	
	0.52878024	-12.742155	0.4765097	-168.45169	0.48928432	12.573211	0.47901487	12.645991	
	0.47662409	-168.53854	0.52927421	-12.893155	0.47901487	12.645991	0.49012512	12.719861	
	
0.232797801042241	0.49073003	12.282473	0.47944907	12.408068	0.52729008	-12.541056	0.47697255	-168.85306	
	0.47944907	12.408068	0.49053777	12.346899	0.47721634	-168.8121	0.52829223	-12.674419	
	0.52729008	-12.541056	0.47721634	-168.8121	0.49014517	12.359658	0.47938434	12.293229	
	0.47697255	-168.85306	0.52829223	-12.674419	0.47938434	12.293229	0.49020053	12.459678	
	
0.238175574630416	0.49135042	12.015699	0.47977042	12.10713	0.52603182	-12.406688	0.47779166	-169.11829	
	0.47977042	12.10713	0.49039565	11.995673	0.47718073	-169.1135	0.52691268	-12.48693	
	0.52603182	-12.406688	0.47718073	-169.1135	0.49092597	12.109115	0.48009305	12.021584	
	0.47779166	-169.11829	0.52691268	-12.48693	0.48009305	12.021584	0.49075666	12.118969	
	
0.24367757812384	0.49189678	11.838949	0.48022363	11.834383	0.52474053	-12.247684	0.47832122	-169.41044	
	0.48022363	11.834383	0.49066524	11.770314	0.47772509	-169.40083	0.52552052	-12.357481	
	0.52474053	-12.247684	0.47772509	-169.40083	0.49056041	11.839928	0.48026235	11.691392	
	0.47832122	-169.41044	0.52552052	-12.357481	0.48026235	11.691392	0.490786	11.877201	
	
0.249306681310373	0.49249804	11.525882	0.4807755	11.630085	0.52289951	-12.04942	0.47831396	-169.73049	
	0.4807755	11.630085	0.49228118	11.543028	0.47794849	-169.70837	0.52386757	-12.164734	
	0.52289951	-12.04942	0.47794849	-169.70837	0.49182214	11.629894	0.48114208	11.490992	
	0.47831396	-169.73049	0.52386757	-12.164734	0.48114208	11.490992	0.49176701	11.70299	
	
0.255065820271756	0.49310711	11.311744	0.48153996	11.349808	0.5219687	-11.940219	0.47918282	-169.99892	
	0.48153996	11.349808	0.49258219	11.263026	0.47876541	-169.99389	0.5228691	-12.013164	
	0.5219687	-11.940219	0.47876541	-169.99389	0.49176081	11.33558	0.48195561	11.159273	
	0.47918282	-169.99892	0.5228691	-12.013164	0.48195561	11.159273	0.49151339	11.422182	
	
0.260957998915036	0.49320073	11.00939	0.48126582	11.100638	0.52054242	-11.722712	0.47932883	-170.32586	
	0.48126582	11.100638	0.49329704	11.104496	0.47943764	-170.28217	0.52155679	-11.849902	
	0.52054242	-11.722712	0.47943764	-170.28217	0.4925803	11.075827	0.48180062	11.016697	
	0.47932883	-170.32586	0.52155679	-11.849902	0.48180062	11.016697	0.49252371	11.139136	
	
0.266986290539378	0.49380597	10.797901	0.48176689	10.783019	0.52004193	-11.527295	0.47964869	-170.61272	
	0.48176689	10.783019	0.4929292	10.885236	0.47972439	-170.60316	0.52037204	-11.733091	
	0.52004193	-11.527295	0.47972439	-170.60316	0.49352299	10.851116	0.48212313	10.700164	
	0.47964869	-170.61272	0.52037204	-11.733091	0.48212313	10.700164	0.49274376	10.931074	
	
0.273153839439064	0.49424698	10.613866	0.48229696	10.553661	0.51880812	-11.427354	0.48024236	-170.89102	
	0.48229696	10.553661	0.49369535	10.585709	0.48045215	-170.79264	0.51944438	-11.514856	
	0.51880812	-11.427354	0.48045215	-170.79264	0.49291785	10.569872	0.4823267	10.483966	
	0.48024236	-170.89102	0.51944438	-11.514856	0.4823267	10.483966	0.49343092	10.69382	
	
0.279463862543524	0.49443436	10.30284	0.48238909	10.367846	0.51776193	-11.268469	0.4808198	-171.15703	
	0.48238909	10.367846	0.49570814	10.386576	0.48034829	-171.13451	0.51781898	-11.384974	
	0.51776193	-11.268469	0.48034829	-171.13451	0.49394711	10.316288	0.48283369	10.281489	
	0.4808198	-171.15703	0.51781898	-11.384974	0.48283369	10.281489	0.49425465	10.480846	
	
0.285919651095252	0.49511044	10.181832	0.48305549	10.064041	0.51687239	-11.11037	0.48091991	-171.40116	
	0.48305549	10.064041	0.49417689	10.157469	0.48081155	-171.42216	0.5173374	-11.230027	
	0.51687239	-11.11037	0.48081155	-171.42216	0.4939781	10.180966	0.48321908	9.9614368	
	0.48091991	-171.40116	0.5173374	-11.230027	0.48321908	9.9614368	0.49386885	10.279058	
	
0.292524572366485	0.49566057	9.9049256	0.48362601	9.8511466	0.5154491	-10.968997	0.48077051	-171.72533	
	0.48362601	9.8511466	0.49560603	10.014302	0.48162596	-171.74824	0.51635756	-11.083843	
	0.5154491	-10.968997	0.48162596	-171.74824	0.49445846	10.00198	0.48407357	9.654615	
	0.48077051	-171.72533	0.51635756	-11.083843	0.48407357	9.654615	0.49430414	10.107846	
	
0.299282071415539	0.49568442	9.7400213	0.48339125	9.6226749	0.51486967	-10.801703	0.48127976	-172.02015	
	0.48339125	9.6226749	0.49509153	9.7948895	0.48118683	-171.89471	0.51576761	-10.937714	
	0.51486967	-10.801703	0.48118683	-171.89471	0.49489374	9.8618826	0.48393949	9.4053652	
	0.48127976	-172.02015	0.51576761	-10.937714	0.48393949	9.4053652	0.49443475	9.9646521	
	
0.30619567288371	0.49636121	9.5763715	0.48365641	9.434523	0.51376387	-10.660572	0.48174896	-172.19743	
	0.48365641	9.434523	0.49598276	9.61189	0.4814968	-172.19023	0.51502307	-10.802138	
	0.51376387	-10.660572	0.4814968	-172.19023	0.49471225	9.5525442	0.48418668	9.2671367	
	0.48174896	-172.19743	0.51502307	-10.802138	0.48418668	9.2671367	0.49491879	9.665204	
	
0.313268982833699	0.49649745	9.2620274	0.48441071	9.2314103	0.51248996	-10.516919	0.4822269	-172.44571	
	0.48441071	9.2314103	0.49551454	9.3025688	0.48219421	-172.44916	0.51384084	-10.620111	
	0.51248996	-10.516919	0.48219421	-172.44916	0.49540494	9.3204582	0.48478422	9.0973546	
	0.4822269	-172.44571	0.51384084	-10.620111	0.48478422	9.0973546	0.49520064	9.4874574	
	
0.320505690630487	0.49597226	9.0833462	0.4845951	9.0444885	0.51216881	-10.319744	0.48280921	-172.64173	
	0.4845951	9.0444885	0.4962412	9.055519	0.48226896	-172.66892	0.51260412	-10.493377	
	0.51216881	-10.319744	0.48226896	-172.66892	0.49572668	9.0733149	0.48495974	8.8424018	
	0.48280921	-172.64173	0.51260412	-10.493377	0.48495974	8.8424018	0.49588719	9.1710513	
	
0.327909570865677	0.49616236	8.8296988	0.4849805	8.8539924	0.5116337	-10.191307	0.48352173	-172.89612	
	0.4849805	8.8539924	0.49616193	8.8123117	0.48287212	-172.7709	0.51179142	-10.355282	
	0.5116337	-10.191307	0.48287212	-172.7709	0.49595684	8.8585062	0.48584747	8.6794765	
	0.48352173	-172.89612	0.51179142	-10.355282	0.48584747	8.6794765	0.49525765	8.9881376	
	
0.335484485326279	0.49695839	8.6276604	0.48564606	8.6022756	0.51028136	-10.08133	0.48305724	-173.1346	
	0.48564606	8.6022756	0.49694371	8.6302489	0.48337897	-173.05941	0.5111352	-10.16836	
