# MHz S MA R 50

0.1	0.41942883	30.690638	0.41660877	32.12272	0.67020401	-19.220694	0.41317453	-148.69914	
	0.41660877	32.12272	0.42033676	30.88398	0.41351241	-148.63947	0.6707757	-19.334773	
	0.67020401	-19.220694	0.41351241	-148.63947	0.41993106	30.721455	0.41722448	31.9507	
	0.41317453	-148.69914	0.6707757	-19.334773	0.41722448	31.9507	0.42056461	30.801637	
	
0.102310062021247	0.4227759	30.159868	0.41899601	31.533586	0.66527625	-19.135532	0.41637432	-149.39387	
	0.41899601	31.533586	0.4228071	30.179847	0.41584609	-149.32923	0.66525928	-19.270748	
	0.66527625	-19.135532	0.41584609	-149.32923	0.42253216	30.245763	0.41929797	31.418117	
	0.41637432	-149.39387	0.66525928	-19.270748	0.41929797	31.418117	0.42404056	30.187196	
	
0.104673487907914	0.4254987	29.527242	0.4218154	30.925916	0.66053757	-19.099614	0.41919532	-149.97329	
	0.4218154	30.925916	0.4254808	29.597683	0.41806021	-149.84767	0.66116724	-19.228826	
	0.66053757	-19.099614	0.41806021	-149.84767	0.42520616	29.713461	0.42218064	30.78528	
	0.41919532	-149.97329	0.66116724	-19.228826	0.42218064	30.78528	0.42590237	29.629397	
	
0.107091510398389	0.42795305	29.014498	0.42470204	30.41466	0.65597385	-19.07874	0.42122843	-150.41727	
	0.42470204	30.41466	0.4286019	29.071327	0.42132225	-150.4077	0.65648	-19.188835	
	0.65597385	-19.07874	0.42132225	-150.4077	0.42795183	29.050498	0.42452565	30.295398	
	0.42122843	-150.41727	0.65648	-19.188835	0.42452565	30.295398	0.42879371	29.13244	
	
0.109565390708082	0.43038587	28.593892	0.42714966	29.837403	0.6514984	-18.980599	0.42395946	-151.10059	
	0.42714966	29.837403	0.43078015	28.459354	0.42330866	-150.99008	0.65145484	-19.10349	
	0.6514984	-18.980599	0.42330866	-150.99008	0.42988183	28.525283	0.42705042	29.732641	
	0.42395946	-151.10059	0.65145484	-19.10349	0.42705042	29.732641	0.43109521	28.633057	
	
0.112096419187261	0.43309598	28.064282	0.43014549	29.306011	0.64630237	-18.93918	0.42685176	-151.6322	
	0.43014549	29.306011	0.43351429	27.940409	0.427064	-151.48748	0.64661232	-19.078522	
	0.64630237	-18.93918	0.427064	-151.48748	0.43177764	28.012866	0.43020322	29.172575	
	0.42685176	-151.6322	0.64661232	-19.078522	0.43020322	29.172575	0.43327592	28.006493	
	
0.114685915994083	0.43518758	27.440681	0.431882	28.810083	0.64244685	-18.811868	0.42897912	-152.15264	
	0.431882	28.810083	0.43528644	27.418487	0.42887875	-152.13755	0.6423767	-18.997383	
	0.64244685	-18.811868	0.42887875	-152.13755	0.43411003	27.530151	0.43257635	28.656255	
	0.42897912	-152.15264	0.6423767	-18.997383	0.43257635	28.656255	0.43597707	27.427515	
	
0.117335231783182	0.43689739	26.837623	0.43399246	28.302649	0.63777037	-18.782663	0.43073509	-152.65813	
	0.43399246	28.302649	0.43776138	26.940198	0.43077516	-152.66886	0.6381017	-18.918527	
	0.63777037	-18.782663	0.43077516	-152.66886	0.43683749	26.996675	0.43446535	28.164302	
	0.43073509	-152.65813	0.6381017	-18.918527	0.43446535	28.164302	0.43754955	26.986887	
	
0.120045748410147	0.43952159	26.347828	0.43592913	27.705142	0.63430588	-18.646817	0.43314336	-153.16894	
	0.43592913	27.705142	0.43908128	26.314003	0.43285227	-153.20053	0.63346815	-18.752509	
	0.63430588	-18.646817	0.43285227	-153.20053	0.43892328	26.474729	0.4363322	27.698904	
	0.43314336	-153.16894	0.63346815	-18.752509	0.4363322	27.698904	0.44049617	26.384161	
	
0.122818879652292	0.44179985	25.882087	0.43852744	27.227345	0.6292799	-18.532809	0.43523909	-153.73239	
	0.43852744	27.227345	0.44214949	25.888735	0.43502125	-153.66537	0.62938212	-18.671809	
	0.6292799	-18.532809	0.43502125	-153.66537	0.44124028	25.883101	0.43902072	27.157182	
	0.43523909	-153.73239	0.62938212	-18.671809	0.43902072	27.157182	0.44243952	25.934833	
	
0.125656071946061	0.4442212	25.381902	0.44087507	26.772986	0.62502818	-18.43931	0.43712144	-154.31474	
	0.44087507	26.772986	0.44398199	25.373747	0.43690562	-154.20113	0.62489038	-18.575969	
	0.62502818	-18.43931	0.43690562	-154.20113	0.44381356	25.403691	0.44110643	26.714771	
	0.43712144	-154.31474	0.62489038	-18.575969	0.44110643	26.714771	0.44507295	25.393415	
	
0.128558805141477	0.44540313	24.889637	0.44219038	26.254195	0.62057355	-18.336222	0.43874699	-154.76474	
	0.44219038	26.254195	0.44610576	24.839883	0.43904137	-154.73146	0.62086927	-18.486735	
	0.62057355	-18.336222	0.43904137	-154.73146	0.4458159	24.822908	0.44337765	26.2174	
	0.43874699	-154.76474	0.62086927	-18.486735	0.44337765	26.2174	0.4458137	24.884676	
	
0.131528593274019	0.4477398	24.342638	0.44434151	25.799978	0.61699873	-18.191122	0.44132515	-155.22895	
	0.44434151	25.799978	0.44793447	24.42273	0.44074432	-155.1957	0.61675926	-18.36125	
	0.61699873	-18.191122	0.44074432	-155.1957	0.44771217	24.379915	0.44510351	25.697375	
	0.44132515	-155.22895	0.61675926	-18.36125	0.44510351	25.697375	0.44806142	24.440526	
	
0.134566985354323	0.44975991	23.775574	0.44622904	25.245353	0.61301484	-18.076998	0.44273382	-155.78104	
	0.44622904	25.245353	0.4500376	23.862566	0.44266639	-155.70597	0.61299719	-18.18508	
	0.61301484	-18.076998	0.44266639	-155.70597	0.44968016	23.91812	0.4468042	25.153791	
	0.44273382	-155.78104	0.61299719	-18.18508	0.4468042	25.153791	0.45002868	23.987008	
	
0.13767556617613	0.45201727	23.363211	0.44798949	24.875404	0.6093251	-17.954113	0.44443925	-156.29775	
	0.44798949	24.875404	0.45238068	23.383444	0.44459588	-156.20737	0.60913452	-18.045622	
	0.6093251	-17.954113	0.44459588	-156.20737	0.45069168	23.3952	0.44851811	24.672677	
	0.44443925	-156.29775	0.60913452	-18.045622	0.44851811	24.672677	0.45182535	23.487242	
	
0.140855957142902	0.45241535	22.858674	0.44977713	24.445103	0.60613228	-17.787738	0.44588068	-156.81137	
	0.44977713	24.445103	0.45444629	22.85152	0.44574177	-156.69944	0.60524408	-17.935541	
	0.60613228	-17.787738	0.44574177	-156.69944	0.45297716	22.826835	0.44987981	24.19132	
	0.44588068	-156.81137	0.60524408	-17.935541	0.44987981	24.19132	0.45350723	22.943205	
	
0.144109817113524	0.45542826	22.329528	0.45147885	23.9406	0.60183589	-17.64361	0.44784107	-157.20495	
	0.45147885	23.9406	0.45547496	22.405567	0.44754601	-157.22016	0.60169991	-17.78329	
	0.60183589	-17.64361	0.44754601	-157.22016	0.45447243	22.475611	0.45173511	23.810417	
	0.44784107	-157.20495	0.60169991	-17.78329	0.45173511	23.810417	0.45535019	22.527587	
	
0.147438843267552	0.45702821	21.975278	0.45303485	23.445177	0.59808748	-17.506059	0.44942404	-157.69948	
	0.45303485	23.445177	0.45669035	21.91644	0.44947082	-157.69623	0.59797903	-17.685896	
	0.59808748	-17.506059	0.44947082	-157.69623	0.45625672	22.063133	0.45358631	23.375758	
	0.44942404	-157.69948	0.59797903	-17.685896	0.45358631	23.375758	0.45826317	22.126367	
	
0.150844771990442	0.45851895	21.40149	0.45475587	23.020555	0.59490848	-17.310517	0.45169779	-158.20448	
	0.45475587	23.020555	0.45906866	21.51833	0.45091991	-158.13708	0.59431973	-17.468976	
	0.59490848	-17.310517	0.45091991	-158.13708	0.4580344	21.526652	0.45489135	22.908274	
	0.45169779	-158.20448	0.59431973	-17.468976	0.45489135	22.908274	0.45869293	21.620575	
	
0.154329379779229	0.46009	20.997133	0.45655643	22.554189	0.59125014	-17.171023	0.45261006	-158.70307	
	0.45655643	22.554189	0.4609422	20.99952	0.45293591	-158.70502	0.59134287	-17.318412	
	0.59125014	-17.171023	0.45293591	-158.70502	0.45953029	21.100069	0.45646746	22.461288	
	0.45261006	-158.70307	0.59134287	-17.318412	0.45646746	22.461288	0.46021597	21.106573	
	
0.157894484169135	0.46166035	20.579259	0.45796144	22.159242	0.58829881	-17.013633	0.4545231	-159.1532	
	0.45796144	22.159242	0.46226475	20.613774	0.45426529	-159.10167	0.58818745	-17.171784	
	0.58829881	-17.013633	0.45426529	-159.10167	0.46080347	20.659881	0.45822136	21.987293	
	0.4545231	-159.1532	0.58818745	-17.171784	0.45822136	21.987293	0.46193886	20.712977	
	
0.16154194468157	0.46306625	20.130016	0.46011796	21.746951	0.58377629	-16.830028	0.4561208	-159.61326	
	0.46011796	21.746951	0.46391137	20.267046	0.45569213	-159.49936	0.58501168	-17.101197	
	0.58377629	-16.830028	0.45569213	-159.49936	0.46270542	20.184684	0.46027525	21.738444	
	0.4561208	-159.61326	0.58501168	-17.101197	0.46027525	21.738444	0.46404613	20.190335	
	
0.165273663794043	0.46369669	19.753195	0.46119631	21.334208	0.58160894	-16.698704	0.45711054	-160.01281	
	0.46119631	21.334208	0.46538838	19.652064	0.45686047	-160.00784	0.58158039	-16.849818	
	0.58160894	-16.698704	0.45686047	-160.00784	0.46365338	19.734003	0.46112105	21.186467	
	0.45711054	-160.01281	0.58158039	-16.849818	0.46112105	21.186467	0.46464775	19.83138	
	
0.169091587932473	0.46576168	19.355362	0.46211138	20.870138	0.57872277	-16.500249	0.45830755	-160.46037	
	0.46211138	20.870138	0.46618756	19.349771	0.45834069	-160.4479	0.5782608	-16.719161	
	0.57872277	-16.500249	0.45834069	-160.4479	0.46494925	19.364349	0.46187091	20.758971	
	0.45830755	-160.46037	0.5782608	-16.719161	0.46187091	20.758971	0.46679854	19.400142	
	
0.172997708486424	0.46682522	18.858943	0.46356226	20.495344	0.57583335	-16.282765	0.45969297	-160.88572	
	0.46356226	20.495344	0.46778016	18.847131	0.45935058	-160.78002	0.57518256	-16.51855	
	0.57583335	-16.282765	0.45935058	-160.78002	0.46710819	18.949136	0.46341387	20.34145	
	0.45969297	-160.88572	0.57518256	-16.51855	0.46341387	20.34145	0.4677134	19.004747	
	
0.176994062847797	0.46756977	18.43003	0.46491683	20.055426	0.57228548	-16.142708	0.4612149	-161.30972	
	0.46491683	20.055426	0.46872659	18.493868	0.46066599	-161.26252	0.57255286	-16.307272	
	0.57228548	-16.142708	0.46066599	-161.26252	0.46785227	18.478696	0.46492407	19.964543	
	0.4612149	-161.30972	0.57255286	-16.307272	0.46492407	19.964543	0.46786319	18.557938	
	
0.181082735473506	0.46912168	18.0386	0.46558288	19.720111	0.56991995	-15.965741	0.4617412	-161.72449	
	0.46558288	19.720111	0.47017204	18.045823	0.46156884	-161.66403	0.56966889	-16.174463	
	0.56991995	-15.965741	0.46156884	-161.66403	0.46815443	18.098922	0.46618291	19.54644	
	0.4617412	-161.72449	0.56966889	-16.174463	0.46618291	19.54644	0.46989761	18.182368	
	
0.185265858972714	0.47021564	17.679098	0.46719643	19.331947	0.56695364	-15.793247	0.46315382	-162.09753	
	0.46719643	19.331947	0.47138804	17.718898	0.46339026	-162.04584	0.56669809	-15.953797	
	0.56695364	-15.793247	0.46339026	-162.04584	0.47015894	17.658385	0.46752462	19.255696	
	0.46315382	-162.09753	0.56669809	-15.953797	0.46752462	19.255696	0.47088299	17.774543	
	
0.18954561521918	0.47188477	17.242776	0.46842544	18.98817	0.56464982	-15.603566	0.46508212	-162.51215	
	0.46842544	18.98817	0.47313285	17.281592	0.46422526	-162.46324	0.56385968	-15.787808	
	0.56464982	-15.603566	0.46422526	-162.46324	0.47106549	17.275621	0.46884468	18.892077	
	0.46508212	-162.51215	0.56385968	-15.787808	0.46884468	18.892077	0.47168724	17.416796	
	
0.193924236489297	0.47286701	16.845728	0.46920471	18.561224	0.56169397	-15.453846	0.46534772	-162.898	
	0.46920471	18.561224	0.47372726	16.858287	0.46563405	-162.91189	0.56171628	-15.566735	
	0.56169397	-15.453846	0.46563405	-162.91189	0.47203771	16.878	0.46967729	18.466152	
	0.46534772	-162.898	0.56171628	-15.566735	0.46967729	18.466152	0.4733915	16.991454	
	
0.19840400662643	0.47369089	16.486777	0.47024758	18.190876	0.55964284	-15.238044	0.46736917	-163.31721	
	0.47024758	18.190876	0.47469735	16.519034	0.46647923	-163.33901	0.55910055	-15.367232	
	0.55964284	-15.238044	0.46647923	-163.33901	0.47263403	16.484349	0.47104311	18.06456	
	0.46736917	-163.31721	0.55910055	-15.367232	0.47104311	18.06456	0.47439639	16.499538	
	
0.202987262232139	0.47440592	16.1224	0.4712733	17.87716	0.55712572	-15.010431	0.46759994	-163.73336	
	0.4712733	17.87716	0.47606234	16.148992	0.46735325	-163.67688	0.55648145	-15.192995	
	0.55712572	-15.010431	0.46735325	-163.67688	0.47420638	16.080326	0.47188617	17.801568	
	0.46759994	-163.73336	0.55648145	-15.192995	0.47188617	17.801568	0.4758324	16.198588	
	
0.207676393884933	0.47477834	15.743288	0.47251112	17.498224	0.55455706	-14.860005	0.46871855	-164.12081	
	0.47251112	17.498224	0.47661763	15.75332	0.46811915	-164.04442	0.55405943	-15.021439	
	0.55455706	-14.860005	0.46811915	-164.04442	0.47498506	15.735788	0.47219633	17.422997	
	0.46871855	-164.12081	0.55405943	-15.021439	0.47219633	17.422997	0.47665977	15.90509	
	
0.212473847387164	0.47670813	15.322412	0.47343769	17.210906	0.55269592	-14.604876	0.4689741	-164.47704	
	0.47343769	17.210906	0.47754785	15.360574	0.46870519	-164.43134	0.55183826	-14.804651	
	0.55269592	-14.604876	0.46870519	-164.43134	0.47600903	15.426686	0.47341985	17.107427	
	0.4689741	-164.47704	0.55183826	-14.804651	0.47341985	17.107427	0.47703312	15.517557	
	
0.217382125040737	0.47698072	15.041375	0.47406328	16.821737	0.55039608	-14.492225	0.4705072	-164.86554	
	0.47406328	16.821737	0.47934603	15.058414	0.47010292	-164.83554	0.5499259	-14.617887	
	0.55039608	-14.492225	0.47010292	-164.83554	0.47631078	14.989713	0.47502309	16.764017	
	0.4705072	-164.86554	0.5499259	-14.617887	0.47502309	16.764017	0.47825941	15.101583	
	
0.222403786952283	0.47858301	14.644509	0.47489473	16.463651	0.54802387	-14.300404	0.47086864	-165.15727	
	0.47489473	16.463651	0.47996768	14.627317	0.47091546	-165.16662	0.54784317	-14.40781	
	0.54802387	-14.300404	0.47091546	-165.16662	0.47734148	14.75063	0.47530896	16.387721	
	0.47086864	-165.15727	0.54784317	-14.40781	0.47530896	16.387721	0.4789214	14.764211	
	
0.227541452368483	0.47988581	14.296758	0.47601207	16.214512	0.54629766	-14.061534	0.47220856	-165.58032	
	0.47601207	16.214512	0.48074872	14.352421	0.47131348	-165.52864	0.54491738	-14.299709	
	0.54629766	-14.061534	0.47131348	-165.52864	0.47848413	14.280941	0.47638848	16.160384	
	0.47220856	-165.58032	0.54491738	-14.299709	0.47638848	16.160384	0.48025291	14.420122	
	
0.232797801042241	0.47992523	13.984439	0.4770148	15.90567	0.54409401	-13.860318	0.47246924	-165.89913	
	0.4770148	15.90567	0.48060373	14.028877	0.47290259	-165.87388	0.54357125	-14.080633	
	0.54409401	-13.860318	0.47290259	-165.87388	0.47955301	13.927519	0.4770816	15.77177	
	0.47246924	-165.89913	0.54357125	-14.080633	0.4770816	15.77177	0.48081495	14.103903	
	
0.238175574630416	0.48074777	13.614352	0.47778236	15.607511	0.54243738	-13.694047	0.47382679	-166.20801	
	0.47778236	15.607511	0.48147354	13.665365	0.47331119	-166.21589	0.54160398	-13.875189	
	0.54243738	-13.694047	0.47331119	-166.21589	0.48043564	13.66328	0.47759124	15.494365	
	0.47382679	-166.20801	0.54160398	-13.875189	0.47759124	15.494365	0.48198589	13.801935	
	
0.24367757812384	0.48168328	13.352656	0.47862873	15.233824	0.54042112	-13.572173	0.47447077	-166.52767	
	0.47862873	15.233824	0.48189123	13.253344	0.47388169	-166.54561	0.53977872	-13.693131	
	0.54042112	-13.572173	0.47388169	-166.54561	0.48099447	13.326355	0.47812889	15.176553	
	0.47447077	-166.52767	0.53977872	-13.693131	0.47812889	15.176553	0.4823797	13.4723	
	
0.249306681310373	0.48212437	12.964476	0.47920069	14.993567	0.53823851	-13.339662	0.47470562	-166.91432	
	0.47920069	14.993567	0.48378889	12.977674	0.47455171	-166.90272	0.53793911	-13.533112	
	0.53823851	-13.339662	0.47455171	-166.90272	0.48204699	13.043926	0.47947066	14.881659	
	0.47470562	-166.91432	0.53793911	-13.533112	0.47947066	14.881659	0.48301337	13.110473	
	
0.255065820271756	0.48270787	12.679473	0.47980358	14.710769	0.53667681	-13.184389	0.47588173	-167.19395	
	0.47980358	14.710769	0.48464346	12.649741	0.47515227	-167.22824	0.53636835	-13.30319	
	0.53667681	-13.184389	0.47515227	-167.22824	0.48180525	12.644225	0.48013123	14.565015	
	0.47588173	-167.19395	0.53636835	-13.30319	0.48013123	14.565015	0.48313908	12.809057	
	
0.260957998915036	0.48326696	12.338896	0.48001987	14.508758	0.53472717	-12.943308	0.47604064	-167.58119	
	0.48001987	14.508758	0.48497295	12.389849	0.47630335	-167.52985	0.53455059	-13.128241	
	0.53472717	-12.943308	0.47630335	-167.52985	0.48284275	12.413107	0.4804998	14.351626	
	0.47604064	-167.58119	0.53455059	-13.128241	0.4804998	14.351626	0.48402586	12.429232	
	
0.266986290539378	0.48368676	12.035429	0.48073561	14.109069	0.53389167	-12.772233	0.47642312	-167.91648	
	0.48073561	14.109069	0.48508829	12.099992	0.4769369	-167.85921	0.53312881	-12.950332	
	0.53389167	-12.772233	0.4769369	-167.85921	0.48393358	12.040125	0.48133221	14.051426	
	0.47642312	-167.91648	0.53312881	-12.950332	0.48133221	14.051426	0.48551434	12.24295	
	
0.273153839439064	0.48487759	11.732191	0.48157681	13.855289	0.53238476	-12.606995	0.47717964	-168.21562	
	0.48157681	13.855289	0.48558847	11.710055	0.47767727	-168.18204	0.531832	-12.750976	
	0.53238476	-12.606995	0.47767727	-168.18204	0.48400361	11.721451	0.48150518	13.818701	
	0.47717964	-168.21562	0.531832	-12.750976	0.48150518	13.818701	0.48537951	11.87691	
	
0.279463862543524	0.48512382	11.357705	0.48232057	13.661817	0.53117078	-12.450546	0.47763521	-168.50036	
	0.48232057	13.661817	0.48710048	11.443579	0.47772135	-168.51688	0.52947866	-12.619336	
	0.53117078	-12.450546	0.47772135	-168.51688	0.48507273	11.465901	0.48231161	13.55378	
	0.47763521	-168.50036	0.52947866	-12.619336	0.48231161	13.55378	0.48635428	11.589368	
	
0.285919651095252	0.48590768	11.185934	0.48277425	13.363189	0.52934433	-12.242217	0.47836578	-168.79547	
	0.48277425	13.363189	0.48653596	11.231589	0.47830863	-168.82248	0.52868364	-12.385044	
	0.52934433	-12.242217	0.47830863	-168.82248	0.48488144	11.184868	0.4830505	13.234636	
	0.47836578	-168.79547	0.52868364	-12.385044	0.4830505	13.234636	0.48722935	11.218705	
	
0.292524572366485	0.48660809	10.874117	0.48355411	13.139431	0.52776691	-12.085877	0.47878039	-169.14784	
	0.48355411	13.139431	0.48772849	10.97037	0.47921812	-169.18177	0.52691867	-12.235459	
	0.52776691	-12.085877	0.47921812	-169.18177	0.48608428	10.94044	0.48367925	12.927546	
	0.47878039	-169.14784	0.52691867	-12.235459	0.48367925	12.927546	0.48714714	11.077896	
	
0.299282071415539	0.48659278	10.614723	0.48376133	12.849944	0.5267991	-11.871943	0.47924875	-169.43834	
	0.48376133	12.849944	0.48764808	10.695375	0.47884015	-169.37851	0.52618567	-12.08277	
	0.5267991	-11.871943	0.47884015	-169.37851	0.48610455	10.752916	0.48353223	12.656431	
	0.47924875	-169.43834	0.52618567	-12.08277	0.48353223	12.656431	0.48712178	10.794796	
	
0.30619567288371	0.48704907	10.395046	0.48405475	12.652896	0.52518683	-11.770657	0.47974667	-169.67752	
	0.48405475	12.652896	0.48813058	10.404686	0.4791204	-169.66554	0.52514095	-11.873784	
	0.52518683	-11.770657	0.4791204	-169.66554	0.48598746	10.399904	0.48446472	12.482937	
	0.47974667	-169.67752	0.52514095	-11.873784	0.48446472	12.482937	0.48830581	10.491161	
	
0.313268982833699	0.48787604	10.045751	0.48483441	12.442774	0.52386622	-11.541728	0.48038942	-169.95447	
	0.48483441	12.442774	0.48817062	10.02177	0.48052019	-169.93796	0.52357444	-11.70436	
	0.52386622	-11.541728	0.48052019	-169.93796	0.48736761	10.042222	0.48514544	12.260254	
	0.48038942	-169.95447	0.52357444	-11.70436	0.48514544	12.260254	0.48814004	10.237212	
	
0.320505690630487	0.48756854	9.6876038	0.48555345	12.250998	0.52318518	-11.333313	0.48111147	-170.18164	
	0.48555345	12.250998	0.48920713	9.7365627	0.48061646	-170.16991	0.52229725	-11.552219	
	0.52318518	-11.333313	0.48061646	-170.16991	0.48792325	9.7161074	0.48574324	12.099759	
	0.48111147	-170.18164	0.52229725	-11.552219	0.48574324	12.099759	0.48913817	9.8324292	
	
0.327909570865677	0.48801342	9.4496572	0.48596645	11.978185	0.52167985	-11.178432	0.48214917	-170.46473	
	0.48596645	11.978185	0.48943899	9.3732618	0.48124762	-170.41552	0.52078765	-11.354907	
	0.52167985	-11.178432	0.48124762	-170.41552	0.48718165	9.4287417	0.48656678	11.892469	
	0.48214917	-170.46473	0.52078765	-11.354907	0.48656678	11.892469	0.48839579	9.5789438	
	
0.335484485326279	0.48831801	9.1628562	0.48680223	11.830421	0.52056173	-10.998412	0.48194499	-170.75082	
	0.48680223	11.830421	0.48982239	9.1802932	0.48191909	-170.66074	0.51966444	-11.159808	
