
**** 02/25/25 11:44:35 **** PSpice 22.1.0 (6 October 2022) **** ID# 0 ********

 ** Profile: "SCHEMATIC1-bias"  [ c:\users\ddurachk\desktop\projects\grams\2 - schematics and layouts\100 - gse\simulation_folder\sta


 ****     CIRCUIT DESCRIPTION


******************************************************************************




** Creating circuit file "bias.cir" 
** WARNING: THIS AUTOMATICALLY GENERATED FILE MAY BE OVERWRITTEN BY SUBSEQUENT SIMULATIONS

*Libraries: 
* Profile Libraries :
* Local Libraries :
* From [PSPICE NETLIST] section of C:\Users\ddurachk\cdssetup\OrCAD_PSpice\22.1.0\PSpice.ini file:
.lib "$(GRAMS)\PARTS\ISL70417SEH\isl70417.lib" 
.lib "nom.lib" 

*Analysis directives: 
.AC DEC 20 10 10G
.OPTIONS ADVCONV
.PROBE64 V(alias(*)) I(alias(*)) W(alias(*)) D(alias(*)) NOISE(alias(*)) 
.INC "..\SCHEMATIC1.net" 



**** INCLUDING SCHEMATIC1.net ****
* source LC_CIRCUIT
L_L1         N14418 N14406  2.801uH  
R_R1         N14394 N14418  0.009 TC=0,0 
C_C1         N14394 N14406  6.73pF  TC=0,0 
R_R2         N14394 N14406  4.31k TC=0,0 
V_V1         N14495 0 DC 1VDC AC 1Vac 
R_R4         N14394 N14495  2 TC=0,0 
C_C2         0 N14406  0.01uF  TC=0,0 
C_C3         0 N14406  0.1uF  TC=0,0 
C_C4         0 N14406  1uF  TC=0,0 
C_C5         N16889 N14406  47uF  TC=0,0 
R_R5         0 N16889  0 TC=0,0 
-----------------------$
WARNING -- Zero resistance is not allowed and is internally replaced with 1.000e-12 Ohms.

**** RESUMING bias.cir ****
.END

**** 02/25/25 11:44:35 **** PSpice 22.1.0 (6 October 2022) **** ID# 0 ********

 ** Profile: "SCHEMATIC1-bias"  [ c:\users\ddurachk\desktop\projects\grams\2 - schematics and layouts\100 - gse\simulation_folder\sta


 ****     SMALL SIGNAL BIAS SOLUTION       TEMPERATURE =   27.000 DEG C


******************************************************************************



 NODE   VOLTAGE     NODE   VOLTAGE     NODE   VOLTAGE     NODE   VOLTAGE


(N14394)    1.0000 (N14406)    1.0000 (N14418)    1.0000 (N14495)    1.0000     

(N16889)    0.0000 




    VOLTAGE SOURCE CURRENTS
    NAME         CURRENT

    V_V1         1.188E-14

    TOTAL POWER DISSIPATION  -1.19E-14  WATTS



          JOB CONCLUDED

**** 02/25/25 11:44:35 **** PSpice 22.1.0 (6 October 2022) **** ID# 0 ********

 ** Profile: "SCHEMATIC1-bias"  [ c:\users\ddurachk\desktop\projects\grams\2 - schematics and layouts\100 - gse\simulation_folder\sta


 ****     JOB STATISTICS SUMMARY


******************************************************************************



  Total job time (using Solver 1)   =         .03
